! Anritsu VNA Master:                     Model: MS2036C/10/77
! SN:                                  1601066
! /card0/usr/18may27.balun/5b.66.3.s2p
! Existing Calibration Information:
! TYPE:                         Current Settings,       Active Cal Settings
! TIME:             	   05/27/2018 04:01:33 PM,    05/27/2018 03:52:12 PM
! INTERNAL TEMP:    	                   51.8 C,                    52.5 C
! # POINTS:         	                      500,                       500
! START FREQ:       	               20.000 MHz,                20.000 MHz
! STOP FREQ:        	              120.000 MHz,               120.000 MHz
! SOURCE POWER:     	                     High,                      High
! IFBW:             	                    50 Hz,                     50 Hz
! AVG FACTOR:       	                       1 ,                        1 
! REF PLANE 1:      	                     0 mm,                      0 mm
! REF PLANE 2:      	                     0 mm,                      0 mm
! CAL TYPE:         	                 Full S11,                  Full S11
! CAL METHOD:       	                     SOLT,                      SOLT
! CAL LINE TYPE:    	                     Coax,                      Coax
! DUT PORT 1:       	                K-Conn(M),                 K-Conn(M)
! DUT PORT 2:       	                K-Conn(M),                 K-Conn(M)
! CAL STATUS:       	        OK: Accuracy High,                        --
# GHZ S DB R 50.0
! FREQ.GHZ       S11DB        S11A       S21DB        S21A       S12DB        S12A       S22DB        S22A
  0.020000000   -0.036232  -68.180664  -90.314201   33.845383    0.000000    0.000000    0.000000    0.000000
  0.020200401   -0.034997  -68.827728  -90.536506   32.001442    0.000000    0.000000    0.000000    0.000000
  0.020400802   -0.034375  -69.470039  -90.706506   32.299381    0.000000    0.000000    0.000000    0.000000
  0.020601202   -0.033419  -70.115318  -90.844243   29.290075    0.000000    0.000000    0.000000    0.000000
  0.020801603   -0.034787  -70.748161  -91.355752   26.512293    0.000000    0.000000    0.000000    0.000000
  0.021002004   -0.034684  -71.397957  -91.464405   28.156189    0.000000    0.000000    0.000000    0.000000
  0.021202405   -0.036943  -72.040260  -92.011529   27.519531    0.000000    0.000000    0.000000    0.000000
  0.021402806   -0.041413  -72.671082  -92.147897   29.364691    0.000000    0.000000    0.000000    0.000000
  0.021603206   -0.044405  -73.297729  -93.161824   26.049847    0.000000    0.000000    0.000000    0.000000
  0.021803607   -0.048847  -73.909927  -92.753377   30.750608    0.000000    0.000000    0.000000    0.000000
  0.022004008   -0.051333  -74.533409  -93.089974   24.492912    0.000000    0.000000    0.000000    0.000000
  0.022204409   -0.055259  -75.168198  -92.869147   26.267971    0.000000    0.000000    0.000000    0.000000
  0.022404810   -0.057020  -75.827507  -93.923452   30.680332    0.000000    0.000000    0.000000    0.000000
  0.022605210   -0.059954  -76.448883  -93.306612   33.532562    0.000000    0.000000    0.000000    0.000000
  0.022805611   -0.056037  -77.105232  -93.919766   34.980694    0.000000    0.000000    0.000000    0.000000
  0.023006012   -0.045846  -77.750633  -93.322546   34.945911    0.000000    0.000000    0.000000    0.000000
  0.023206413   -0.036774  -78.394623  -93.111407   28.101004    0.000000    0.000000    0.000000    0.000000
  0.023406814   -0.032423  -79.035095  -93.069630   39.619068    0.000000    0.000000    0.000000    0.000000
  0.023607214   -0.031276  -79.649765  -93.369656   34.783607    0.000000    0.000000    0.000000    0.000000
  0.023807615   -0.034413  -80.230263  -93.094958   31.213053    0.000000    0.000000    0.000000    0.000000
  0.024008016   -0.037679  -80.814285  -93.848569   30.469481    0.000000    0.000000    0.000000    0.000000
  0.024208417   -0.044066  -81.400101  -93.518492   27.693579    0.000000    0.000000    0.000000    0.000000
  0.024408818   -0.050814  -81.965446  -92.673091   30.916077    0.000000    0.000000    0.000000    0.000000
  0.024609218   -0.054479  -82.559494  -93.017513   25.441969    0.000000    0.000000    0.000000    0.000000
  0.024809619   -0.058913  -83.181847  -93.239269   22.789770    0.000000    0.000000    0.000000    0.000000
  0.025010020   -0.063163  -83.827393  -93.861000   23.269499    0.000000    0.000000    0.000000    0.000000
  0.025210421   -0.064733  -84.470299  -93.554453   20.790506    0.000000    0.000000    0.000000    0.000000
  0.025410822   -0.066906  -85.151596  -94.446370   17.998262    0.000000    0.000000    0.000000    0.000000
  0.025611222   -0.068091  -85.810402  -94.420955   20.416468    0.000000    0.000000    0.000000    0.000000
  0.025811623   -0.062434  -86.455902  -94.828161   17.059935    0.000000    0.000000    0.000000    0.000000
  0.026012024   -0.058710  -87.068687  -94.740183   19.092075    0.000000    0.000000    0.000000    0.000000
  0.026212425   -0.056297  -87.669724  -95.500131   19.545595    0.000000    0.000000    0.000000    0.000000
  0.026412826   -0.058603  -88.275673  -96.038563   20.103245    0.000000    0.000000    0.000000    0.000000
  0.026613226   -0.065666  -88.868645  -95.529320   16.768682    0.000000    0.000000    0.000000    0.000000
  0.026813627   -0.072031  -89.451447  -96.336041   16.874023    0.000000    0.000000    0.000000    0.000000
  0.027014028   -0.078965  -90.000458  -95.833202   24.888271    0.000000    0.000000    0.000000    0.000000
  0.027214429   -0.090681  -90.600128  -96.223154   17.839760    0.000000    0.000000    0.000000    0.000000
  0.027414830   -0.099458  -91.248734  -96.402000   20.386641    0.000000    0.000000    0.000000    0.000000
  0.027615230   -0.105244  -91.907410  -96.586431   21.028639    0.000000    0.000000    0.000000    0.000000
  0.027815631   -0.106334  -92.590439  -95.382537   29.839487    0.000000    0.000000    0.000000    0.000000
  0.028016032   -0.100539  -93.265251  -96.310398   24.139133    0.000000    0.000000    0.000000    0.000000
  0.028216433   -0.093988  -93.938751  -95.540272   23.440826    0.000000    0.000000    0.000000    0.000000
  0.028416834   -0.083288  -94.619072  -95.435978   23.340099    0.000000    0.000000    0.000000    0.000000
  0.028617234   -0.073979  -95.252220  -95.411047   20.976606    0.000000    0.000000    0.000000    0.000000
  0.028817635   -0.066262  -95.821632  -95.734658   20.942528    0.000000    0.000000    0.000000    0.000000
  0.029018036   -0.058035  -96.356491  -95.799996   19.745758    0.000000    0.000000    0.000000    0.000000
  0.029218437   -0.052860  -96.877419  -95.534713   18.699799    0.000000    0.000000    0.000000    0.000000
  0.029418838   -0.047723  -97.377403  -95.360606   20.904600    0.000000    0.000000    0.000000    0.000000
  0.029619238   -0.048025  -97.858376  -95.503112   18.157946    0.000000    0.000000    0.000000    0.000000
  0.029819639   -0.050094  -98.377632  -95.591265   15.016073    0.000000    0.000000    0.000000    0.000000
  0.030020040   -0.054275  -98.928558  -96.669349   10.201207    0.000000    0.000000    0.000000    0.000000
  0.030220441   -0.065569  -99.482246  -96.872630   14.662952    0.000000    0.000000    0.000000    0.000000
  0.030420842   -0.078093 -100.103752  -96.659825    9.469209    0.000000    0.000000    0.000000    0.000000
  0.030621242   -0.085418 -100.738884  -96.512489   10.524630    0.000000    0.000000    0.000000    0.000000
  0.030821643   -0.084048 -101.377571  -97.219492   13.911798    0.000000    0.000000    0.000000    0.000000
  0.031022044   -0.084765 -101.987839  -97.847250   10.756012    0.000000    0.000000    0.000000    0.000000
  0.031222445   -0.076811 -102.594574  -96.661435   19.529440    0.000000    0.000000    0.000000    0.000000
  0.031422846   -0.075463 -103.183289  -96.973875    4.604413    0.000000    0.000000    0.000000    0.000000
  0.031623246   -0.079356 -103.736412  -97.381967    8.861807    0.000000    0.000000    0.000000    0.000000
  0.031823647   -0.075212 -104.274269  -96.559797   14.516719    0.000000    0.000000    0.000000    0.000000
  0.032024048   -0.080125 -104.804474  -97.844123   12.980425    0.000000    0.000000    0.000000    0.000000
  0.032224449   -0.089488 -105.317085  -98.492158   15.548826    0.000000    0.000000    0.000000    0.000000
  0.032424850   -0.102318 -105.860947  -97.643051   12.894584    0.000000    0.000000    0.000000    0.000000
  0.032625251   -0.114787 -106.438141  -98.862405   18.031181    0.000000    0.000000    0.000000    0.000000
  0.032825651   -0.124036 -107.059250  -97.149395    9.161040    0.000000    0.000000    0.000000    0.000000
  0.033026052   -0.129702 -107.676750  -96.793706   15.239885    0.000000    0.000000    0.000000    0.000000
  0.033226453   -0.133273 -108.313515  -99.130038   14.156028    0.000000    0.000000    0.000000    0.000000
  0.033426854   -0.135885 -108.956451  -98.095253   13.871478    0.000000    0.000000    0.000000    0.000000
  0.033627255   -0.137176 -109.609612  -97.370386   15.986946    0.000000    0.000000    0.000000    0.000000
  0.033827655   -0.136418 -110.259834  -97.564351   10.555243    0.000000    0.000000    0.000000    0.000000
  0.034028056   -0.133174 -110.873779  -97.623736    8.398837    0.000000    0.000000    0.000000    0.000000
  0.034228457   -0.127360 -111.490715  -97.306881   11.642418    0.000000    0.000000    0.000000    0.000000
  0.034428858   -0.118164 -112.058655  -97.337782   12.884768    0.000000    0.000000    0.000000    0.000000
  0.034629259   -0.105783 -112.581123  -98.058921   10.451121    0.000000    0.000000    0.000000    0.000000
  0.034829659   -0.100717 -113.097984  -98.203442   10.525169    0.000000    0.000000    0.000000    0.000000
  0.035030060   -0.096895 -113.595085  -98.345705   13.064287    0.000000    0.000000    0.000000    0.000000
  0.035230461   -0.093816 -114.082375  -98.367756   11.058239    0.000000    0.000000    0.000000    0.000000
  0.035430862   -0.094158 -114.594551  -99.066311    5.069258    0.000000    0.000000    0.000000    0.000000
  0.035631263   -0.102581 -115.092064  -99.087547   15.466794    0.000000    0.000000    0.000000    0.000000
  0.035831663   -0.109458 -115.637589 -101.492839    8.090421    0.000000    0.000000    0.000000    0.000000
  0.036032064   -0.116079 -116.212120  -99.206379    3.795601    0.000000    0.000000    0.000000    0.000000
  0.036232465   -0.123784 -116.800087 -101.382350    8.357169    0.000000    0.000000    0.000000    0.000000
  0.036432866   -0.127496 -117.437469  -99.088537   12.091363    0.000000    0.000000    0.000000    0.000000
  0.036633267   -0.127060 -118.035957  -99.203093    8.513525    0.000000    0.000000    0.000000    0.000000
  0.036833667   -0.121837 -118.624809  -99.108302    8.894404    0.000000    0.000000    0.000000    0.000000
  0.037034068   -0.109841 -119.162720  -99.937417    4.819464    0.000000    0.000000    0.000000    0.000000
  0.037234469   -0.098597 -119.651428  -99.491840   12.267462    0.000000    0.000000    0.000000    0.000000
  0.037434870   -0.096265 -120.136017  -99.952323   -0.304097    0.000000    0.000000    0.000000    0.000000
  0.037635271   -0.098430 -120.617752  -97.723188   15.558166    0.000000    0.000000    0.000000    0.000000
  0.037835671   -0.104755 -121.122475  -99.256823    6.558315    0.000000    0.000000    0.000000    0.000000
  0.038036072   -0.114414 -121.657471  -98.458071   15.553561    0.000000    0.000000    0.000000    0.000000
  0.038236473   -0.122649 -122.218147 -100.458871    3.780249    0.000000    0.000000    0.000000    0.000000
  0.038436874   -0.126381 -122.792786 -100.236966   16.527966    0.000000    0.000000    0.000000    0.000000
  0.038637275   -0.134080 -123.355850  -99.067480    7.737000    0.000000    0.000000    0.000000    0.000000
  0.038837675   -0.138975 -123.914368 -100.598981    2.091351    0.000000    0.000000    0.000000    0.000000
  0.039038076   -0.147929 -124.509293 -101.413227   -3.090258    0.000000    0.000000    0.000000    0.000000
  0.039238477   -0.150999 -125.106445  -99.461369    8.050427    0.000000    0.000000    0.000000    0.000000
  0.039438878   -0.150578 -125.684769  -98.412335    3.379918    0.000000    0.000000    0.000000    0.000000
  0.039639279   -0.146923 -126.249229 -101.578891    6.700815    0.000000    0.000000    0.000000    0.000000
  0.039839679   -0.140879 -126.774323  -98.821379    7.369552    0.000000    0.000000    0.000000    0.000000
  0.040040080   -0.135338 -127.288185 -100.454839    8.684436    0.000000    0.000000    0.000000    0.000000
  0.040240481   -0.134658 -127.784874 -101.932925   -0.520523    0.000000    0.000000    0.000000    0.000000
  0.040440882   -0.130398 -128.305710 -101.413043    1.762155    0.000000    0.000000    0.000000    0.000000
  0.040641283   -0.131128 -128.816696 -100.116175   -4.468915    0.000000    0.000000    0.000000    0.000000
  0.040841683   -0.131877 -129.320007 -101.517116    1.369066    0.000000    0.000000    0.000000    0.000000
  0.041042084   -0.135951 -129.792358 -101.409914    6.746068    0.000000    0.000000    0.000000    0.000000
  0.041242485   -0.145858 -130.281723 -103.933527   14.828096    0.000000    0.000000    0.000000    0.000000
  0.041442886   -0.161401 -130.799850 -100.912676   17.069393    0.000000    0.000000    0.000000    0.000000
  0.041643287   -0.168685 -131.357666 -101.352124   -2.752613    0.000000    0.000000    0.000000    0.000000
  0.041843687   -0.170974 -131.952271 -100.208426   13.114141    0.000000    0.000000    0.000000    0.000000
  0.042044088   -0.166668 -132.520493 -101.845019    6.218834    0.000000    0.000000    0.000000    0.000000
  0.042244489   -0.157223 -133.051346  -98.805626   16.510464    0.000000    0.000000    0.000000    0.000000
  0.042444890   -0.145495 -133.533173 -100.188854   19.232344    0.000000    0.000000    0.000000    0.000000
  0.042645291   -0.142233 -133.994904 -101.743583    8.535838    0.000000    0.000000    0.000000    0.000000
  0.042845691   -0.141043 -134.482315 -100.726133    0.836001    0.000000    0.000000    0.000000    0.000000
  0.043046092   -0.143755 -134.962601  -99.788066   16.977299    0.000000    0.000000    0.000000    0.000000
  0.043246493   -0.148171 -135.473358 -100.317247    8.996758    0.000000    0.000000    0.000000    0.000000
  0.043446894   -0.151327 -135.975342 -100.400386   10.737165    0.000000    0.000000    0.000000    0.000000
  0.043647295   -0.156905 -136.455231  -99.988201    8.456999    0.000000    0.000000    0.000000    0.000000
  0.043847695   -0.160736 -136.966614 -100.524778    3.092188    0.000000    0.000000    0.000000    0.000000
  0.044048096   -0.165717 -137.485809  -99.649868  -10.783134    0.000000    0.000000    0.000000    0.000000
  0.044248497   -0.169632 -138.042953 -101.118836   -0.830353    0.000000    0.000000    0.000000    0.000000
  0.044448898   -0.171292 -138.578415 -100.459520    4.329779    0.000000    0.000000    0.000000    0.000000
  0.044649299   -0.169630 -139.114777 -100.714541   -4.917539    0.000000    0.000000    0.000000    0.000000
  0.044849699   -0.168056 -139.642059 -102.676597    2.763824    0.000000    0.000000    0.000000    0.000000
  0.045050100   -0.167930 -140.135941 -102.485926   -1.511410    0.000000    0.000000    0.000000    0.000000
  0.045250501   -0.167792 -140.658539 -102.053748   -3.914915    0.000000    0.000000    0.000000    0.000000
  0.045450902   -0.165664 -141.167709 -103.218941  -11.125755    0.000000    0.000000    0.000000    0.000000
  0.045651303   -0.164175 -141.691406 -103.003480    0.143636    0.000000    0.000000    0.000000    0.000000
  0.045851703   -0.158506 -142.204697 -104.377880  -11.486994    0.000000    0.000000    0.000000    0.000000
  0.046052104   -0.157143 -142.712585 -105.635609    2.910678    0.000000    0.000000    0.000000    0.000000
  0.046252505   -0.157814 -143.188858 -104.719913    2.448549    0.000000    0.000000    0.000000    0.000000
  0.046452906   -0.164261 -143.633148 -103.809746   16.812963    0.000000    0.000000    0.000000    0.000000
  0.046653307   -0.175499 -144.120743 -104.172328    6.392935    0.000000    0.000000    0.000000    0.000000
  0.046853707   -0.184566 -144.631439 -101.905791   16.904242    0.000000    0.000000    0.000000    0.000000
  0.047054108   -0.189797 -145.173050 -103.155410   14.241333    0.000000    0.000000    0.000000    0.000000
  0.047254509   -0.186816 -145.713898 -102.673782   19.818821    0.000000    0.000000    0.000000    0.000000
  0.047454910   -0.180914 -146.253525 -100.680291   11.772859    0.000000    0.000000    0.000000    0.000000
  0.047655311   -0.176689 -146.718216 -100.026918   15.938219    0.000000    0.000000    0.000000    0.000000
  0.047855711   -0.173309 -147.210892 -101.310341   -2.284163    0.000000    0.000000    0.000000    0.000000
  0.048056112   -0.172030 -147.672287 -104.492643   10.654494    0.000000    0.000000    0.000000    0.000000
  0.048256513   -0.176458 -148.154541 -102.594496    6.985397    0.000000    0.000000    0.000000    0.000000
  0.048456914   -0.176957 -148.638474 -101.803260    9.131104    0.000000    0.000000    0.000000    0.000000
  0.048657315   -0.180712 -149.080521 -101.491642    5.770082    0.000000    0.000000    0.000000    0.000000
  0.048857715   -0.185641 -149.573746 -100.460470   -1.495790    0.000000    0.000000    0.000000    0.000000
  0.049058116   -0.188533 -150.037109 -102.580055    7.028469    0.000000    0.000000    0.000000    0.000000
  0.049258517   -0.196653 -150.544571 -101.999566   -4.673417    0.000000    0.000000    0.000000    0.000000
  0.049458918   -0.199221 -151.052567 -102.128562  -19.634136    0.000000    0.000000    0.000000    0.000000
  0.049659319   -0.198889 -151.560547 -102.842489   -7.372531    0.000000    0.000000    0.000000    0.000000
  0.049859719   -0.197310 -152.056152 -103.413432  -13.593457    0.000000    0.000000    0.000000    0.000000
  0.050060120   -0.196634 -152.536316 -105.746725    7.224528    0.000000    0.000000    0.000000    0.000000
  0.050260521   -0.198100 -153.007202 -103.508315   -5.493282    0.000000    0.000000    0.000000    0.000000
  0.050460922   -0.199489 -153.501617 -104.579371  -17.170143    0.000000    0.000000    0.000000    0.000000
  0.050661323   -0.198160 -154.006683 -105.710166  -11.483514    0.000000    0.000000    0.000000    0.000000
  0.050861723   -0.195547 -154.510727 -103.417978    2.161495    0.000000    0.000000    0.000000    0.000000
  0.051062124   -0.190033 -155.011276 -106.963665   -4.230362    0.000000    0.000000    0.000000    0.000000
  0.051262525   -0.188492 -155.491943 -105.642438    1.271540    0.000000    0.000000    0.000000    0.000000
  0.051462926   -0.188612 -155.950546 -104.269615    3.176621    0.000000    0.000000    0.000000    0.000000
  0.051663327   -0.189413 -156.406021 -105.142482   22.147377    0.000000    0.000000    0.000000    0.000000
  0.051863727   -0.194216 -156.862915 -104.925603   21.441744    0.000000    0.000000    0.000000    0.000000
  0.052064128   -0.199334 -157.344147 -103.081393    4.177976    0.000000    0.000000    0.000000    0.000000
  0.052264529   -0.203705 -157.833679 -102.034025   18.446581    0.000000    0.000000    0.000000    0.000000
  0.052464930   -0.202213 -158.335297 -101.785723   17.023434    0.000000    0.000000    0.000000    0.000000
  0.052665331   -0.198833 -158.804871 -103.356879    3.071057    0.000000    0.000000    0.000000    0.000000
  0.052865731   -0.197758 -159.263275 -101.775824    8.223986    0.000000    0.000000    0.000000    0.000000
