! Anritsu VNA Master:                     Model: MS2036C/10/77
! SN:                                  1601066
! /card0/usr/18may27.balun/5b.r50.3.s2p
! Existing Calibration Information:
! TYPE:                         Current Settings,       Active Cal Settings
! TIME:             	   05/27/2018 04:06:07 PM,    05/27/2018 03:52:12 PM
! INTERNAL TEMP:    	                   51.5 C,                    52.5 C
! # POINTS:         	                      500,                       500
! START FREQ:       	               20.000 MHz,                20.000 MHz
! STOP FREQ:        	              120.000 MHz,               120.000 MHz
! SOURCE POWER:     	                     High,                      High
! IFBW:             	                    50 Hz,                     50 Hz
! AVG FACTOR:       	                       1 ,                        1 
! REF PLANE 1:      	                     0 mm,                      0 mm
! REF PLANE 2:      	                     0 mm,                      0 mm
! CAL TYPE:         	                 Full S11,                  Full S11
! CAL METHOD:       	                     SOLT,                      SOLT
! CAL LINE TYPE:    	                     Coax,                      Coax
! DUT PORT 1:       	                K-Conn(M),                 K-Conn(M)
! DUT PORT 2:       	                K-Conn(M),                 K-Conn(M)
! CAL STATUS:       	        OK: Accuracy High,                        --
# GHZ S DB R 50.0
! FREQ.GHZ       S11DB        S11A       S21DB        S21A       S12DB        S12A       S22DB        S22A
  0.020000000  -39.321242   53.967972  -91.601819   34.131260    0.000000    0.000000    0.000000    0.000000
  0.020200401  -39.127343   52.930805  -91.061661   36.847950    0.000000    0.000000    0.000000    0.000000
  0.020400802  -39.017522   52.715946  -91.868453   35.239651    0.000000    0.000000    0.000000    0.000000
  0.020601202  -39.053223   53.000614  -91.574189   35.292450    0.000000    0.000000    0.000000    0.000000
  0.020801603  -38.824345   52.970177  -91.664257   34.386921    0.000000    0.000000    0.000000    0.000000
  0.021002004  -38.827864   52.626736  -91.846163   33.773293    0.000000    0.000000    0.000000    0.000000
  0.021202405  -38.778243   52.489368  -91.715273   32.554184    0.000000    0.000000    0.000000    0.000000
  0.021402806  -38.596488   52.480801  -91.939478   33.729645    0.000000    0.000000    0.000000    0.000000
  0.021603206  -38.577676   51.705132  -91.756764   35.265633    0.000000    0.000000    0.000000    0.000000
  0.021803607  -38.465464   51.337448  -92.620798   33.507282    0.000000    0.000000    0.000000    0.000000
  0.022004008  -38.323889   51.337814  -92.269831   29.670254    0.000000    0.000000    0.000000    0.000000
  0.022204409  -38.273842   51.272121  -92.675239   32.230598    0.000000    0.000000    0.000000    0.000000
  0.022404810  -38.160851   51.946011  -92.592528   27.924082    0.000000    0.000000    0.000000    0.000000
  0.022605210  -38.082478   51.429340  -92.569258   34.333679    0.000000    0.000000    0.000000    0.000000
  0.022805611  -37.988153   51.262672  -92.361236   31.161133    0.000000    0.000000    0.000000    0.000000
  0.023006012  -37.892625   51.522209  -93.063644   28.168818    0.000000    0.000000    0.000000    0.000000
  0.023206413  -37.840172   51.375816  -93.130634   28.793093    0.000000    0.000000    0.000000    0.000000
  0.023406814  -37.773176   52.090519  -93.247256   31.519766    0.000000    0.000000    0.000000    0.000000
  0.023607214  -37.688140   52.056190  -92.951676   26.795425    0.000000    0.000000    0.000000    0.000000
  0.023807615  -37.605249   51.779942  -94.031362   31.086035    0.000000    0.000000    0.000000    0.000000
  0.024008016  -37.594249   52.092621  -93.200867   26.479895    0.000000    0.000000    0.000000    0.000000
  0.024208417  -37.559925   52.315620  -93.794426   26.845135    0.000000    0.000000    0.000000    0.000000
  0.024408818  -37.493386   52.117325  -93.745412   23.251953    0.000000    0.000000    0.000000    0.000000
  0.024609218  -37.491989   52.488018  -94.157640   25.190882    0.000000    0.000000    0.000000    0.000000
  0.024809619  -37.424858   52.564709  -94.248994   23.440414    0.000000    0.000000    0.000000    0.000000
  0.025010020  -37.313355   52.555763  -94.136796   26.262121    0.000000    0.000000    0.000000    0.000000
  0.025210421  -37.345396   51.990353  -94.461647   21.843277    0.000000    0.000000    0.000000    0.000000
  0.025410822  -37.213479   52.412376  -94.279648   24.643881    0.000000    0.000000    0.000000    0.000000
  0.025611222  -37.155528   52.730297  -94.253997   23.487610    0.000000    0.000000    0.000000    0.000000
  0.025811623  -37.169998   52.574013  -94.063584   21.982378    0.000000    0.000000    0.000000    0.000000
  0.026012024  -37.136818   52.666988  -95.365579   22.292961    0.000000    0.000000    0.000000    0.000000
  0.026212425  -37.053552   52.416050  -94.802384   22.710829    0.000000    0.000000    0.000000    0.000000
  0.026412826  -37.095144   52.378712  -95.518843   19.672522    0.000000    0.000000    0.000000    0.000000
  0.026613226  -37.031625   52.639408  -94.746986   22.348783    0.000000    0.000000    0.000000    0.000000
  0.026813627  -37.066303   53.178707  -95.279845   22.905010    0.000000    0.000000    0.000000    0.000000
  0.027014028  -37.010338   52.877308  -95.383181   15.954828    0.000000    0.000000    0.000000    0.000000
  0.027214429  -36.969989   52.989449  -95.490287   22.813995    0.000000    0.000000    0.000000    0.000000
  0.027414830  -37.052956   52.761566  -96.749438   19.979124    0.000000    0.000000    0.000000    0.000000
  0.027615230  -36.992037   52.385700  -96.028610   18.246754    0.000000    0.000000    0.000000    0.000000
  0.027815631  -36.978600   51.953983  -95.931645   18.958714    0.000000    0.000000    0.000000    0.000000
  0.028016032  -36.919969   52.119747  -95.956333   19.465027    0.000000    0.000000    0.000000    0.000000
  0.028216433  -36.825727   51.827694  -96.246830   18.279757    0.000000    0.000000    0.000000    0.000000
  0.028416834  -36.805878   51.800617  -96.289199   19.810297    0.000000    0.000000    0.000000    0.000000
  0.028617234  -36.854738   51.520729  -96.493077   15.086250    0.000000    0.000000    0.000000    0.000000
  0.028817635  -36.761498   51.006390  -96.413110   14.408976    0.000000    0.000000    0.000000    0.000000
  0.029018036  -36.777565   50.757950  -96.012490   23.392054    0.000000    0.000000    0.000000    0.000000
  0.029218437  -36.738854   50.510757  -96.476366   16.292889    0.000000    0.000000    0.000000    0.000000
  0.029418838  -36.684451   50.220810  -96.625159   17.672386    0.000000    0.000000    0.000000    0.000000
  0.029619238  -36.635863   50.112434  -97.467671   13.786970    0.000000    0.000000    0.000000    0.000000
  0.029819639  -36.543897   49.577637  -96.044735    9.384255    0.000000    0.000000    0.000000    0.000000
  0.030020040  -36.575763   49.399246  -96.990737   16.059715    0.000000    0.000000    0.000000    0.000000
  0.030220441  -36.411986   49.382591  -97.122955   19.665796    0.000000    0.000000    0.000000    0.000000
  0.030420842  -36.378059   49.254570  -96.451559   15.735038    0.000000    0.000000    0.000000    0.000000
  0.030621242  -36.274511   49.140541  -96.913410   17.278017    0.000000    0.000000    0.000000    0.000000
  0.030821643  -36.184026   48.718346  -96.349188   15.318835    0.000000    0.000000    0.000000    0.000000
  0.031022044  -36.107055   49.040073  -97.579420   17.891748    0.000000    0.000000    0.000000    0.000000
  0.031222445  -36.057554   49.414177  -97.049940   14.458347    0.000000    0.000000    0.000000    0.000000
  0.031422846  -35.952044   49.374802  -97.531768    8.635739    0.000000    0.000000    0.000000    0.000000
  0.031623246  -35.866238   49.702389  -97.935274   14.613626    0.000000    0.000000    0.000000    0.000000
  0.031823647  -35.882600   49.469151  -96.705667   12.118665    0.000000    0.000000    0.000000    0.000000
  0.032024048  -35.869191   49.805317  -97.967099    5.660967    0.000000    0.000000    0.000000    0.000000
  0.032224449  -35.765587   50.288235  -98.057833   15.828914    0.000000    0.000000    0.000000    0.000000
  0.032424850  -35.788250   50.262501  -97.005557   18.960852    0.000000    0.000000    0.000000    0.000000
  0.032625251  -35.792897   50.106926  -96.446386    9.207977    0.000000    0.000000    0.000000    0.000000
  0.032825651  -35.746398   49.799992  -97.605513   13.429000    0.000000    0.000000    0.000000    0.000000
  0.033026052  -35.768146   50.321793  -97.292628   13.372928    0.000000    0.000000    0.000000    0.000000
  0.033226453  -35.685272   50.016407  -97.894973    9.032228    0.000000    0.000000    0.000000    0.000000
  0.033426854  -35.676129   49.959202  -99.303879   14.167351    0.000000    0.000000    0.000000    0.000000
  0.033627255  -35.714408   49.789749  -99.407477    3.637941    0.000000    0.000000    0.000000    0.000000
  0.033827655  -35.743043   49.380852  -97.961816   11.127494    0.000000    0.000000    0.000000    0.000000
  0.034028056  -35.698873   49.766556  -98.553100   11.097567    0.000000    0.000000    0.000000    0.000000
  0.034228457  -35.717358   48.939922  -98.146603   11.309206    0.000000    0.000000    0.000000    0.000000
  0.034428858  -35.724917   48.878323  -98.324385    6.566659    0.000000    0.000000    0.000000    0.000000
  0.034629259  -35.641689   48.295418  -98.172321   12.568446    0.000000    0.000000    0.000000    0.000000
  0.034829659  -35.642851   48.186268 -100.867430   16.075544    0.000000    0.000000    0.000000    0.000000
  0.035030060  -35.633522   47.950676  -99.003051   12.342661    0.000000    0.000000    0.000000    0.000000
  0.035230461  -35.601240   47.472862 -100.308665    6.770692    0.000000    0.000000    0.000000    0.000000
  0.035430862  -35.604005   47.469246  -98.179110    9.058622    0.000000    0.000000    0.000000    0.000000
  0.035631263  -35.505476   46.875671  -98.239409    4.375537    0.000000    0.000000    0.000000    0.000000
  0.035831663  -35.432247   46.844105  -98.964424    1.061709    0.000000    0.000000    0.000000    0.000000
  0.036032064  -35.374455   46.344296  -99.629075    3.009410    0.000000    0.000000    0.000000    0.000000
  0.036232465  -35.256868   45.888718  -98.869604    2.448278    0.000000    0.000000    0.000000    0.000000
  0.036432866  -35.252201   45.667751  -98.884256   -0.415840    0.000000    0.000000    0.000000    0.000000
  0.036633267  -35.065339   45.760746  -98.807296   11.089302    0.000000    0.000000    0.000000    0.000000
  0.036833667  -35.041764   46.258278  -99.099533   11.594538    0.000000    0.000000    0.000000    0.000000
  0.037034068  -34.911833   46.095230  -97.978715    0.895852    0.000000    0.000000    0.000000    0.000000
  0.037234469  -34.864224   45.985374  -99.897650    8.879585    0.000000    0.000000    0.000000    0.000000
  0.037434870  -34.802670   46.341061  -99.611075   10.803051    0.000000    0.000000    0.000000    0.000000
  0.037635271  -34.728389   46.211697  -98.673066   15.263255    0.000000    0.000000    0.000000    0.000000
  0.037835671  -34.749944   46.707180  -99.867548   16.996384    0.000000    0.000000    0.000000    0.000000
  0.038036072  -34.605653   46.845898  -98.940030    2.076506    0.000000    0.000000    0.000000    0.000000
  0.038236473  -34.612140   47.354843  -99.550212   16.635305    0.000000    0.000000    0.000000    0.000000
  0.038436874  -34.678794   47.894112  -99.162833   10.568528    0.000000    0.000000    0.000000    0.000000
  0.038637275  -34.634280   48.111385 -100.416106    2.829877    0.000000    0.000000    0.000000    0.000000
  0.038837675  -34.663031   47.981251  -99.550415   -5.725318    0.000000    0.000000    0.000000    0.000000
  0.039038076  -34.698468   48.306400  -98.234378    5.479227    0.000000    0.000000    0.000000    0.000000
  0.039238477  -34.744926   48.608517  -99.032353   23.305506    0.000000    0.000000    0.000000    0.000000
  0.039438878  -34.741984   48.881454  -99.790929    4.899002    0.000000    0.000000    0.000000    0.000000
  0.039639279  -34.802401   48.796089 -101.329715    4.451442    0.000000    0.000000    0.000000    0.000000
  0.039839679  -34.837732   47.890961 -101.208359    3.607064    0.000000    0.000000    0.000000    0.000000
  0.040040080  -34.926996   48.088257  -98.888622    6.251671    0.000000    0.000000    0.000000    0.000000
  0.040240481  -34.860886   48.032936 -100.153844    8.194170    0.000000    0.000000    0.000000    0.000000
  0.040440882  -34.996462   47.761452  -98.885340    9.495644    0.000000    0.000000    0.000000    0.000000
  0.040641283  -34.944108   46.758472  -99.507412   10.783792    0.000000    0.000000    0.000000    0.000000
  0.040841683  -35.019024   46.504395 -101.021498    5.445821    0.000000    0.000000    0.000000    0.000000
  0.041042084  -35.011835   45.652035 -100.001939   13.609043    0.000000    0.000000    0.000000    0.000000
  0.041242485  -34.963682   45.191261 -100.277685    6.576432    0.000000    0.000000    0.000000    0.000000
  0.041442886  -35.007095   44.218800 -100.195684    7.829207    0.000000    0.000000    0.000000    0.000000
  0.041643287  -34.939577   43.169563 -102.273029   15.292689    0.000000    0.000000    0.000000    0.000000
  0.041843687  -34.938453   42.833656 -100.973130    2.235219    0.000000    0.000000    0.000000    0.000000
  0.042044088  -34.811943   42.560204 -100.500395    0.165414    0.000000    0.000000    0.000000    0.000000
  0.042244489  -34.707442   41.875950 -100.239297    3.688279    0.000000    0.000000    0.000000    0.000000
  0.042444890  -34.604751   41.000771 -100.342259    7.553507    0.000000    0.000000    0.000000    0.000000
  0.042645291  -34.474251   41.067387  -99.714233   16.170349    0.000000    0.000000    0.000000    0.000000
  0.042845691  -34.480773   40.920284 -100.569435    4.561989    0.000000    0.000000    0.000000    0.000000
  0.043046092  -34.333940   40.717560 -102.172871    9.057467    0.000000    0.000000    0.000000    0.000000
  0.043246493  -34.195100   40.621490 -101.624837    6.883769    0.000000    0.000000    0.000000    0.000000
  0.043446894  -34.173503   40.573170 -101.260359    0.494840    0.000000    0.000000    0.000000    0.000000
  0.043647295  -34.035496   40.302559 -103.169233   14.465113    0.000000    0.000000    0.000000    0.000000
  0.043847695  -33.971690   40.675648 -101.082826   -0.139709    0.000000    0.000000    0.000000    0.000000
  0.044048096  -33.883123   40.467834 -101.357802    2.056834    0.000000    0.000000    0.000000    0.000000
  0.044248497  -33.829159   40.992485 -102.487595   12.524322    0.000000    0.000000    0.000000    0.000000
  0.044448898  -33.774763   40.819386 -103.222947   -2.151920    0.000000    0.000000    0.000000    0.000000
  0.044649299  -33.776555   41.452438 -101.679782    1.848386    0.000000    0.000000    0.000000    0.000000
  0.044849699  -33.703879   41.548885 -100.188326    1.296666    0.000000    0.000000    0.000000    0.000000
  0.045050100  -33.749737   41.425240 -103.819728   -2.434420    0.000000    0.000000    0.000000    0.000000
  0.045250501  -33.721031   42.169479 -102.289812    6.402841    0.000000    0.000000    0.000000    0.000000
  0.045450902  -33.718999   41.924866 -100.895924    4.773984    0.000000    0.000000    0.000000    0.000000
  0.045651303  -33.625464   41.936020 -102.298253   12.711598    0.000000    0.000000    0.000000    0.000000
  0.045851703  -33.639712   42.272133 -100.923001  -11.341837    0.000000    0.000000    0.000000    0.000000
  0.046052104  -33.644427   42.336212 -101.398806   -1.619498    0.000000    0.000000    0.000000    0.000000
  0.046252505  -33.677157   42.001175 -103.463707    6.921660    0.000000    0.000000    0.000000    0.000000
  0.046452906  -33.651210   42.234146 -103.626947    2.624540    0.000000    0.000000    0.000000    0.000000
  0.046653307  -33.733949   41.893726 -102.164700   -3.286976    0.000000    0.000000    0.000000    0.000000
  0.046853707  -33.653563   41.657188 -101.466232   11.760628    0.000000    0.000000    0.000000    0.000000
  0.047054108  -33.625841   41.532440  -98.574296    2.861866    0.000000    0.000000    0.000000    0.000000
  0.047254509  -33.638769   41.128708 -102.105577    1.232792    0.000000    0.000000    0.000000    0.000000
  0.047454910  -33.634618   41.090557 -101.461182   -1.071672    0.000000    0.000000    0.000000    0.000000
  0.047655311  -33.549243   40.334499 -101.105772    2.776536    0.000000    0.000000    0.000000    0.000000
  0.047855711  -33.583115   40.086273 -103.181663   -5.592515    0.000000    0.000000    0.000000    0.000000
  0.048056112  -33.514327   39.900974 -101.635765   -7.516058    0.000000    0.000000    0.000000    0.000000
  0.048256513  -33.406649   39.740223 -102.735740    5.227446    0.000000    0.000000    0.000000    0.000000
  0.048456914  -33.360765   39.633308 -101.961415   -7.661607    0.000000    0.000000    0.000000    0.000000
  0.048657315  -33.288332   39.859669 -103.253520   -5.193000    0.000000    0.000000    0.000000    0.000000
  0.048857715  -33.253429   40.062897 -102.551037   13.455368    0.000000    0.000000    0.000000    0.000000
  0.049058116  -33.196708   39.340889 -104.601457   14.270837    0.000000    0.000000    0.000000    0.000000
  0.049258517  -33.118990   39.879421 -101.785146   17.279652    0.000000    0.000000    0.000000    0.000000
  0.049458918  -33.111542   39.611561 -101.478861   -5.854622    0.000000    0.000000    0.000000    0.000000
  0.049659319  -33.107905   39.753315 -101.710822   -5.034204    0.000000    0.000000    0.000000    0.000000
  0.049859719  -33.018442   39.878239 -103.070158    2.491071    0.000000    0.000000    0.000000    0.000000
  0.050060120  -33.043104   40.129093 -101.983955   -2.985307    0.000000    0.000000    0.000000    0.000000
  0.050260521  -32.982668   40.204815 -101.333727   12.185634    0.000000    0.000000    0.000000    0.000000
  0.050460922  -32.977282   40.353771 -100.543045    6.061454    0.000000    0.000000    0.000000    0.000000
  0.050661323  -32.964078   40.344032 -103.076539    0.825457    0.000000    0.000000    0.000000    0.000000
  0.050861723  -32.922010   40.917706 -102.466909   -2.694987    0.000000    0.000000    0.000000    0.000000
  0.051062124  -32.967841   40.678764 -101.044900   11.145132    0.000000    0.000000    0.000000    0.000000
  0.051262525  -33.042550   40.746410 -102.989452    8.967617    0.000000    0.000000    0.000000    0.000000
  0.051462926  -32.968765   40.777214 -101.639758    9.761480    0.000000    0.000000    0.000000    0.000000
  0.051663327  -33.053897   40.535934 -102.935230   15.629392    0.000000    0.000000    0.000000    0.000000
  0.051863727  -33.079430   40.661610 -103.103032    7.250288    0.000000    0.000000    0.000000    0.000000
  0.052064128  -33.037511   40.643894 -105.196356    6.508665    0.000000    0.000000    0.000000    0.000000
  0.052264529  -33.031379   40.864796 -102.554061   16.461277    0.000000    0.000000    0.000000    0.000000
  0.052464930  -33.084763   40.120293 -104.535474    4.152547    0.000000    0.000000    0.000000    0.000000
  0.052665331  -33.063173   39.915783 -101.890678   -2.130322    0.000000    0.000000    0.000000    0.000000
  0.052865731  -33.064262   39.936924 -103.790467    0.230539    0.000000    0.000000    0.000000    0.000000
