! Anritsu VNA Master:                     Model: MS2036C/10/77
! SN:                                  1601066
! /card0/usr/ns.200bohm.s2p
! Existing Calibration Information:
! TYPE:                         Current Settings,       Active Cal Settings
! TIME:             	   12/21/2017 05:01:15 PM,    12/21/2017 04:46:01 PM
! INTERNAL TEMP:    	                   40.5 C,                    41.5 C
! # POINTS:         	                      501,                       501
! START FREQ:       	               10.000 MHz,                10.000 MHz
! STOP FREQ:        	              110.000 MHz,               110.000 MHz
! SOURCE POWER:     	                     High,                      High
! IFBW:             	                   100 Hz,                    100 Hz
! AVG FACTOR:       	                       1 ,                        1 
! REF PLANE 1:      	                     0 mm,                      0 mm
! REF PLANE 2:      	                     0 mm,                      0 mm
! CAL TYPE:         	                 Full S11,                  Full S11
! CAL METHOD:       	                     SOLT,                      SOLT
! CAL LINE TYPE:    	                     Coax,                      Coax
! DUT PORT 1:       	                K-Conn(F),                 K-Conn(F)
! DUT PORT 2:       	                K-Conn(F),                 K-Conn(F)
! CAL STATUS:       	        OK: Accuracy High,                        --
# GHZ S DB R 50.0
! FREQ.GHZ       S11DB        S11A       S21DB        S21A       S12DB        S12A       S22DB        S22A
  0.010000000   -4.529996  -10.914874  -83.858541   77.462250    0.000000    0.000000    0.000000    0.000000
  0.010200000   -4.520103  -11.074758  -84.523224   77.064636    0.000000    0.000000    0.000000    0.000000
  0.010400000   -4.516701  -11.262510  -84.603070   80.296440    0.000000    0.000000    0.000000    0.000000
  0.010600000   -4.518787  -11.497016  -84.669666   76.641556    0.000000    0.000000    0.000000    0.000000
  0.010800000   -4.519779  -11.727177  -85.297377   78.937523    0.000000    0.000000    0.000000    0.000000
  0.011000000   -4.521586  -11.944826  -85.014396   74.822594    0.000000    0.000000    0.000000    0.000000
  0.011200000   -4.518700  -12.182004  -84.729327   73.392639    0.000000    0.000000    0.000000    0.000000
  0.011400000   -4.518279  -12.404361  -85.096462   76.082298    0.000000    0.000000    0.000000    0.000000
  0.011600000   -4.523282  -12.598929  -85.131643   73.313179    0.000000    0.000000    0.000000    0.000000
  0.011800000   -4.526648  -12.810113  -84.918675   72.904480    0.000000    0.000000    0.000000    0.000000
  0.012000000   -4.527322  -13.035356  -85.488418   73.003792    0.000000    0.000000    0.000000    0.000000
  0.012200000   -4.531334  -13.274958  -84.757833   69.997353    0.000000    0.000000    0.000000    0.000000
  0.012400000   -4.532889  -13.525616  -84.872347   72.935402    0.000000    0.000000    0.000000    0.000000
  0.012600000   -4.534521  -13.736886  -85.128598   69.684906    0.000000    0.000000    0.000000    0.000000
  0.012800000   -4.535117  -13.977380  -85.009561   68.005943    0.000000    0.000000    0.000000    0.000000
  0.013000000   -4.536731  -14.192556  -85.042565   64.989372    0.000000    0.000000    0.000000    0.000000
  0.013200000   -4.539376  -14.403778  -85.600761   68.916672    0.000000    0.000000    0.000000    0.000000
  0.013400000   -4.542097  -14.630941  -85.585220   64.302185    0.000000    0.000000    0.000000    0.000000
  0.013600000   -4.542383  -14.870125  -85.421270   60.274788    0.000000    0.000000    0.000000    0.000000
  0.013800000   -4.542666  -15.097964  -85.307197   58.482346    0.000000    0.000000    0.000000    0.000000
  0.014000000   -4.545842  -15.334407  -86.125420   55.363800    0.000000    0.000000    0.000000    0.000000
  0.014200000   -4.549848  -15.554736  -86.058294   54.522781    0.000000    0.000000    0.000000    0.000000
  0.014400000   -4.549927  -15.798849  -86.486395   52.477253    0.000000    0.000000    0.000000    0.000000
  0.014600000   -4.551302  -16.019039  -87.027269   52.600067    0.000000    0.000000    0.000000    0.000000
  0.014800000   -4.550164  -16.244188  -87.137978   49.699696    0.000000    0.000000    0.000000    0.000000
  0.015000000   -4.551500  -16.456099  -87.199444   49.271862    0.000000    0.000000    0.000000    0.000000
  0.015200000   -4.552596  -16.712183  -87.932941   47.400902    0.000000    0.000000    0.000000    0.000000
  0.015400000   -4.553040  -16.948849  -88.074181   43.668434    0.000000    0.000000    0.000000    0.000000
  0.015600000   -4.548150  -17.135277  -88.569216   44.413010    0.000000    0.000000    0.000000    0.000000
  0.015800000   -4.552091  -17.400078  -88.546316   48.084068    0.000000    0.000000    0.000000    0.000000
  0.016000000   -4.556792  -17.611324  -88.582550   47.277363    0.000000    0.000000    0.000000    0.000000
  0.016200000   -4.556900  -17.822254  -89.761518   43.726372    0.000000    0.000000    0.000000    0.000000
  0.016400000   -4.555619  -18.046133  -89.529284   47.622025    0.000000    0.000000    0.000000    0.000000
  0.016600000   -4.556289  -18.263474  -89.887235   42.892746    0.000000    0.000000    0.000000    0.000000
  0.016800000   -4.550215  -18.480534  -89.444852   42.469402    0.000000    0.000000    0.000000    0.000000
  0.017000000   -4.549012  -18.701080  -89.214433   44.891972    0.000000    0.000000    0.000000    0.000000
  0.017200000   -4.545132  -18.940435  -89.595453   46.392372    0.000000    0.000000    0.000000    0.000000
  0.017400000   -4.543480  -19.143888  -90.264590   45.119534    0.000000    0.000000    0.000000    0.000000
  0.017600000   -4.540487  -19.382614  -89.574902   48.857929    0.000000    0.000000    0.000000    0.000000
  0.017800000   -4.540632  -19.591970  -90.882646   50.410984    0.000000    0.000000    0.000000    0.000000
  0.018000000   -4.542053  -19.788616  -89.770720   45.641754    0.000000    0.000000    0.000000    0.000000
  0.018200000   -4.542895  -19.997137  -90.197741   48.884796    0.000000    0.000000    0.000000    0.000000
  0.018400000   -4.544915  -20.221405  -90.370580   47.227093    0.000000    0.000000    0.000000    0.000000
  0.018600000   -4.545231  -20.435102  -90.372369   45.502022    0.000000    0.000000    0.000000    0.000000
  0.018800000   -4.543501  -20.679464  -90.506558   44.482960    0.000000    0.000000    0.000000    0.000000
  0.019000000   -4.541148  -20.864828  -90.492787   41.260590    0.000000    0.000000    0.000000    0.000000
  0.019200000   -4.546997  -21.098204  -91.256761   47.390274    0.000000    0.000000    0.000000    0.000000
  0.019400000   -4.548020  -21.288677  -90.355824   49.275024    0.000000    0.000000    0.000000    0.000000
  0.019600000   -4.552557  -21.521433  -90.122522   35.230434    0.000000    0.000000    0.000000    0.000000
  0.019800000   -4.554126  -21.738970  -90.206995   42.725845    0.000000    0.000000    0.000000    0.000000
  0.020000000   -4.551186  -21.956612  -89.991404   39.310307    0.000000    0.000000    0.000000    0.000000
  0.020200000   -4.554444  -22.153576  -89.984697   35.251289    0.000000    0.000000    0.000000    0.000000
  0.020400000   -4.553867  -22.398552  -90.941447   35.729176    0.000000    0.000000    0.000000    0.000000
  0.020600000   -4.551597  -22.619974  -90.655993   37.196491    0.000000    0.000000    0.000000    0.000000
  0.020800000   -4.553434  -22.867657  -90.419207   30.176670    0.000000    0.000000    0.000000    0.000000
  0.021000000   -4.555913  -23.102757  -90.323723   35.623379    0.000000    0.000000    0.000000    0.000000
  0.021200000   -4.559273  -23.356518  -91.406900   32.991341    0.000000    0.000000    0.000000    0.000000
  0.021400000   -4.562748  -23.567204  -91.304638   36.806267    0.000000    0.000000    0.000000    0.000000
  0.021600000   -4.560662  -23.814110  -92.060848   27.910885    0.000000    0.000000    0.000000    0.000000
  0.021800000   -4.561663  -24.029512  -91.457286   30.893307    0.000000    0.000000    0.000000    0.000000
  0.022000000   -4.562728  -24.247425  -92.317419   24.956276    0.000000    0.000000    0.000000    0.000000
  0.022200000   -4.564888  -24.478107  -92.920335   29.295767    0.000000    0.000000    0.000000    0.000000
  0.022400000   -4.566528  -24.673498  -92.888530   32.570721    0.000000    0.000000    0.000000    0.000000
  0.022600000   -4.564164  -24.894310  -94.141144   29.221230    0.000000    0.000000    0.000000    0.000000
  0.022800000   -4.565911  -25.122440  -92.556421   26.724926    0.000000    0.000000    0.000000    0.000000
  0.023000000   -4.568703  -25.355740  -92.596191   29.605885    0.000000    0.000000    0.000000    0.000000
  0.023200000   -4.572494  -25.578819  -94.164992   24.605541    0.000000    0.000000    0.000000    0.000000
  0.023400000   -4.573639  -25.817019  -93.676911   28.562717    0.000000    0.000000    0.000000    0.000000
  0.023600000   -4.569675  -26.044470  -94.237504   36.625481    0.000000    0.000000    0.000000    0.000000
  0.023800000   -4.565726  -26.271442  -94.242734   27.143250    0.000000    0.000000    0.000000    0.000000
  0.024000000   -4.561087  -26.483175  -95.069397   29.322033    0.000000    0.000000    0.000000    0.000000
  0.024200000   -4.559711  -26.738306  -93.848829   31.552814    0.000000    0.000000    0.000000    0.000000
  0.024400000   -4.560088  -26.967758  -94.235514   27.878817    0.000000    0.000000    0.000000    0.000000
  0.024600000   -4.559985  -27.192694  -93.995925   31.595957    0.000000    0.000000    0.000000    0.000000
  0.024800000   -4.558910  -27.395672  -94.123460   29.541918    0.000000    0.000000    0.000000    0.000000
  0.025000000   -4.562293  -27.635664  -94.876320   36.088539    0.000000    0.000000    0.000000    0.000000
  0.025200000   -4.561535  -27.831690  -94.180060   30.462090    0.000000    0.000000    0.000000    0.000000
  0.025400000   -4.562887  -28.011625  -95.181574   26.784695    0.000000    0.000000    0.000000    0.000000
  0.025600000   -4.566108  -28.218433  -94.207229   33.764702    0.000000    0.000000    0.000000    0.000000
  0.025800000   -4.567214  -28.397633  -93.550427   22.334545    0.000000    0.000000    0.000000    0.000000
  0.026000000   -4.568523  -28.604193  -94.071927   21.620375    0.000000    0.000000    0.000000    0.000000
  0.026200000   -4.573210  -28.816837  -94.499708   28.205292    0.000000    0.000000    0.000000    0.000000
  0.026400000   -4.577842  -29.017952  -96.179883   26.029039    0.000000    0.000000    0.000000    0.000000
  0.026600000   -4.576920  -29.252327  -94.496746   26.404701    0.000000    0.000000    0.000000    0.000000
  0.026800000   -4.576344  -29.474995  -94.275709   19.469189    0.000000    0.000000    0.000000    0.000000
  0.027000000   -4.578353  -29.722610  -95.232664   22.589100    0.000000    0.000000    0.000000    0.000000
  0.027200000   -4.580069  -29.942488  -95.593817   19.086449    0.000000    0.000000    0.000000    0.000000
  0.027400000   -4.580571  -30.180187  -94.544005   20.696016    0.000000    0.000000    0.000000    0.000000
  0.027600000   -4.584438  -30.409109  -94.602323   22.846855    0.000000    0.000000    0.000000    0.000000
  0.027800000   -4.584874  -30.656410  -95.185973   16.966547    0.000000    0.000000    0.000000    0.000000
  0.028000000   -4.588948  -30.908207  -96.129789   19.056326    0.000000    0.000000    0.000000    0.000000
  0.028200000   -4.587891  -31.168373  -94.958789   13.447556    0.000000    0.000000    0.000000    0.000000
  0.028400000   -4.586237  -31.404469  -96.220089   21.388147    0.000000    0.000000    0.000000    0.000000
  0.028600000   -4.580965  -31.599125  -95.868146   12.399734    0.000000    0.000000    0.000000    0.000000
  0.028800000   -4.578477  -31.794014  -95.455195   20.189579    0.000000    0.000000    0.000000    0.000000
  0.029000000   -4.578537  -31.994549  -96.008448   21.654385    0.000000    0.000000    0.000000    0.000000
  0.029200000   -4.577564  -32.163956  -96.128796   12.951399    0.000000    0.000000    0.000000    0.000000
  0.029400000   -4.579408  -32.383549  -97.442763   17.050150    0.000000    0.000000    0.000000    0.000000
  0.029600000   -4.584806  -32.580029  -97.695353   14.327522    0.000000    0.000000    0.000000    0.000000
  0.029800000   -4.589458  -32.814243  -96.286981   23.356716    0.000000    0.000000    0.000000    0.000000
  0.030000000   -4.597545  -33.032032  -96.548778   13.738283    0.000000    0.000000    0.000000    0.000000
  0.030200000   -4.602853  -33.285858  -96.547932   21.261595    0.000000    0.000000    0.000000    0.000000
  0.030400000   -4.604577  -33.526573  -98.651947   17.582741    0.000000    0.000000    0.000000    0.000000
  0.030600000   -4.605032  -33.791866  -96.133568   17.414764    0.000000    0.000000    0.000000    0.000000
  0.030800000   -4.603285  -34.068165  -97.763145    8.808114    0.000000    0.000000    0.000000    0.000000
  0.031000000   -4.600378  -34.315636  -98.384492   12.642824    0.000000    0.000000    0.000000    0.000000
  0.031200000   -4.596713  -34.535896  -97.227242   15.224143    0.000000    0.000000    0.000000    0.000000
  0.031400000   -4.594559  -34.785595  -96.536225   25.835541    0.000000    0.000000    0.000000    0.000000
  0.031600000   -4.591386  -35.033718  -98.161618   16.457516    0.000000    0.000000    0.000000    0.000000
  0.031800000   -4.589853  -35.275642  -97.417524   17.885912    0.000000    0.000000    0.000000    0.000000
  0.032000000   -4.580579  -35.475719  -98.393111   15.471087    0.000000    0.000000    0.000000    0.000000
  0.032200000   -4.577339  -35.686596  -98.239735    7.562985    0.000000    0.000000    0.000000    0.000000
  0.032400000   -4.570498  -35.915997  -99.071571   27.760180    0.000000    0.000000    0.000000    0.000000
  0.032600000   -4.567276  -36.101906  -97.381280   24.369106    0.000000    0.000000    0.000000    0.000000
  0.032800000   -4.564059  -36.276836  -96.991969   10.856320    0.000000    0.000000    0.000000    0.000000
  0.033000000   -4.562009  -36.486629  -97.799460   14.124605    0.000000    0.000000    0.000000    0.000000
  0.033200000   -4.565894  -36.666248  -98.534934    3.349141    0.000000    0.000000    0.000000    0.000000
  0.033400000   -4.565693  -36.867184  -97.651469   16.480434    0.000000    0.000000    0.000000    0.000000
  0.033600000   -4.567825  -37.093273  -99.377520   18.236036    0.000000    0.000000    0.000000    0.000000
  0.033800000   -4.569498  -37.292847  -97.841866   18.874260    0.000000    0.000000    0.000000    0.000000
  0.034000000   -4.571747  -37.515625  -98.762420    6.965939    0.000000    0.000000    0.000000    0.000000
  0.034200000   -4.570808  -37.747929  -98.029269   10.059977    0.000000    0.000000    0.000000    0.000000
  0.034400000   -4.577110  -37.943619  -99.445468   13.209889    0.000000    0.000000    0.000000    0.000000
  0.034600000   -4.579654  -38.194828  -98.775521   16.745144    0.000000    0.000000    0.000000    0.000000
  0.034800000   -4.582984  -38.423897  -98.388622    4.838652    0.000000    0.000000    0.000000    0.000000
  0.035000000   -4.588846  -38.649929  -97.830075    8.748623    0.000000    0.000000    0.000000    0.000000
  0.035200000   -4.590339  -38.906425  -98.239777   10.861205    0.000000    0.000000    0.000000    0.000000
  0.035400000   -4.588605  -39.124931  -98.540671   21.765074    0.000000    0.000000    0.000000    0.000000
  0.035600000   -4.589630  -39.373020  -98.217649   18.435863    0.000000    0.000000    0.000000    0.000000
  0.035800000   -4.589058  -39.581818  -97.884584   -5.202394    0.000000    0.000000    0.000000    0.000000
  0.036000000   -4.587926  -39.805336  -99.865619    0.096357    0.000000    0.000000    0.000000    0.000000
  0.036200000   -4.584288  -40.066002 -100.668475   15.283263    0.000000    0.000000    0.000000    0.000000
  0.036400000   -4.577918  -40.278172  -99.061843   -0.720643    0.000000    0.000000    0.000000    0.000000
  0.036600000   -4.575137  -40.493542  -97.969049    0.718650    0.000000    0.000000    0.000000    0.000000
  0.036800000   -4.569351  -40.694588  -97.878720   23.564478    0.000000    0.000000    0.000000    0.000000
  0.037000000   -4.569689  -40.856945  -99.176447   20.979649    0.000000    0.000000    0.000000    0.000000
  0.037200000   -4.570845  -41.039322  -98.714538    3.760343    0.000000    0.000000    0.000000    0.000000
  0.037400000   -4.572362  -41.228081 -100.293489   12.898681    0.000000    0.000000    0.000000    0.000000
  0.037600000   -4.580594  -41.431419  -98.268660   11.822481    0.000000    0.000000    0.000000    0.000000
  0.037800000   -4.585473  -41.621544  -98.376963   10.877179    0.000000    0.000000    0.000000    0.000000
  0.038000000   -4.595123  -41.877029  -99.673315    3.343296    0.000000    0.000000    0.000000    0.000000
  0.038200000   -4.601420  -42.121529  -98.635818    0.267104    0.000000    0.000000    0.000000    0.000000
  0.038400000   -4.609302  -42.366810  -98.452972    3.140412    0.000000    0.000000    0.000000    0.000000
  0.038600000   -4.614142  -42.633816  -98.397031    2.533330    0.000000    0.000000    0.000000    0.000000
  0.038800000   -4.609823  -42.902245 -101.888379    6.543727    0.000000    0.000000    0.000000    0.000000
  0.039000000   -4.613937  -43.177551  -97.155916   -2.401020    0.000000    0.000000    0.000000    0.000000
  0.039200000   -4.610349  -43.445419 -100.507735    4.425780    0.000000    0.000000    0.000000    0.000000
  0.039400000   -4.609417  -43.672539 -100.375929   12.244158    0.000000    0.000000    0.000000    0.000000
  0.039600000   -4.599618  -43.929546  -97.662504   11.635322    0.000000    0.000000    0.000000    0.000000
  0.039800000   -4.598165  -44.140732 -100.917310    5.473201    0.000000    0.000000    0.000000    0.000000
  0.040000000   -4.592397  -44.366245  -99.438171    9.067186    0.000000    0.000000    0.000000    0.000000
  0.040200000   -4.587767  -44.562340  -98.422093    5.133581    0.000000    0.000000    0.000000    0.000000
  0.040400000   -4.585338  -44.771614  -99.963876   -6.812387    0.000000    0.000000    0.000000    0.000000
  0.040600000   -4.586602  -44.964962  -99.927176    2.223704    0.000000    0.000000    0.000000    0.000000
  0.040800000   -4.591370  -45.167370  -99.073497   11.346393    0.000000    0.000000    0.000000    0.000000
  0.041000000   -4.592972  -45.394272  -99.334357   -1.722543    0.000000    0.000000    0.000000    0.000000
  0.041200000   -4.598342  -45.593323 -102.199217   -6.822468    0.000000    0.000000    0.000000    0.000000
  0.041400000   -4.596759  -45.853626 -102.233134   -0.876737    0.000000    0.000000    0.000000    0.000000
  0.041600000   -4.607017  -46.066547 -102.570844   -6.762508    0.000000    0.000000    0.000000    0.000000
  0.041800000   -4.606181  -46.300312 -102.081847    8.995657    0.000000    0.000000    0.000000    0.000000
  0.042000000   -4.609106  -46.562214  -99.221824   12.642244    0.000000    0.000000    0.000000    0.000000
  0.042200000   -4.612937  -46.782394 -100.978874   -6.109417    0.000000    0.000000    0.000000    0.000000
  0.042400000   -4.611568  -47.015308 -103.886672    2.705590    0.000000    0.000000    0.000000    0.000000
  0.042600000   -4.610530  -47.233311 -102.220759  -10.477569    0.000000    0.000000    0.000000    0.000000
  0.042800000   -4.611383  -47.464314 -101.439239    7.323244    0.000000    0.000000    0.000000    0.000000
