! Anritsu VNA Master:                     Model: MS2036C/10/77
! SN:                                  1601066
! /card0/usr/ns.50bohm2.s2p
! Existing Calibration Information:
! TYPE:                         Current Settings,       Active Cal Settings
! TIME:             	   12/21/2017 05:22:55 PM,    12/21/2017 05:13:10 PM
! INTERNAL TEMP:    	                   39.5 C,                    40.0 C
! # POINTS:         	                      501,                       501
! START FREQ:       	               10.000 MHz,                10.000 MHz
! STOP FREQ:        	              110.000 MHz,               110.000 MHz
! SOURCE POWER:     	                     High,                      High
! IFBW:             	                   100 Hz,                    100 Hz
! AVG FACTOR:       	                       1 ,                        1 
! REF PLANE 1:      	                     0 mm,                      0 mm
! REF PLANE 2:      	                     0 mm,                      0 mm
! CAL TYPE:         	                 Full S11,                  Full S11
! CAL METHOD:       	                     SOLT,                      SOLT
! CAL LINE TYPE:    	                     Coax,                      Coax
! DUT PORT 1:       	                K-Conn(F),                 K-Conn(F)
! DUT PORT 2:       	                K-Conn(F),                 K-Conn(F)
! CAL STATUS:       	        OK: Accuracy High,                        --
# GHZ S DB R 50.0
! FREQ.GHZ       S11DB        S11A       S21DB        S21A       S12DB        S12A       S22DB        S22A
  0.010000000  -45.386127   70.946022  -83.330657   77.056473    0.000000    0.000000    0.000000    0.000000
  0.010200000  -45.149615   72.486031  -83.528313   76.995804    0.000000    0.000000    0.000000    0.000000
  0.010400000  -44.789224   71.205544  -84.087642   73.614143    0.000000    0.000000    0.000000    0.000000
  0.010600000  -44.931426   69.928177  -83.885310   74.904823    0.000000    0.000000    0.000000    0.000000
  0.010800000  -44.606126   70.355782  -84.855353   75.583969    0.000000    0.000000    0.000000    0.000000
  0.011000000  -44.260581   71.164246  -84.235439   70.763222    0.000000    0.000000    0.000000    0.000000
  0.011200000  -44.269217   70.046646  -84.496706   70.812386    0.000000    0.000000    0.000000    0.000000
  0.011400000  -44.114435   70.359886  -84.352473   69.416039    0.000000    0.000000    0.000000    0.000000
  0.011600000  -44.227452   70.628029  -84.996136   68.802391    0.000000    0.000000    0.000000    0.000000
  0.011800000  -44.024951   71.566582  -84.849503   69.574928    0.000000    0.000000    0.000000    0.000000
  0.012000000  -43.820066   70.598808  -85.475403   65.280006    0.000000    0.000000    0.000000    0.000000
  0.012200000  -43.857446   72.697067  -84.992053   64.908905    0.000000    0.000000    0.000000    0.000000
  0.012400000  -43.638617   70.962646  -85.017677   67.622414    0.000000    0.000000    0.000000    0.000000
  0.012600000  -43.588714   71.748383  -85.580692   61.468479    0.000000    0.000000    0.000000    0.000000
  0.012800000  -43.616641   71.011673  -85.499412   64.938972    0.000000    0.000000    0.000000    0.000000
  0.013000000  -43.513084   71.286789  -86.220923   66.083244    0.000000    0.000000    0.000000    0.000000
  0.013200000  -43.457243   70.834831  -86.176508   63.168808    0.000000    0.000000    0.000000    0.000000
  0.013400000  -43.348970   71.296814  -86.280267   56.696510    0.000000    0.000000    0.000000    0.000000
  0.013600000  -43.118856   71.479454  -86.600377   55.646675    0.000000    0.000000    0.000000    0.000000
  0.013800000  -43.285600   71.823326  -86.625164   59.581345    0.000000    0.000000    0.000000    0.000000
  0.014000000  -43.057366   71.576080  -87.537323   59.867905    0.000000    0.000000    0.000000    0.000000
  0.014200000  -43.079004   69.934921  -87.168485   58.006168    0.000000    0.000000    0.000000    0.000000
  0.014400000  -43.043242   70.129112  -87.737351   56.241890    0.000000    0.000000    0.000000    0.000000
  0.014600000  -42.947781   69.698074  -87.477645   55.179554    0.000000    0.000000    0.000000    0.000000
  0.014800000  -43.007124   68.689934  -87.136237   54.316490    0.000000    0.000000    0.000000    0.000000
  0.015000000  -42.677301   68.226753  -87.859152   54.347721    0.000000    0.000000    0.000000    0.000000
  0.015200000  -42.796991   68.761803  -87.492571   51.968544    0.000000    0.000000    0.000000    0.000000
  0.015400000  -42.817317   67.379471  -87.870038   52.161057    0.000000    0.000000    0.000000    0.000000
  0.015600000  -42.462032   69.008171  -88.649805   53.349941    0.000000    0.000000    0.000000    0.000000
  0.015800000  -42.594720   67.532158  -88.251820   49.822594    0.000000    0.000000    0.000000    0.000000
  0.016000000  -42.505343   65.960144  -88.427841   50.374744    0.000000    0.000000    0.000000    0.000000
  0.016200000  -42.290796   65.798019  -88.434945   47.461594    0.000000    0.000000    0.000000    0.000000
  0.016400000  -42.199743   65.601341  -88.724040   50.792648    0.000000    0.000000    0.000000    0.000000
  0.016600000  -42.051236   66.548553  -88.746591   48.574230    0.000000    0.000000    0.000000    0.000000
  0.016800000  -41.790917   65.214905  -88.859783   44.121342    0.000000    0.000000    0.000000    0.000000
  0.017000000  -41.824757   63.913391  -88.731950   43.018364    0.000000    0.000000    0.000000    0.000000
  0.017200000  -41.782651   65.230614  -89.788344   45.494133    0.000000    0.000000    0.000000    0.000000
  0.017400000  -41.543329   65.219276  -90.065794   48.558624    0.000000    0.000000    0.000000    0.000000
  0.017600000  -41.437771   65.742256  -89.053615   42.927593    0.000000    0.000000    0.000000    0.000000
  0.017800000  -41.499586   65.028320  -90.078734   40.610138    0.000000    0.000000    0.000000    0.000000
  0.018000000  -41.222602   63.776638  -90.378062   44.229324    0.000000    0.000000    0.000000    0.000000
  0.018200000  -41.246523   65.656845  -90.494181   41.491547    0.000000    0.000000    0.000000    0.000000
  0.018400000  -41.044945   65.684662  -90.177391   45.828659    0.000000    0.000000    0.000000    0.000000
  0.018600000  -40.991000   65.194458  -90.383279   41.352856    0.000000    0.000000    0.000000    0.000000
  0.018800000  -40.787364   64.293289  -90.460697   42.355774    0.000000    0.000000    0.000000    0.000000
  0.019000000  -40.768656   66.101868  -91.113919   36.964813    0.000000    0.000000    0.000000    0.000000
  0.019200000  -40.695277   63.502934  -90.906334   38.203880    0.000000    0.000000    0.000000    0.000000
  0.019400000  -40.886874   65.705605  -90.335176   39.099072    0.000000    0.000000    0.000000    0.000000
  0.019600000  -40.744322   65.337585  -90.645369   39.753124    0.000000    0.000000    0.000000    0.000000
  0.019800000  -40.701716   65.160034  -89.892590   37.089760    0.000000    0.000000    0.000000    0.000000
  0.020000000  -40.510879   64.127106  -90.734925   34.631031    0.000000    0.000000    0.000000    0.000000
  0.020200000  -40.695045   65.423271  -90.736209   38.946522    0.000000    0.000000    0.000000    0.000000
  0.020400000  -40.587052   65.977989  -90.970958   42.567120    0.000000    0.000000    0.000000    0.000000
  0.020600000  -40.550929   64.670570  -91.802893   38.235336    0.000000    0.000000    0.000000    0.000000
  0.020800000  -40.394182   64.906082  -91.178185   32.917580    0.000000    0.000000    0.000000    0.000000
  0.021000000  -40.477192   64.953735  -92.507046   35.813465    0.000000    0.000000    0.000000    0.000000
  0.021200000  -40.264535   64.908798  -91.959949   35.631432    0.000000    0.000000    0.000000    0.000000
  0.021400000  -40.354761   63.857296  -92.148572   36.889572    0.000000    0.000000    0.000000    0.000000
  0.021600000  -40.282400   64.805283  -93.274794   33.631454    0.000000    0.000000    0.000000    0.000000
  0.021800000  -40.366298   63.356075  -93.468319   34.989876    0.000000    0.000000    0.000000    0.000000
  0.022000000  -40.322152   63.564690  -92.812199   34.446205    0.000000    0.000000    0.000000    0.000000
  0.022200000  -40.269351   63.266876  -92.900250   34.687119    0.000000    0.000000    0.000000    0.000000
  0.022400000  -40.140611   62.711964  -91.972479   37.580513    0.000000    0.000000    0.000000    0.000000
  0.022600000  -40.155992   61.586048  -92.636524   40.283562    0.000000    0.000000    0.000000    0.000000
  0.022800000  -40.040069   62.352489  -92.429684   32.478271    0.000000    0.000000    0.000000    0.000000
  0.023000000  -40.032979   61.133957  -92.828302   33.818607    0.000000    0.000000    0.000000    0.000000
  0.023200000  -39.794941   60.986076  -92.986149   27.091516    0.000000    0.000000    0.000000    0.000000
  0.023400000  -39.775922   60.982086  -93.168653   30.813433    0.000000    0.000000    0.000000    0.000000
  0.023600000  -39.664729   60.536758  -92.661148   34.614437    0.000000    0.000000    0.000000    0.000000
  0.023800000  -39.668882   61.280861  -94.089892   25.235386    0.000000    0.000000    0.000000    0.000000
  0.024000000  -39.590533   60.884422  -92.120092   31.782906    0.000000    0.000000    0.000000    0.000000
  0.024200000  -39.559435   60.629601  -94.417805   26.176079    0.000000    0.000000    0.000000    0.000000
  0.024400000  -39.349868   60.967278  -93.665590   24.755693    0.000000    0.000000    0.000000    0.000000
  0.024600000  -39.370387   60.067745  -93.864563   27.264074    0.000000    0.000000    0.000000    0.000000
  0.024800000  -39.280673   60.402096  -94.554913   19.852348    0.000000    0.000000    0.000000    0.000000
  0.025000000  -39.194625   60.173965  -93.016936   26.606451    0.000000    0.000000    0.000000    0.000000
  0.025200000  -39.213204   58.777821  -94.038838   33.487347    0.000000    0.000000    0.000000    0.000000
  0.025400000  -39.161230   60.385658  -94.832602   22.321426    0.000000    0.000000    0.000000    0.000000
  0.025600000  -39.042749   59.301559  -94.367183   24.622431    0.000000    0.000000    0.000000    0.000000
  0.025800000  -38.813420   60.119652  -95.082844   22.859446    0.000000    0.000000    0.000000    0.000000
  0.026000000  -38.817283   59.773102  -94.398434   24.598986    0.000000    0.000000    0.000000    0.000000
  0.026200000  -38.828624   60.294014  -96.369768   22.537800    0.000000    0.000000    0.000000    0.000000
  0.026400000  -38.736859   60.179363  -94.254946   24.358763    0.000000    0.000000    0.000000    0.000000
  0.026600000  -38.727698   59.297325  -94.228821   22.884708    0.000000    0.000000    0.000000    0.000000
  0.026800000  -38.659282   59.819775  -94.755978   18.216885    0.000000    0.000000    0.000000    0.000000
  0.027000000  -38.660329   60.171482  -94.958947   25.967730    0.000000    0.000000    0.000000    0.000000
  0.027200000  -38.625984   60.333122  -96.175473   21.641596    0.000000    0.000000    0.000000    0.000000
  0.027400000  -38.569440   59.803539  -95.949246   16.844791    0.000000    0.000000    0.000000    0.000000
  0.027600000  -38.575528   60.958115  -95.904854   17.099348    0.000000    0.000000    0.000000    0.000000
  0.027800000  -38.479600   60.158783  -94.347467   20.668264    0.000000    0.000000    0.000000    0.000000
  0.028000000  -38.556986   60.721958  -96.508407   19.652086    0.000000    0.000000    0.000000    0.000000
  0.028200000  -38.518243   59.600136  -95.060337   25.469685    0.000000    0.000000    0.000000    0.000000
  0.028400000  -38.535962   60.823490  -94.800048   25.011169    0.000000    0.000000    0.000000    0.000000
  0.028600000  -38.423497   60.053688  -95.344230   22.527039    0.000000    0.000000    0.000000    0.000000
  0.028800000  -38.458112   59.754436  -96.253175   11.321394    0.000000    0.000000    0.000000    0.000000
  0.029000000  -38.507790   60.941769  -95.716252   25.613878    0.000000    0.000000    0.000000    0.000000
  0.029200000  -38.439286   59.828789  -97.321791   24.360214    0.000000    0.000000    0.000000    0.000000
  0.029400000  -38.337339   60.845463  -96.701028   19.525318    0.000000    0.000000    0.000000    0.000000
  0.029600000  -38.471727   60.079006  -96.735513   22.581457    0.000000    0.000000    0.000000    0.000000
  0.029800000  -38.437288   59.032799  -96.238245   10.920039    0.000000    0.000000    0.000000    0.000000
  0.030000000  -38.378385   59.008362  -96.455884   12.539900    0.000000    0.000000    0.000000    0.000000
  0.030200000  -38.373804   58.388756  -97.521958   13.844831    0.000000    0.000000    0.000000    0.000000
  0.030400000  -38.419656   58.518116  -96.287529   18.079983    0.000000    0.000000    0.000000    0.000000
  0.030600000  -38.362896   57.995274  -97.223457   21.558964    0.000000    0.000000    0.000000    0.000000
  0.030800000  -38.315408   58.165482  -96.298307   20.955257    0.000000    0.000000    0.000000    0.000000
  0.031000000  -38.286578   57.855671  -97.328558   13.998788    0.000000    0.000000    0.000000    0.000000
  0.031200000  -38.182112   57.996666  -97.117946   22.802513    0.000000    0.000000    0.000000    0.000000
  0.031400000  -38.210906   57.447430  -97.030404   25.452740    0.000000    0.000000    0.000000    0.000000
  0.031600000  -38.222566   58.184628  -96.441462   17.485435    0.000000    0.000000    0.000000    0.000000
  0.031800000  -38.025469   56.604652  -96.102902   19.621416    0.000000    0.000000    0.000000    0.000000
  0.032000000  -38.128521   56.450569  -96.655509    7.044988    0.000000    0.000000    0.000000    0.000000
  0.032200000  -38.054609   56.157135  -97.461335   14.095668    0.000000    0.000000    0.000000    0.000000
  0.032400000  -37.798335   56.510555  -96.865199   13.424773    0.000000    0.000000    0.000000    0.000000
  0.032600000  -37.984979   55.793129  -97.498693   17.044722    0.000000    0.000000    0.000000    0.000000
  0.032800000  -37.997089   55.597225  -98.292487    8.719501    0.000000    0.000000    0.000000    0.000000
  0.033000000  -37.743398   55.459354  -98.179508   15.976995    0.000000    0.000000    0.000000    0.000000
  0.033200000  -37.854442   55.231747  -97.565271    9.696394    0.000000    0.000000    0.000000    0.000000
  0.033400000  -37.845797   55.254711  -97.838772   25.164455    0.000000    0.000000    0.000000    0.000000
  0.033600000  -37.851388   55.507294  -98.013288    6.036925    0.000000    0.000000    0.000000    0.000000
  0.033800000  -37.740054   53.856449  -98.330170   10.417804    0.000000    0.000000    0.000000    0.000000
  0.034000000  -37.662960   53.632225  -99.208804   23.148273    0.000000    0.000000    0.000000    0.000000
  0.034200000  -37.538752   53.487053  -97.710817   -1.299869    0.000000    0.000000    0.000000    0.000000
  0.034400000  -37.638564   53.790520  -98.940776   10.700741    0.000000    0.000000    0.000000    0.000000
  0.034600000  -37.579114   53.219490  -98.277783    8.342094    0.000000    0.000000    0.000000    0.000000
  0.034800000  -37.476889   52.986824  -97.105274    6.887492    0.000000    0.000000    0.000000    0.000000
  0.035000000  -37.492598   52.495373  -98.727897    4.820051    0.000000    0.000000    0.000000    0.000000
  0.035200000  -37.463892   52.610435  -98.302464   14.423336    0.000000    0.000000    0.000000    0.000000
  0.035400000  -37.433701   53.643330  -99.115254   -0.637842    0.000000    0.000000    0.000000    0.000000
  0.035600000  -37.442177   52.895802  -99.223336   12.347815    0.000000    0.000000    0.000000    0.000000
  0.035800000  -37.330847   52.198647  -98.483825    4.748842    0.000000    0.000000    0.000000    0.000000
  0.036000000  -37.349706   52.385757  -98.937619   23.857872    0.000000    0.000000    0.000000    0.000000
  0.036200000  -37.188754   52.291355 -100.056769   11.937849    0.000000    0.000000    0.000000    0.000000
  0.036400000  -37.129499   52.930386 -101.310398    8.086883    0.000000    0.000000    0.000000    0.000000
  0.036600000  -37.225152   52.542011  -98.531027   14.639011    0.000000    0.000000    0.000000    0.000000
  0.036800000  -37.125515   51.741013  -99.456662   15.288082    0.000000    0.000000    0.000000    0.000000
  0.037000000  -37.114880   51.963303  -99.972876    8.126370    0.000000    0.000000    0.000000    0.000000
  0.037200000  -37.135958   51.519558  -99.858600   -5.394985    0.000000    0.000000    0.000000    0.000000
  0.037400000  -37.110837   51.425045  -99.904953    7.182221    0.000000    0.000000    0.000000    0.000000
  0.037600000  -37.083741   51.326859  -99.022743   16.032095    0.000000    0.000000    0.000000    0.000000
  0.037800000  -37.065065   50.547916 -101.092198   12.621135    0.000000    0.000000    0.000000    0.000000
  0.038000000  -36.980021   50.758465 -100.877935   17.052750    0.000000    0.000000    0.000000    0.000000
  0.038200000  -36.964272   50.284485 -100.217056    6.495662    0.000000    0.000000    0.000000    0.000000
  0.038400000  -36.874821   50.164875 -101.438421   -6.724508    0.000000    0.000000    0.000000    0.000000
  0.038600000  -36.865252   50.152222 -100.870430    8.523046    0.000000    0.000000    0.000000    0.000000
  0.038800000  -36.927492   50.361362  -99.195862    6.788469    0.000000    0.000000    0.000000    0.000000
  0.039000000  -36.793387   49.388023  -99.497849    0.401824    0.000000    0.000000    0.000000    0.000000
  0.039200000  -36.768004   49.562836 -100.109232   10.620336    0.000000    0.000000    0.000000    0.000000
  0.039400000  -36.896233   48.094387  -99.957678   -0.937309    0.000000    0.000000    0.000000    0.000000
  0.039600000  -36.722204   48.794926 -101.255430   21.522371    0.000000    0.000000    0.000000    0.000000
  0.039800000  -36.755062   48.576485 -100.078249   -8.973162    0.000000    0.000000    0.000000    0.000000
  0.040000000  -36.778801   47.964199 -100.111316   19.546537    0.000000    0.000000    0.000000    0.000000
  0.040200000  -36.871275   48.865417 -100.962366    1.214335    0.000000    0.000000    0.000000    0.000000
  0.040400000  -36.618808   48.498798  -97.413450    0.520549    0.000000    0.000000    0.000000    0.000000
  0.040600000  -36.644184   48.123829 -103.526962   15.822536    0.000000    0.000000    0.000000    0.000000
  0.040800000  -36.694164   47.635532  -98.440885    7.370974    0.000000    0.000000    0.000000    0.000000
  0.041000000  -36.635488   47.672623 -100.958274   20.031006    0.000000    0.000000    0.000000    0.000000
  0.041200000  -36.584024   47.136070 -100.511891    6.457459    0.000000    0.000000    0.000000    0.000000
  0.041400000  -36.584472   46.073784 -100.466501    3.791992    0.000000    0.000000    0.000000    0.000000
  0.041600000  -36.456510   45.909878 -101.813813   17.167883    0.000000    0.000000    0.000000    0.000000
  0.041800000  -36.367453   45.790710 -101.569880    3.721628    0.000000    0.000000    0.000000    0.000000
  0.042000000  -36.281583   45.179291  -99.445112   10.336139    0.000000    0.000000    0.000000    0.000000
  0.042200000  -36.216398   44.157921 -100.874522   -5.185369    0.000000    0.000000    0.000000    0.000000
  0.042400000  -36.193154   44.527164 -101.461629   29.437613    0.000000    0.000000    0.000000    0.000000
  0.042600000  -36.142919   44.761440 -101.801469   -1.265083    0.000000    0.000000    0.000000    0.000000
  0.042800000  -35.999393   44.328243 -101.326167    9.539694    0.000000    0.000000    0.000000    0.000000
