! Anritsu VNA Master:                     Model: MS2036C/10/77
! SN:                                  1601066
! /card0/usr/50ohm3.s2p
! Existing Calibration Information:
! TYPE:                         Current Settings,       Active Cal Settings
! TIME:             	   12/20/2017 04:14:44 PM,    12/20/2017 04:05:21 PM
! INTERNAL TEMP:    	                   42.3 C,                    43.3 C
! # POINTS:         	                      501,                       501
! START FREQ:       	               10.000 MHz,                10.000 MHz
! STOP FREQ:        	              110.000 MHz,               110.000 MHz
! SOURCE POWER:     	                     High,                      High
! IFBW:             	                   100 Hz,                    100 Hz
! AVG FACTOR:       	                       1 ,                        1 
! REF PLANE 1:      	                     0 mm,                      0 mm
! REF PLANE 2:      	                     0 mm,                      0 mm
! CAL TYPE:         	                 Full S11,                  Full S11
! CAL METHOD:       	                     SOLT,                      SOLT
! CAL LINE TYPE:    	                     Coax,                      Coax
! DUT PORT 1:       	                K-Conn(F),                 K-Conn(F)
! DUT PORT 2:       	                K-Conn(F),                 K-Conn(F)
! CAL STATUS:       	        OK: Accuracy High,                        --
# GHZ S DB R 50.0
! FREQ.GHZ       S11DB        S11A       S21DB        S21A       S12DB        S12A       S22DB        S22A
  0.010000000  -45.450371   59.491425  -83.222472   78.837425    0.000000    0.000000    0.000000    0.000000
  0.010200000  -45.226274   60.790665  -83.678162   73.602928    0.000000    0.000000    0.000000    0.000000
  0.010400000  -44.732993   58.280033  -83.766813   74.989594    0.000000    0.000000    0.000000    0.000000
  0.010600000  -44.498896   58.885902  -83.373916   74.173103    0.000000    0.000000    0.000000    0.000000
  0.010800000  -44.444480   59.590694  -84.275164   73.508064    0.000000    0.000000    0.000000    0.000000
  0.011000000  -44.065034   60.273388  -84.025576   72.936432    0.000000    0.000000    0.000000    0.000000
  0.011200000  -44.010350   60.638336  -84.557670   68.627975    0.000000    0.000000    0.000000    0.000000
  0.011400000  -43.907374   59.770554  -84.096867   70.324570    0.000000    0.000000    0.000000    0.000000
  0.011600000  -43.767429   60.709827  -84.911623   68.035034    0.000000    0.000000    0.000000    0.000000
  0.011800000  -43.475727   59.627552  -85.022512   67.146568    0.000000    0.000000    0.000000    0.000000
  0.012000000  -43.374244   61.539021  -85.278686   68.586151    0.000000    0.000000    0.000000    0.000000
  0.012200000  -43.311033   61.661583  -85.426655   64.916374    0.000000    0.000000    0.000000    0.000000
  0.012400000  -43.261683   61.230324  -85.519517   65.977798    0.000000    0.000000    0.000000    0.000000
  0.012600000  -43.283491   62.536201  -85.543498   65.078331    0.000000    0.000000    0.000000    0.000000
  0.012800000  -43.181104   62.134811  -86.058087   63.421154    0.000000    0.000000    0.000000    0.000000
  0.013000000  -43.197244   61.982655  -85.898688   59.444393    0.000000    0.000000    0.000000    0.000000
  0.013200000  -43.088225   62.924149  -86.565517   62.680618    0.000000    0.000000    0.000000    0.000000
  0.013400000  -43.055950   64.427109  -85.620796   62.184155    0.000000    0.000000    0.000000    0.000000
  0.013600000  -43.212733   63.426788  -86.764379   58.264179    0.000000    0.000000    0.000000    0.000000
  0.013800000  -42.997310   62.918903  -86.320121   60.860394    0.000000    0.000000    0.000000    0.000000
  0.014000000  -43.079028   62.866428  -86.863270   58.501419    0.000000    0.000000    0.000000    0.000000
  0.014200000  -42.997184   62.111752  -86.850885   60.773464    0.000000    0.000000    0.000000    0.000000
  0.014400000  -42.910583   61.974556  -86.657884   54.341419    0.000000    0.000000    0.000000    0.000000
  0.014600000  -42.862072   61.336945  -87.298965   55.398972    0.000000    0.000000    0.000000    0.000000
  0.014800000  -43.011010   60.156380  -87.353297   54.125721    0.000000    0.000000    0.000000    0.000000
  0.015000000  -42.687420   60.357555  -87.156713   51.374584    0.000000    0.000000    0.000000    0.000000
  0.015200000  -42.764067   59.326824  -87.919956   52.997143    0.000000    0.000000    0.000000    0.000000
  0.015400000  -42.592998   59.328999  -87.914565   53.390530    0.000000    0.000000    0.000000    0.000000
  0.015600000  -42.580878   58.862919  -88.733860   54.532143    0.000000    0.000000    0.000000    0.000000
  0.015800000  -42.494232   58.886059  -87.778017   52.238865    0.000000    0.000000    0.000000    0.000000
  0.016000000  -42.466654   57.371731  -88.572711   50.482883    0.000000    0.000000    0.000000    0.000000
  0.016200000  -42.187346   58.102146  -87.887794   50.455940    0.000000    0.000000    0.000000    0.000000
  0.016400000  -42.072085   57.750084  -88.051032   48.999954    0.000000    0.000000    0.000000    0.000000
  0.016600000  -41.684004   56.181087  -89.517118   48.919888    0.000000    0.000000    0.000000    0.000000
  0.016800000  -41.789209   57.731544  -89.066303   47.124256    0.000000    0.000000    0.000000    0.000000
  0.017000000  -41.578132   57.773563  -89.006244   45.959774    0.000000    0.000000    0.000000    0.000000
  0.017200000  -41.460124   56.166077  -89.353096   45.830578    0.000000    0.000000    0.000000    0.000000
  0.017400000  -41.399215   56.379322  -89.257012   47.660088    0.000000    0.000000    0.000000    0.000000
  0.017600000  -41.376063   56.163887  -89.764739   46.415169    0.000000    0.000000    0.000000    0.000000
  0.017800000  -41.163706   56.301323  -89.787979   46.143452    0.000000    0.000000    0.000000    0.000000
  0.018000000  -40.911049   56.937435  -89.800626   43.641720    0.000000    0.000000    0.000000    0.000000
  0.018200000  -41.103647   56.864235  -90.179886   45.504627    0.000000    0.000000    0.000000    0.000000
  0.018400000  -40.736322   57.284176  -90.073529   42.425083    0.000000    0.000000    0.000000    0.000000
  0.018600000  -40.854424   55.874199  -90.487961   39.694237    0.000000    0.000000    0.000000    0.000000
  0.018800000  -40.699593   56.927471  -90.753698   36.830933    0.000000    0.000000    0.000000    0.000000
  0.019000000  -40.658290   57.830223  -91.164077   39.637188    0.000000    0.000000    0.000000    0.000000
  0.019200000  -40.407467   57.951347  -90.045918   42.797684    0.000000    0.000000    0.000000    0.000000
  0.019400000  -40.332287   57.425282  -90.536798   33.150375    0.000000    0.000000    0.000000    0.000000
  0.019600000  -40.527761   58.542366  -91.165979   37.049805    0.000000    0.000000    0.000000    0.000000
  0.019800000  -40.529977   58.623417  -91.070572   40.296764    0.000000    0.000000    0.000000    0.000000
  0.020000000  -40.331263   58.738636  -91.021838   37.407459    0.000000    0.000000    0.000000    0.000000
  0.020200000  -40.431989   57.711800  -91.041529   38.173279    0.000000    0.000000    0.000000    0.000000
  0.020400000  -40.360070   58.918095  -91.673288   35.596363    0.000000    0.000000    0.000000    0.000000
  0.020600000  -40.329302   59.127754  -90.650038   34.281090    0.000000    0.000000    0.000000    0.000000
  0.020800000  -40.309284   58.443367  -92.184600   38.108845    0.000000    0.000000    0.000000    0.000000
  0.021000000  -40.236328   58.496616  -90.994512   34.539490    0.000000    0.000000    0.000000    0.000000
  0.021200000  -40.208196   57.632385  -92.117984   30.558018    0.000000    0.000000    0.000000    0.000000
  0.021400000  -40.220992   58.056309  -91.462307   31.037664    0.000000    0.000000    0.000000    0.000000
  0.021600000  -40.293081   57.520260  -92.188570   31.319714    0.000000    0.000000    0.000000    0.000000
  0.021800000  -40.199776   57.133160  -91.588060   36.173904    0.000000    0.000000    0.000000    0.000000
  0.022000000  -40.197706   56.595535  -92.437820   30.261133    0.000000    0.000000    0.000000    0.000000
  0.022200000  -40.136348   56.641678  -92.272418   35.715633    0.000000    0.000000    0.000000    0.000000
  0.022400000  -39.966847   56.761532  -92.213715   42.882915    0.000000    0.000000    0.000000    0.000000
  0.022600000  -39.880397   56.069576  -92.302910   34.262554    0.000000    0.000000    0.000000    0.000000
  0.022800000  -40.014491   56.956547  -93.745699   29.979681    0.000000    0.000000    0.000000    0.000000
  0.023000000  -39.857122   57.155514  -92.089590   34.611694    0.000000    0.000000    0.000000    0.000000
  0.023200000  -39.816252   56.147488  -92.233076   27.244062    0.000000    0.000000    0.000000    0.000000
  0.023400000  -39.794579   54.730289  -92.526511   25.399849    0.000000    0.000000    0.000000    0.000000
  0.023600000  -39.770016   55.318878  -92.545590   29.948416    0.000000    0.000000    0.000000    0.000000
  0.023800000  -39.650324   53.896599  -93.055255   33.204372    0.000000    0.000000    0.000000    0.000000
  0.024000000  -39.535439   55.751240  -93.058282   31.428831    0.000000    0.000000    0.000000    0.000000
  0.024200000  -39.477824   55.412994  -93.657010   25.752186    0.000000    0.000000    0.000000    0.000000
  0.024400000  -39.233650   54.996304  -93.364733   27.134811    0.000000    0.000000    0.000000    0.000000
  0.024600000  -39.283693   54.429745  -94.620999   27.735077    0.000000    0.000000    0.000000    0.000000
  0.024800000  -39.230180   54.789742  -93.915230   27.431345    0.000000    0.000000    0.000000    0.000000
  0.025000000  -39.126929   54.276882  -93.947288   30.638685    0.000000    0.000000    0.000000    0.000000
  0.025200000  -39.088508   54.167507  -94.524950   23.902552    0.000000    0.000000    0.000000    0.000000
  0.025400000  -39.027106   54.536755  -94.740761   29.429789    0.000000    0.000000    0.000000    0.000000
  0.025600000  -39.060231   54.455894  -93.953510   27.614050    0.000000    0.000000    0.000000    0.000000
  0.025800000  -39.062038   55.211136  -95.336651   26.169434    0.000000    0.000000    0.000000    0.000000
  0.026000000  -39.069759   54.214863  -94.887516   24.515116    0.000000    0.000000    0.000000    0.000000
  0.026200000  -39.025065   55.377739  -95.954134   22.820419    0.000000    0.000000    0.000000    0.000000
  0.026400000  -38.983980   54.851738  -95.749422   20.379910    0.000000    0.000000    0.000000    0.000000
  0.026600000  -38.831299   54.973343  -95.622251   24.534710    0.000000    0.000000    0.000000    0.000000
  0.026800000  -38.830619   54.352848  -95.670879   19.821892    0.000000    0.000000    0.000000    0.000000
  0.027000000  -38.925771   54.478077  -94.989244   21.452757    0.000000    0.000000    0.000000    0.000000
  0.027200000  -38.853064   54.046371  -94.287936   15.571276    0.000000    0.000000    0.000000    0.000000
  0.027400000  -38.791201   54.556255  -95.583727   12.641932    0.000000    0.000000    0.000000    0.000000
  0.027600000  -38.787371   54.353973  -94.408445   17.131310    0.000000    0.000000    0.000000    0.000000
  0.027800000  -38.840257   53.268394  -96.097520   21.201668    0.000000    0.000000    0.000000    0.000000
  0.028000000  -38.702849   52.996235  -96.183350   17.648811    0.000000    0.000000    0.000000    0.000000
  0.028200000  -38.742921   53.102776  -96.625133   21.601761    0.000000    0.000000    0.000000    0.000000
  0.028400000  -38.612742   53.295555  -96.168974   18.222099    0.000000    0.000000    0.000000    0.000000
  0.028600000  -38.603482   52.302631  -96.620490   20.576948    0.000000    0.000000    0.000000    0.000000
  0.028800000  -38.564078   52.695107  -96.142929   22.422348    0.000000    0.000000    0.000000    0.000000
  0.029000000  -38.589448   51.623623  -95.898292   15.570686    0.000000    0.000000    0.000000    0.000000
  0.029200000  -38.569345   51.430473  -96.644002   20.894255    0.000000    0.000000    0.000000    0.000000
  0.029400000  -38.457310   51.826973  -95.962275   13.644248    0.000000    0.000000    0.000000    0.000000
  0.029600000  -38.375683   50.875916  -96.405806   17.475357    0.000000    0.000000    0.000000    0.000000
  0.029800000  -38.363494   51.339756  -95.924199   16.938084    0.000000    0.000000    0.000000    0.000000
  0.030000000  -38.219137   50.109230  -97.906933   22.057556    0.000000    0.000000    0.000000    0.000000
  0.030200000  -38.103201   50.996552  -97.370422   19.659895    0.000000    0.000000    0.000000    0.000000
  0.030400000  -38.160659   50.602520  -97.143342   19.007666    0.000000    0.000000    0.000000    0.000000
  0.030600000  -38.056049   50.540020  -96.931633   22.232094    0.000000    0.000000    0.000000    0.000000
  0.030800000  -37.917660   50.140652  -96.883449   15.274039    0.000000    0.000000    0.000000    0.000000
  0.031000000  -37.928129   50.335934  -97.169510   12.716518    0.000000    0.000000    0.000000    0.000000
  0.031200000  -37.835579   49.879730  -98.687645    1.748999    0.000000    0.000000    0.000000    0.000000
  0.031400000  -37.769468   50.220634  -96.460752   12.017823    0.000000    0.000000    0.000000    0.000000
  0.031600000  -37.633934   49.772755  -97.967843   20.770737    0.000000    0.000000    0.000000    0.000000
  0.031800000  -37.594532   49.405018  -97.293905   26.922815    0.000000    0.000000    0.000000    0.000000
  0.032000000  -37.555227   50.511143  -97.109156   13.144569    0.000000    0.000000    0.000000    0.000000
  0.032200000  -37.567162   49.840061  -97.771312   13.585047    0.000000    0.000000    0.000000    0.000000
  0.032400000  -37.566920   51.135944  -97.415875   17.595896    0.000000    0.000000    0.000000    0.000000
  0.032600000  -37.542613   51.336784  -96.718185   24.228909    0.000000    0.000000    0.000000    0.000000
  0.032800000  -37.487117   50.851009  -98.889754    5.700961    0.000000    0.000000    0.000000    0.000000
  0.033000000  -37.443072   50.214046  -98.027201   17.000319    0.000000    0.000000    0.000000    0.000000
  0.033200000  -37.453547   50.598484  -99.363539   24.780548    0.000000    0.000000    0.000000    0.000000
  0.033400000  -37.527133   50.064369  -97.612251   18.344645    0.000000    0.000000    0.000000    0.000000
  0.033600000  -37.416808   49.972343  -97.891851    1.799148    0.000000    0.000000    0.000000    0.000000
  0.033800000  -37.511858   49.929569  -98.636410   13.884025    0.000000    0.000000    0.000000    0.000000
  0.034000000  -37.504689   50.438366  -99.104877   12.046558    0.000000    0.000000    0.000000    0.000000
  0.034200000  -37.397183   49.277420  -98.597023    9.080784    0.000000    0.000000    0.000000    0.000000
  0.034400000  -37.237122   49.405357  -98.814568    9.987227    0.000000    0.000000    0.000000    0.000000
  0.034600000  -37.352169   49.365318  -99.133930   24.134935    0.000000    0.000000    0.000000    0.000000
  0.034800000  -37.406467   49.181255  -98.328510   11.281105    0.000000    0.000000    0.000000    0.000000
  0.035000000  -37.429845   48.802704  -97.833192    8.930123    0.000000    0.000000    0.000000    0.000000
  0.035200000  -37.326116   48.818527  -98.226157   10.198494    0.000000    0.000000    0.000000    0.000000
  0.035400000  -37.326678   48.580265  -99.798795   11.536217    0.000000    0.000000    0.000000    0.000000
  0.035600000  -37.344314   48.379681  -98.668497   15.015100    0.000000    0.000000    0.000000    0.000000
  0.035800000  -37.214400   48.293728  -98.409989   20.116922    0.000000    0.000000    0.000000    0.000000
  0.036000000  -37.167931   47.699902  -99.655025    8.730401    0.000000    0.000000    0.000000    0.000000
  0.036200000  -37.132676   47.387028  -99.683257   10.270926    0.000000    0.000000    0.000000    0.000000
  0.036400000  -37.049443   46.820808  -99.511113   12.503254    0.000000    0.000000    0.000000    0.000000
  0.036600000  -37.036112   46.638794  -99.151559   17.680202    0.000000    0.000000    0.000000    0.000000
  0.036800000  -36.986263   45.933422  -98.104302    6.410891    0.000000    0.000000    0.000000    0.000000
  0.037000000  -36.856606   45.677677  -99.728142    1.457327    0.000000    0.000000    0.000000    0.000000
  0.037200000  -36.803603   46.165726  -99.402476    8.843218    0.000000    0.000000    0.000000    0.000000
  0.037400000  -36.768458   45.794281  -99.234264   12.580400    0.000000    0.000000    0.000000    0.000000
  0.037600000  -36.839211   46.217155  -99.474493    1.647103    0.000000    0.000000    0.000000    0.000000
  0.037800000  -36.682674   44.645489  -99.798010    1.153615    0.000000    0.000000    0.000000    0.000000
  0.038000000  -36.559425   45.967079  -98.438542   28.486216    0.000000    0.000000    0.000000    0.000000
  0.038200000  -36.480862   45.869469  -99.776340   23.036762    0.000000    0.000000    0.000000    0.000000
  0.038400000  -36.485663   46.074345 -102.099840   -5.684151    0.000000    0.000000    0.000000    0.000000
  0.038600000  -36.420272   45.492874  -97.793005   13.972436    0.000000    0.000000    0.000000    0.000000
  0.038800000  -36.303569   45.993015  -98.576913    8.342216    0.000000    0.000000    0.000000    0.000000
  0.039000000  -36.406997   45.644024 -101.798747    8.568965    0.000000    0.000000    0.000000    0.000000
  0.039200000  -36.355493   45.369904  -99.378394    7.548170    0.000000    0.000000    0.000000    0.000000
  0.039400000  -36.186895   46.253277 -100.713275    5.172717    0.000000    0.000000    0.000000    0.000000
  0.039600000  -36.137581   45.760971  -99.896737   -2.291900    0.000000    0.000000    0.000000    0.000000
  0.039800000  -36.279834   46.367104 -101.090474   20.518076    0.000000    0.000000    0.000000    0.000000
  0.040000000  -36.191551   46.546989 -102.617473    9.618620    0.000000    0.000000    0.000000    0.000000
  0.040200000  -36.108107   45.605412 -103.308500   -1.442848    0.000000    0.000000    0.000000    0.000000
  0.040400000  -36.172762   46.266888 -101.642240    4.334685    0.000000    0.000000    0.000000    0.000000
  0.040600000  -36.276084   46.329826  -99.079996    9.757411    0.000000    0.000000    0.000000    0.000000
  0.040800000  -36.396701   46.053497  -99.281014    1.298305    0.000000    0.000000    0.000000    0.000000
  0.041000000  -36.228970   45.364288  -99.729218    7.070762    0.000000    0.000000    0.000000    0.000000
  0.041200000  -36.176910   45.231930 -104.239512    2.625777    0.000000    0.000000    0.000000    0.000000
  0.041400000  -36.238491   45.194954 -101.139117    2.631577    0.000000    0.000000    0.000000    0.000000
  0.041600000  -36.381153   44.838139 -100.137754    3.030518    0.000000    0.000000    0.000000    0.000000
  0.041800000  -36.205748   44.289055 -101.125437    9.068130    0.000000    0.000000    0.000000    0.000000
  0.042000000  -36.158410   43.778168 -101.323484   14.234701    0.000000    0.000000    0.000000    0.000000
  0.042200000  -36.207121   43.772079  -99.946243   12.971916    0.000000    0.000000    0.000000    0.000000
  0.042400000  -36.142627   43.864342 -101.962320   -0.214151    0.000000    0.000000    0.000000    0.000000
  0.042600000  -36.106674   43.146248 -102.330846   30.519068    0.000000    0.000000    0.000000    0.000000
  0.042800000  -36.049607   43.094086 -100.675644   -0.812395    0.000000    0.000000    0.000000    0.000000
