! Anritsu VNA Master:                     Model: MS2036C/10/77
! SN:                                  1601066
! /card0/usr/ns.20bohm2.s2p
! Existing Calibration Information:
! TYPE:                         Current Settings,       Active Cal Settings
! TIME:             	   12/21/2017 05:21:19 PM,    12/21/2017 05:13:10 PM
! INTERNAL TEMP:    	                   39.5 C,                    40.0 C
! # POINTS:         	                      501,                       501
! START FREQ:       	               10.000 MHz,                10.000 MHz
! STOP FREQ:        	              110.000 MHz,               110.000 MHz
! SOURCE POWER:     	                     High,                      High
! IFBW:             	                   100 Hz,                    100 Hz
! AVG FACTOR:       	                       1 ,                        1 
! REF PLANE 1:      	                     0 mm,                      0 mm
! REF PLANE 2:      	                     0 mm,                      0 mm
! CAL TYPE:         	                 Full S11,                  Full S11
! CAL METHOD:       	                     SOLT,                      SOLT
! CAL LINE TYPE:    	                     Coax,                      Coax
! DUT PORT 1:       	                K-Conn(F),                 K-Conn(F)
! DUT PORT 2:       	                K-Conn(F),                 K-Conn(F)
! CAL STATUS:       	        OK: Accuracy High,                        --
# GHZ S DB R 50.0
! FREQ.GHZ       S11DB        S11A       S21DB        S21A       S12DB        S12A       S22DB        S22A
  0.010000000   -7.213705  167.639404  -82.748476   80.529716    0.000000    0.000000    0.000000    0.000000
  0.010200000   -7.199570  167.443268  -82.384553   77.446289    0.000000    0.000000    0.000000    0.000000
  0.010400000   -7.199336  167.228073  -82.876668   76.034027    0.000000    0.000000    0.000000    0.000000
  0.010600000   -7.206529  166.939194  -82.700821   73.674011    0.000000    0.000000    0.000000    0.000000
  0.010800000   -7.207432  166.695068  -83.531909   71.341690    0.000000    0.000000    0.000000    0.000000
  0.011000000   -7.209118  166.437927  -83.289467   71.726669    0.000000    0.000000    0.000000    0.000000
  0.011200000   -7.208672  166.179932  -83.808720   69.439575    0.000000    0.000000    0.000000    0.000000
  0.011400000   -7.211859  165.929230  -84.156778   65.209198    0.000000    0.000000    0.000000    0.000000
  0.011600000   -7.209014  165.722397  -84.550714   66.411873    0.000000    0.000000    0.000000    0.000000
  0.011800000   -7.212338  165.461273  -85.063714   65.247284    0.000000    0.000000    0.000000    0.000000
  0.012000000   -7.211587  165.174225  -85.249653   63.096836    0.000000    0.000000    0.000000    0.000000
  0.012200000   -7.215737  164.927170  -85.593832   61.004047    0.000000    0.000000    0.000000    0.000000
  0.012400000   -7.215083  164.681046  -85.960795   58.634079    0.000000    0.000000    0.000000    0.000000
  0.012600000   -7.217015  164.426483  -86.058210   59.855816    0.000000    0.000000    0.000000    0.000000
  0.012800000   -7.217560  164.199951  -86.273592   60.900829    0.000000    0.000000    0.000000    0.000000
  0.013000000   -7.218826  163.964493  -86.617457   59.546696    0.000000    0.000000    0.000000    0.000000
  0.013200000   -7.225836  163.704742  -86.911985   59.934505    0.000000    0.000000    0.000000    0.000000
  0.013400000   -7.223743  163.475250  -87.053907   58.387543    0.000000    0.000000    0.000000    0.000000
  0.013600000   -7.219863  163.222504  -87.020889   58.847084    0.000000    0.000000    0.000000    0.000000
  0.013800000   -7.216666  162.991913  -87.157046   61.391148    0.000000    0.000000    0.000000    0.000000
  0.014000000   -7.220819  162.729919  -87.237766   58.935368    0.000000    0.000000    0.000000    0.000000
  0.014200000   -7.227212  162.482361  -87.537362   57.273987    0.000000    0.000000    0.000000    0.000000
  0.014400000   -7.224896  162.253479  -87.326235   60.367908    0.000000    0.000000    0.000000    0.000000
  0.014600000   -7.224800  162.004868  -87.691733   56.717178    0.000000    0.000000    0.000000    0.000000
  0.014800000   -7.229461  161.772751  -87.541286   60.468250    0.000000    0.000000    0.000000    0.000000
  0.015000000   -7.231113  161.514481  -87.611174   61.868481    0.000000    0.000000    0.000000    0.000000
  0.015200000   -7.230533  161.277267  -88.273277   56.187836    0.000000    0.000000    0.000000    0.000000
  0.015400000   -7.234141  161.019943  -87.747722   55.895786    0.000000    0.000000    0.000000    0.000000
  0.015600000   -7.230530  160.707748  -87.670217   59.740871    0.000000    0.000000    0.000000    0.000000
  0.015800000   -7.238718  160.540405  -88.023823   55.027916    0.000000    0.000000    0.000000    0.000000
  0.016000000   -7.242622  160.272964  -88.068546   54.535591    0.000000    0.000000    0.000000    0.000000
  0.016200000   -7.243070  160.044876  -87.873215   51.365311    0.000000    0.000000    0.000000    0.000000
  0.016400000   -7.244819  159.810455  -88.091056   51.782677    0.000000    0.000000    0.000000    0.000000
  0.016600000   -7.244382  159.581390  -88.101159   50.435856    0.000000    0.000000    0.000000    0.000000
  0.016800000   -7.240018  159.322708  -88.540346   50.862709    0.000000    0.000000    0.000000    0.000000
  0.017000000   -7.242814  159.069366  -88.625266   48.488758    0.000000    0.000000    0.000000    0.000000
  0.017200000   -7.239576  158.843445  -88.788294   45.801914    0.000000    0.000000    0.000000    0.000000
  0.017400000   -7.240168  158.583237  -89.349648   47.074821    0.000000    0.000000    0.000000    0.000000
  0.017600000   -7.242258  158.316879  -89.398932   43.625149    0.000000    0.000000    0.000000    0.000000
  0.017800000   -7.242706  158.075333  -89.591504   44.600422    0.000000    0.000000    0.000000    0.000000
  0.018000000   -7.244553  157.823608  -89.613558   45.600712    0.000000    0.000000    0.000000    0.000000
  0.018200000   -7.241124  157.577255  -89.943572   38.879959    0.000000    0.000000    0.000000    0.000000
  0.018400000   -7.244581  157.353439  -90.232747   35.521473    0.000000    0.000000    0.000000    0.000000
  0.018600000   -7.241026  157.105347  -90.076412   40.259151    0.000000    0.000000    0.000000    0.000000
  0.018800000   -7.242689  156.875427  -89.399267   41.325085    0.000000    0.000000    0.000000    0.000000
  0.019000000   -7.239465  156.627792  -90.327480   39.324154    0.000000    0.000000    0.000000    0.000000
  0.019200000   -7.245767  156.393845  -91.881214   44.076073    0.000000    0.000000    0.000000    0.000000
  0.019400000   -7.242004  156.162247  -90.487622   36.776909    0.000000    0.000000    0.000000    0.000000
  0.019600000   -7.245873  155.919495  -90.490053   37.741096    0.000000    0.000000    0.000000    0.000000
  0.019800000   -7.248586  155.669937  -92.131564   42.436104    0.000000    0.000000    0.000000    0.000000
  0.020000000   -7.249589  155.433502  -91.166327   36.682693    0.000000    0.000000    0.000000    0.000000
  0.020200000   -7.246573  155.201508  -92.103532   29.934938    0.000000    0.000000    0.000000    0.000000
  0.020400000   -7.241029  154.938171  -91.737008   41.639236    0.000000    0.000000    0.000000    0.000000
  0.020600000   -7.241316  154.703827  -91.911317   41.551357    0.000000    0.000000    0.000000    0.000000
  0.020800000   -7.242262  154.469864  -92.150436   35.474522    0.000000    0.000000    0.000000    0.000000
  0.021000000   -7.243295  154.227493  -91.881132   26.237524    0.000000    0.000000    0.000000    0.000000
  0.021200000   -7.240102  153.954727  -91.987244   38.534809    0.000000    0.000000    0.000000    0.000000
  0.021400000   -7.244272  153.749771  -91.611045   37.650234    0.000000    0.000000    0.000000    0.000000
  0.021600000   -7.246966  153.494858  -91.123092   39.356228    0.000000    0.000000    0.000000    0.000000
  0.021800000   -7.248979  153.282715  -93.334006   40.309120    0.000000    0.000000    0.000000    0.000000
  0.022000000   -7.249551  153.034927  -93.320376   36.923008    0.000000    0.000000    0.000000    0.000000
  0.022200000   -7.252376  152.798203  -92.980116   37.203175    0.000000    0.000000    0.000000    0.000000
  0.022400000   -7.251530  152.562408  -92.233487   35.511173    0.000000    0.000000    0.000000    0.000000
  0.022600000   -7.252907  152.341415  -91.970791   31.453403    0.000000    0.000000    0.000000    0.000000
  0.022800000   -7.253594  152.103485  -91.465014   32.947506    0.000000    0.000000    0.000000    0.000000
  0.023000000   -7.255843  151.863388  -92.355861   31.812054    0.000000    0.000000    0.000000    0.000000
  0.023200000   -7.257033  151.615417  -92.496427   33.159279    0.000000    0.000000    0.000000    0.000000
  0.023400000   -7.254822  151.331070  -93.419069   31.432852    0.000000    0.000000    0.000000    0.000000
  0.023600000   -7.254955  151.098938  -92.836261   28.734213    0.000000    0.000000    0.000000    0.000000
  0.023800000   -7.251984  150.887665  -93.130522   30.010027    0.000000    0.000000    0.000000    0.000000
  0.024000000   -7.256628  150.619827  -92.736054   27.090673    0.000000    0.000000    0.000000    0.000000
  0.024200000   -7.256983  150.373947  -92.265581   29.137365    0.000000    0.000000    0.000000    0.000000
  0.024400000   -7.255518  150.080109  -93.382936   22.503748    0.000000    0.000000    0.000000    0.000000
  0.024600000   -7.257246  149.846420  -94.001896   14.891398    0.000000    0.000000    0.000000    0.000000
  0.024800000   -7.257328  149.609894  -94.101979   19.993952    0.000000    0.000000    0.000000    0.000000
  0.025000000   -7.257410  149.350372  -93.664094   20.462734    0.000000    0.000000    0.000000    0.000000
  0.025200000   -7.256332  149.134598  -94.241680   27.181370    0.000000    0.000000    0.000000    0.000000
  0.025400000   -7.258887  148.922607  -94.574218   16.599424    0.000000    0.000000    0.000000    0.000000
  0.025600000   -7.259790  148.675034  -94.757332   20.829983    0.000000    0.000000    0.000000    0.000000
  0.025800000   -7.258822  148.444427  -94.272568   17.869503    0.000000    0.000000    0.000000    0.000000
  0.026000000   -7.261247  148.225388  -94.676916   22.960951    0.000000    0.000000    0.000000    0.000000
  0.026200000   -7.261657  147.992050  -94.724380   21.267660    0.000000    0.000000    0.000000    0.000000
  0.026400000   -7.265013  147.750809  -93.566045   25.201044    0.000000    0.000000    0.000000    0.000000
  0.026600000   -7.267037  147.477036  -95.153641   29.465958    0.000000    0.000000    0.000000    0.000000
  0.026800000   -7.270328  147.232330  -94.987096   27.709557    0.000000    0.000000    0.000000    0.000000
  0.027000000   -7.267300  146.988724  -95.631861   22.374222    0.000000    0.000000    0.000000    0.000000
  0.027200000   -7.266510  146.690826  -96.004737   18.889578    0.000000    0.000000    0.000000    0.000000
  0.027400000   -7.263129  146.434555  -95.568835   20.130070    0.000000    0.000000    0.000000    0.000000
  0.027600000   -7.256564  146.178787  -95.590156   20.940718    0.000000    0.000000    0.000000    0.000000
  0.027800000   -7.256726  145.937607  -95.823210   23.887707    0.000000    0.000000    0.000000    0.000000
  0.028000000   -7.252892  145.684128  -96.549065   16.744909    0.000000    0.000000    0.000000    0.000000
  0.028200000   -7.251341  145.436890  -95.459313   20.729845    0.000000    0.000000    0.000000    0.000000
  0.028400000   -7.247447  145.231705  -95.840008   22.798748    0.000000    0.000000    0.000000    0.000000
  0.028600000   -7.246216  145.020874  -95.525273   22.005251    0.000000    0.000000    0.000000    0.000000
  0.028800000   -7.246684  144.806473  -95.466515   18.753223    0.000000    0.000000    0.000000    0.000000
  0.029000000   -7.242542  144.622147  -95.475605   18.637560    0.000000    0.000000    0.000000    0.000000
  0.029200000   -7.244238  144.426926  -95.548301   17.505125    0.000000    0.000000    0.000000    0.000000
  0.029400000   -7.240717  144.237564  -96.803892   21.154350    0.000000    0.000000    0.000000    0.000000
  0.029600000   -7.244978  144.054184  -96.391112   17.687269    0.000000    0.000000    0.000000    0.000000
  0.029800000   -7.253189  143.831879  -95.095058   12.698704    0.000000    0.000000    0.000000    0.000000
  0.030000000   -7.254410  143.590012  -96.328460   16.893936    0.000000    0.000000    0.000000    0.000000
  0.030200000   -7.257291  143.353333  -97.116427   15.449275    0.000000    0.000000    0.000000    0.000000
  0.030400000   -7.257340  143.105682  -96.129371   17.663137    0.000000    0.000000    0.000000    0.000000
  0.030600000   -7.261135  142.854416  -98.134552   11.132306    0.000000    0.000000    0.000000    0.000000
  0.030800000   -7.262818  142.584625  -97.105641   14.606698    0.000000    0.000000    0.000000    0.000000
  0.031000000   -7.263397  142.348267  -96.085844   14.979347    0.000000    0.000000    0.000000    0.000000
  0.031200000   -7.256434  142.138947  -96.828945    7.130216    0.000000    0.000000    0.000000    0.000000
  0.031400000   -7.262652  141.860855  -97.292071    8.011196    0.000000    0.000000    0.000000    0.000000
  0.031600000   -7.260002  141.585205  -97.067223   10.897869    0.000000    0.000000    0.000000    0.000000
  0.031800000   -7.265430  141.327789  -96.181942   10.752415    0.000000    0.000000    0.000000    0.000000
  0.032000000   -7.257399  141.105499  -98.343500    7.488248    0.000000    0.000000    0.000000    0.000000
  0.032200000   -7.256022  140.869705  -97.110028   25.558842    0.000000    0.000000    0.000000    0.000000
  0.032400000   -7.255140  140.593781  -97.444206   18.477028    0.000000    0.000000    0.000000    0.000000
  0.032600000   -7.247478  140.413513  -96.315371   17.771273    0.000000    0.000000    0.000000    0.000000
  0.032800000   -7.244863  140.199753  -97.277033   16.177475    0.000000    0.000000    0.000000    0.000000
  0.033000000   -7.242001  139.972015  -98.327029    6.167477    0.000000    0.000000    0.000000    0.000000
  0.033200000   -7.246755  139.781158  -98.502464   11.184247    0.000000    0.000000    0.000000    0.000000
  0.033400000   -7.245656  139.564011  -98.959247   10.555201    0.000000    0.000000    0.000000    0.000000
  0.033600000   -7.252649  139.365295  -99.047384    8.564658    0.000000    0.000000    0.000000    0.000000
  0.033800000   -7.255428  139.092087  -97.420845   11.573120    0.000000    0.000000    0.000000    0.000000
  0.034000000   -7.258023  138.850922  -97.716102   21.317011    0.000000    0.000000    0.000000    0.000000
  0.034200000   -7.262444  138.562668  -98.213623   14.643721    0.000000    0.000000    0.000000    0.000000
  0.034400000   -7.263836  138.317932  -99.497827   17.498388    0.000000    0.000000    0.000000    0.000000
  0.034600000   -7.265221  138.031677  -99.127405    4.319527    0.000000    0.000000    0.000000    0.000000
  0.034800000   -7.270631  137.771240  -97.354303   13.908397    0.000000    0.000000    0.000000    0.000000
  0.035000000   -7.272457  137.503571  -99.383200   24.263918    0.000000    0.000000    0.000000    0.000000
  0.035200000   -7.267338  137.242798  -98.221808   22.011827    0.000000    0.000000    0.000000    0.000000
  0.035400000   -7.262561  136.969910  -98.177431   28.590803    0.000000    0.000000    0.000000    0.000000
  0.035600000   -7.256318  136.737167  -99.863865   17.197981    0.000000    0.000000    0.000000    0.000000
  0.035800000   -7.253717  136.450668  -98.447548    4.012590    0.000000    0.000000    0.000000    0.000000
  0.036000000   -7.246574  136.216232  -97.277328   16.831293    0.000000    0.000000    0.000000    0.000000
  0.036200000   -7.243104  135.962463  -97.717923   19.618044    0.000000    0.000000    0.000000    0.000000
  0.036400000   -7.234506  135.759552  -97.154456   10.729766    0.000000    0.000000    0.000000    0.000000
  0.036600000   -7.231333  135.563171  -99.682678   21.898624    0.000000    0.000000    0.000000    0.000000
  0.036800000   -7.229851  135.367676  -99.463929   -5.039543    0.000000    0.000000    0.000000    0.000000
  0.037000000   -7.230454  135.145859 -100.245748   16.542522    0.000000    0.000000    0.000000    0.000000
  0.037200000   -7.231185  134.953979 -100.015605    8.784422    0.000000    0.000000    0.000000    0.000000
  0.037400000   -7.234409  134.728180  -99.951729    5.030243    0.000000    0.000000    0.000000    0.000000
  0.037600000   -7.235361  134.520340  -99.169285   10.165221    0.000000    0.000000    0.000000    0.000000
  0.037800000   -7.242383  134.286301  -99.760227   30.100275    0.000000    0.000000    0.000000    0.000000
  0.038000000   -7.246404  134.028137  -99.916152    5.559835    0.000000    0.000000    0.000000    0.000000
  0.038200000   -7.251288  133.762009  -99.166381   11.196568    0.000000    0.000000    0.000000    0.000000
  0.038400000   -7.252859  133.517914 -100.344422   -1.150937    0.000000    0.000000    0.000000    0.000000
  0.038600000   -7.253597  133.278061 -100.789468    8.726098    0.000000    0.000000    0.000000    0.000000
  0.038800000   -7.256458  133.031204 -100.010171   12.652144    0.000000    0.000000    0.000000    0.000000
  0.039000000   -7.254727  132.770828 -100.589358   23.620647    0.000000    0.000000    0.000000    0.000000
  0.039200000   -7.256455  132.516083 -102.045750    3.000731    0.000000    0.000000    0.000000    0.000000
  0.039400000   -7.259432  132.273499  -99.434389   10.162805    0.000000    0.000000    0.000000    0.000000
  0.039600000   -7.253264  132.036362 -101.742104   -8.180724    0.000000    0.000000    0.000000    0.000000
  0.039800000   -7.247925  131.737701  -98.859003   10.840510    0.000000    0.000000    0.000000    0.000000
  0.040000000   -7.243684  131.509140 -101.430250   19.330036    0.000000    0.000000    0.000000    0.000000
  0.040200000   -7.233387  131.310898 -100.184525   37.855526    0.000000    0.000000    0.000000    0.000000
  0.040400000   -7.228759  131.076569 -100.705668   28.997530    0.000000    0.000000    0.000000    0.000000
  0.040600000   -7.231224  130.881500 -100.736530   -5.612047    0.000000    0.000000    0.000000    0.000000
  0.040800000   -7.233632  130.716293 -100.609233    4.359923    0.000000    0.000000    0.000000    0.000000
  0.041000000   -7.239452  130.518280 -100.989289   22.627600    0.000000    0.000000    0.000000    0.000000
  0.041200000   -7.245761  130.276230  -99.519263   -3.686693    0.000000    0.000000    0.000000    0.000000
  0.041400000   -7.256071  130.022156  -98.664154    2.769095    0.000000    0.000000    0.000000    0.000000
  0.041600000   -7.259257  129.761948  -98.898931   11.790575    0.000000    0.000000    0.000000    0.000000
  0.041800000   -7.265732  129.504990  -99.788349   12.967991    0.000000    0.000000    0.000000    0.000000
  0.042000000   -7.271877  129.223190  -97.350971    5.372246    0.000000    0.000000    0.000000    0.000000
  0.042200000   -7.276407  128.987671  -99.844729    1.098103    0.000000    0.000000    0.000000    0.000000
  0.042400000   -7.275889  128.701843 -100.408194    0.769946    0.000000    0.000000    0.000000    0.000000
  0.042600000   -7.272915  128.454697  -99.488954   15.839645    0.000000    0.000000    0.000000    0.000000
  0.042800000   -7.270063  128.183105 -100.089813   17.549267    0.000000    0.000000    0.000000    0.000000
