! Anritsu VNA Master:                     Model: MS2036C/10/77
! SN:                                  1601066
! /card0/usr/50ohm4.s2p
! Existing Calibration Information:
! TYPE:                         Current Settings,       Active Cal Settings
! TIME:             	   12/20/2017 04:19:34 PM,    12/20/2017 04:05:21 PM
! INTERNAL TEMP:    	                   41.8 C,                    43.3 C
! # POINTS:         	                      501,                       501
! START FREQ:       	               10.000 MHz,                10.000 MHz
! STOP FREQ:        	              110.000 MHz,               110.000 MHz
! SOURCE POWER:     	                     High,                      High
! IFBW:             	                   100 Hz,                    100 Hz
! AVG FACTOR:       	                       1 ,                        1 
! REF PLANE 1:      	                     0 mm,                      0 mm
! REF PLANE 2:      	                     0 mm,                      0 mm
! CAL TYPE:         	                 Full S11,                  Full S11
! CAL METHOD:       	                     SOLT,                      SOLT
! CAL LINE TYPE:    	                     Coax,                      Coax
! DUT PORT 1:       	                K-Conn(F),                 K-Conn(F)
! DUT PORT 2:       	                K-Conn(F),                 K-Conn(F)
! CAL STATUS:       	        OK: Accuracy High,                        --
# GHZ S DB R 50.0
! FREQ.GHZ       S11DB        S11A       S21DB        S21A       S12DB        S12A       S22DB        S22A
  0.010000000  -45.020029   55.015308  -82.926098   75.320480    0.000000    0.000000    0.000000    0.000000
  0.010200000  -44.730651   54.292171  -83.269743   75.056519    0.000000    0.000000    0.000000    0.000000
  0.010400000  -44.386033   57.052460  -83.786164   75.086388    0.000000    0.000000    0.000000    0.000000
  0.010600000  -43.954282   56.560593  -83.760360   76.312279    0.000000    0.000000    0.000000    0.000000
  0.010800000  -43.855840   58.227737  -83.805137   73.467796    0.000000    0.000000    0.000000    0.000000
  0.011000000  -43.730362   56.958965  -84.196976   73.228004    0.000000    0.000000    0.000000    0.000000
  0.011200000  -43.194496   58.452698  -84.190560   72.584297    0.000000    0.000000    0.000000    0.000000
  0.011400000  -43.238692   58.072563  -84.375120   71.973602    0.000000    0.000000    0.000000    0.000000
  0.011600000  -43.212056   59.249786  -85.078880   69.025902    0.000000    0.000000    0.000000    0.000000
  0.011800000  -42.843723   59.174244  -84.728237   71.436111    0.000000    0.000000    0.000000    0.000000
  0.012000000  -42.976964   60.912605  -85.105104   64.040977    0.000000    0.000000    0.000000    0.000000
  0.012200000  -42.696853   61.623573  -85.460172   65.880882    0.000000    0.000000    0.000000    0.000000
  0.012400000  -42.631912   61.559082  -85.315507   65.646149    0.000000    0.000000    0.000000    0.000000
  0.012600000  -42.764544   62.201271  -85.591883   62.926083    0.000000    0.000000    0.000000    0.000000
  0.012800000  -42.669910   62.532581  -85.716412   64.313713    0.000000    0.000000    0.000000    0.000000
  0.013000000  -42.764662   62.434532  -85.966505   63.727890    0.000000    0.000000    0.000000    0.000000
  0.013200000  -42.796076   63.846970  -86.655251   61.283154    0.000000    0.000000    0.000000    0.000000
  0.013400000  -42.554040   64.167801  -86.389768   61.451649    0.000000    0.000000    0.000000    0.000000
  0.013600000  -42.842033   64.576591  -86.094470   57.750248    0.000000    0.000000    0.000000    0.000000
  0.013800000  -42.664094   64.428543  -86.805892   57.276600    0.000000    0.000000    0.000000    0.000000
  0.014000000  -42.777272   65.174133  -86.762069   55.668480    0.000000    0.000000    0.000000    0.000000
  0.014200000  -42.765015   62.769054  -87.219858   62.090523    0.000000    0.000000    0.000000    0.000000
  0.014400000  -42.803279   61.182026  -87.266997   57.093605    0.000000    0.000000    0.000000    0.000000
  0.014600000  -42.902281   61.441555  -87.358671   59.043903    0.000000    0.000000    0.000000    0.000000
  0.014800000  -42.797469   60.511932  -87.681698   52.578346    0.000000    0.000000    0.000000    0.000000
  0.015000000  -42.621092   60.210571  -87.487620   53.546982    0.000000    0.000000    0.000000    0.000000
  0.015200000  -42.632198   58.812859  -87.674117   50.612465    0.000000    0.000000    0.000000    0.000000
  0.015400000  -42.369065   58.286396  -87.395488   53.769413    0.000000    0.000000    0.000000    0.000000
  0.015600000  -42.458780   58.167503  -87.720286   50.167755    0.000000    0.000000    0.000000    0.000000
  0.015800000  -42.432804   57.065834  -88.224623   51.448788    0.000000    0.000000    0.000000    0.000000
  0.016000000  -42.328570   55.570423  -88.551954   50.493507    0.000000    0.000000    0.000000    0.000000
  0.016200000  -42.017389   56.068443  -88.521528   49.113125    0.000000    0.000000    0.000000    0.000000
  0.016400000  -41.915461   55.066250  -88.656473   49.732933    0.000000    0.000000    0.000000    0.000000
  0.016600000  -41.640378   53.914837  -88.965577   48.017368    0.000000    0.000000    0.000000    0.000000
  0.016800000  -41.682809   54.112064  -88.874978   51.114101    0.000000    0.000000    0.000000    0.000000
  0.017000000  -41.336807   55.081253  -89.696991   44.047276    0.000000    0.000000    0.000000    0.000000
  0.017200000  -41.110054   53.822060  -88.924823   47.319546    0.000000    0.000000    0.000000    0.000000
  0.017400000  -40.916234   54.720818  -89.744628   47.522388    0.000000    0.000000    0.000000    0.000000
  0.017600000  -40.894565   54.561897  -89.907535   41.841171    0.000000    0.000000    0.000000    0.000000
  0.017800000  -40.745029   54.739563  -89.632153   42.352863    0.000000    0.000000    0.000000    0.000000
  0.018000000  -40.455779   54.698833  -90.178912   43.307541    0.000000    0.000000    0.000000    0.000000
  0.018200000  -40.502760   55.565102  -89.522053   43.377594    0.000000    0.000000    0.000000    0.000000
  0.018400000  -40.295095   56.013794  -90.280005   40.794838    0.000000    0.000000    0.000000    0.000000
  0.018600000  -40.298218   55.147808  -89.908843   42.251884    0.000000    0.000000    0.000000    0.000000
  0.018800000  -40.165737   56.751907  -90.678379   35.503109    0.000000    0.000000    0.000000    0.000000
  0.019000000  -40.053179   57.127808  -90.422233   43.977215    0.000000    0.000000    0.000000    0.000000
  0.019200000  -39.920476   57.353767  -90.634437   40.567108    0.000000    0.000000    0.000000    0.000000
  0.019400000  -39.863839   58.729984  -90.288774   41.799313    0.000000    0.000000    0.000000    0.000000
  0.019600000  -39.965828   59.193111  -90.768898   42.840504    0.000000    0.000000    0.000000    0.000000
  0.019800000  -40.035130   59.310181  -90.976252   40.643471    0.000000    0.000000    0.000000    0.000000
  0.020000000  -39.978992   59.842915  -90.547021   43.207638    0.000000    0.000000    0.000000    0.000000
  0.020200000  -40.135002   60.128845  -91.579862   37.727375    0.000000    0.000000    0.000000    0.000000
  0.020400000  -40.059020   58.802357  -90.968850   41.579659    0.000000    0.000000    0.000000    0.000000
  0.020600000  -40.073811   60.060707  -91.440408   34.465588    0.000000    0.000000    0.000000    0.000000
  0.020800000  -40.029035   59.797417  -91.446274   30.936668    0.000000    0.000000    0.000000    0.000000
  0.021000000  -40.190457   58.739162  -91.719207   39.489075    0.000000    0.000000    0.000000    0.000000
  0.021200000  -40.120300   58.695400  -91.680930   38.884384    0.000000    0.000000    0.000000    0.000000
  0.021400000  -40.117197   58.926964  -91.805894   40.813545    0.000000    0.000000    0.000000    0.000000
  0.021600000  -40.097780   57.502876  -91.520772   31.859316    0.000000    0.000000    0.000000    0.000000
  0.021800000  -40.176585   57.674164  -92.484296   30.143736    0.000000    0.000000    0.000000    0.000000
  0.022000000  -40.170445   56.543980  -92.296925   35.178867    0.000000    0.000000    0.000000    0.000000
  0.022200000  -40.355022   57.319576  -92.711799   31.141449    0.000000    0.000000    0.000000    0.000000
  0.022400000  -40.030743   56.814400  -92.159328   31.988686    0.000000    0.000000    0.000000    0.000000
  0.022600000  -39.926536   55.009933  -92.936905   34.727211    0.000000    0.000000    0.000000    0.000000
  0.022800000  -39.876012   55.057262  -92.654206   27.608461    0.000000    0.000000    0.000000    0.000000
  0.023000000  -39.857034   55.032978  -91.899709   27.151533    0.000000    0.000000    0.000000    0.000000
  0.023200000  -39.714926   54.470852  -92.639349   28.002382    0.000000    0.000000    0.000000    0.000000
  0.023400000  -39.617162   52.988586  -92.786107   27.857872    0.000000    0.000000    0.000000    0.000000
  0.023600000  -39.625589   53.613697  -93.158088   24.109798    0.000000    0.000000    0.000000    0.000000
  0.023800000  -39.390141   52.114346  -92.183150   31.170189    0.000000    0.000000    0.000000    0.000000
  0.024000000  -39.358352   54.013317  -92.885915   29.344446    0.000000    0.000000    0.000000    0.000000
  0.024200000  -39.144449   53.499859  -93.769157   23.553030    0.000000    0.000000    0.000000    0.000000
  0.024400000  -39.037597   53.272503  -93.799595   29.541059    0.000000    0.000000    0.000000    0.000000
  0.024600000  -38.875931   53.198677  -93.773605   21.808607    0.000000    0.000000    0.000000    0.000000
  0.024800000  -38.897021   52.972439  -94.262602   28.069084    0.000000    0.000000    0.000000    0.000000
  0.025000000  -38.712462   53.111271  -93.679160   23.065741    0.000000    0.000000    0.000000    0.000000
  0.025200000  -38.683819   52.934219  -93.165515   28.025181    0.000000    0.000000    0.000000    0.000000
  0.025400000  -38.633033   53.398853  -95.045501   28.739193    0.000000    0.000000    0.000000    0.000000
  0.025600000  -38.654859   53.243832  -94.010717   26.657246    0.000000    0.000000    0.000000    0.000000
  0.025800000  -38.627951   53.728355  -93.904550   24.645704    0.000000    0.000000    0.000000    0.000000
  0.026000000  -38.534076   53.965286  -95.126195   23.642824    0.000000    0.000000    0.000000    0.000000
  0.026200000  -38.653621   54.630604  -94.026073   23.712976    0.000000    0.000000    0.000000    0.000000
  0.026400000  -38.565563   54.333118  -94.764220   22.880766    0.000000    0.000000    0.000000    0.000000
  0.026600000  -38.582611   54.151897  -95.804065   25.091959    0.000000    0.000000    0.000000    0.000000
  0.026800000  -38.535364   54.964714  -95.152870   27.184071    0.000000    0.000000    0.000000    0.000000
  0.027000000  -38.514871   54.336178  -94.918766   24.163780    0.000000    0.000000    0.000000    0.000000
  0.027200000  -38.532603   54.713463  -94.776734   25.286201    0.000000    0.000000    0.000000    0.000000
  0.027400000  -38.638733   54.641327  -95.387825   26.251143    0.000000    0.000000    0.000000    0.000000
  0.027600000  -38.467550   53.852737  -95.144003   19.595779    0.000000    0.000000    0.000000    0.000000
  0.027800000  -38.558541   53.946449  -96.539110   30.729502    0.000000    0.000000    0.000000    0.000000
  0.028000000  -38.463881   53.096596  -95.041404   16.410990    0.000000    0.000000    0.000000    0.000000
  0.028200000  -38.623852   52.764698  -94.670539   20.076666    0.000000    0.000000    0.000000    0.000000
  0.028400000  -38.436931   53.613998  -95.140660   26.902195    0.000000    0.000000    0.000000    0.000000
  0.028600000  -38.556421   52.398701  -96.000214   18.814699    0.000000    0.000000    0.000000    0.000000
  0.028800000  -38.421631   52.077370  -95.534328   24.480247    0.000000    0.000000    0.000000    0.000000
  0.029000000  -38.619460   51.464714  -96.223582   19.055119    0.000000    0.000000    0.000000    0.000000
  0.029200000  -38.408352   50.438229  -94.998679   21.043926    0.000000    0.000000    0.000000    0.000000
  0.029400000  -38.356526   50.801414  -96.009705   18.548229    0.000000    0.000000    0.000000    0.000000
  0.029600000  -38.348665   50.086136  -96.738667   13.138098    0.000000    0.000000    0.000000    0.000000
  0.029800000  -38.252178   49.682087  -96.287226   19.939711    0.000000    0.000000    0.000000    0.000000
  0.030000000  -38.119011   48.917110  -96.224681   18.235313    0.000000    0.000000    0.000000    0.000000
  0.030200000  -38.004076   48.823105  -96.694465   12.441572    0.000000    0.000000    0.000000    0.000000
  0.030400000  -38.041268   48.654667  -96.525951   21.966841    0.000000    0.000000    0.000000    0.000000
  0.030600000  -37.895320   48.729450  -97.296233   19.492531    0.000000    0.000000    0.000000    0.000000
  0.030800000  -37.738845   48.291882  -97.078454   22.300241    0.000000    0.000000    0.000000    0.000000
  0.031000000  -37.686544   48.278252  -98.262325   12.818691    0.000000    0.000000    0.000000    0.000000
  0.031200000  -37.629231   48.390354  -98.136940   20.102242    0.000000    0.000000    0.000000    0.000000
  0.031400000  -37.470170   48.479691  -96.374583   13.382170    0.000000    0.000000    0.000000    0.000000
  0.031600000  -37.348387   48.113747  -97.331008   11.339022    0.000000    0.000000    0.000000    0.000000
  0.031800000  -37.214752   47.691196  -98.428892   12.554688    0.000000    0.000000    0.000000    0.000000
  0.032000000  -37.224592   48.543129  -97.851555   17.644424    0.000000    0.000000    0.000000    0.000000
  0.032200000  -37.198999   48.899563  -96.491986   12.339400    0.000000    0.000000    0.000000    0.000000
  0.032400000  -37.231311   49.292271  -96.520335   20.535595    0.000000    0.000000    0.000000    0.000000
  0.032600000  -37.144113   49.093502  -97.256843   12.296253    0.000000    0.000000    0.000000    0.000000
  0.032800000  -37.112919   49.849335  -98.049342    3.377264    0.000000    0.000000    0.000000    0.000000
  0.033000000  -37.040012   48.989681  -98.087769   18.775597    0.000000    0.000000    0.000000    0.000000
  0.033200000  -37.029113   49.300011  -98.404625    5.682269    0.000000    0.000000    0.000000    0.000000
  0.033400000  -37.124892   49.625725  -97.890874   20.906664    0.000000    0.000000    0.000000    0.000000
  0.033600000  -37.010943   50.114872  -98.562121    3.928303    0.000000    0.000000    0.000000    0.000000
  0.033800000  -37.195857   49.623878  -97.090235   19.193855    0.000000    0.000000    0.000000    0.000000
  0.034000000  -37.211574   49.579758  -99.385680   15.781640    0.000000    0.000000    0.000000    0.000000
  0.034200000  -37.180374   49.079857  -96.765573    6.942548    0.000000    0.000000    0.000000    0.000000
  0.034400000  -37.162766   48.608768  -99.790357    6.502211    0.000000    0.000000    0.000000    0.000000
  0.034600000  -37.202799   49.268845  -98.932558    2.566704    0.000000    0.000000    0.000000    0.000000
  0.034800000  -37.214111   48.714504  -97.442374   21.559395    0.000000    0.000000    0.000000    0.000000
  0.035000000  -37.232977   48.297367  -98.034438   10.893017    0.000000    0.000000    0.000000    0.000000
  0.035200000  -37.098143   48.097832  -97.126317    9.134315    0.000000    0.000000    0.000000    0.000000
  0.035400000  -37.090331   47.675781  -97.705151   10.611764    0.000000    0.000000    0.000000    0.000000
  0.035600000  -37.203968   47.357517  -99.551742   20.874098    0.000000    0.000000    0.000000    0.000000
  0.035800000  -37.082362   46.807304  -98.249247   20.532539    0.000000    0.000000    0.000000    0.000000
  0.036000000  -36.993674   46.373253  -97.014356   20.915892    0.000000    0.000000    0.000000    0.000000
  0.036200000  -37.018961   46.109612 -100.754944   23.161875    0.000000    0.000000    0.000000    0.000000
  0.036400000  -36.974991   45.935158  -98.364166    4.103393    0.000000    0.000000    0.000000    0.000000
  0.036600000  -36.873210   44.511837  -97.535842   14.342207    0.000000    0.000000    0.000000    0.000000
  0.036800000  -36.802240   44.548332  -99.643689   -1.474271    0.000000    0.000000    0.000000    0.000000
  0.037000000  -36.787260   43.969711  -98.621813   13.890207    0.000000    0.000000    0.000000    0.000000
  0.037200000  -36.640158   44.100952 -100.383885   14.694554    0.000000    0.000000    0.000000    0.000000
  0.037400000  -36.561128   43.382206  -98.386153    5.108218    0.000000    0.000000    0.000000    0.000000
  0.037600000  -36.579269   42.623348  -99.309620    5.921426    0.000000    0.000000    0.000000    0.000000
  0.037800000  -36.382931   42.679173 -100.030761    8.834040    0.000000    0.000000    0.000000    0.000000
  0.038000000  -36.281745   43.641308  -98.023926   11.942231    0.000000    0.000000    0.000000    0.000000
  0.038200000  -36.160288   43.192604 -100.201716   13.626353    0.000000    0.000000    0.000000    0.000000
  0.038400000  -36.161030   43.410248  -99.089689    8.803363    0.000000    0.000000    0.000000    0.000000
  0.038600000  -36.116204   43.467674  -99.948626   10.082585    0.000000    0.000000    0.000000    0.000000
  0.038800000  -36.027329   44.390446 -100.827354    1.272362    0.000000    0.000000    0.000000    0.000000
  0.039000000  -36.115252   43.344231  -99.178319   20.036175    0.000000    0.000000    0.000000    0.000000
  0.039200000  -35.963533   43.409325 -100.307782   11.967447    0.000000    0.000000    0.000000    0.000000
  0.039400000  -35.762157   44.207047 -102.848094   24.129286    0.000000    0.000000    0.000000    0.000000
  0.039600000  -35.716619   43.763535 -100.552238    9.495065    0.000000    0.000000    0.000000    0.000000
  0.039800000  -35.885823   44.211826 -100.995891    8.960815    0.000000    0.000000    0.000000    0.000000
  0.040000000  -35.756409   45.318405  -99.853347   11.407590    0.000000    0.000000    0.000000    0.000000
  0.040200000  -35.743216   44.590248 -101.315573    3.138963    0.000000    0.000000    0.000000    0.000000
  0.040400000  -35.799901   44.813145 -101.088827   16.929157    0.000000    0.000000    0.000000    0.000000
  0.040600000  -35.850009   45.532154 -100.630870   -6.867204    0.000000    0.000000    0.000000    0.000000
  0.040800000  -35.930268   44.797894 -100.627925    3.396146    0.000000    0.000000    0.000000    0.000000
  0.041000000  -35.906475   44.576660 -100.111056   13.797967    0.000000    0.000000    0.000000    0.000000
  0.041200000  -35.811228   45.093548 -100.042666   -6.729565    0.000000    0.000000    0.000000    0.000000
  0.041400000  -35.876774   44.081326 -101.255194   11.275228    0.000000    0.000000    0.000000    0.000000
  0.041600000  -36.118911   44.022434 -102.020685   12.868102    0.000000    0.000000    0.000000    0.000000
  0.041800000  -35.986317   43.141380  -98.364716   -2.030836    0.000000    0.000000    0.000000    0.000000
  0.042000000  -35.924112   42.881062  -99.916695    5.029198    0.000000    0.000000    0.000000    0.000000
  0.042200000  -35.861178   42.840229  -99.833756   14.321116    0.000000    0.000000    0.000000    0.000000
  0.042400000  -35.817273   42.933022 -100.362180    9.343288    0.000000    0.000000    0.000000    0.000000
  0.042600000  -35.893578   41.732708 -104.687133   38.271297    0.000000    0.000000    0.000000    0.000000
  0.042800000  -35.785039   41.823528 -100.936320    2.830071    0.000000    0.000000    0.000000    0.000000
