! Anritsu VNA Master:                     Model: MS2036C/10/77
! SN:                                  1601066
! /card0/usr/ns.200bohm2.s2p
! Existing Calibration Information:
! TYPE:                         Current Settings,       Active Cal Settings
! TIME:             	   12/21/2017 05:24:32 PM,    12/21/2017 05:13:10 PM
! INTERNAL TEMP:    	                   39.3 C,                    40.0 C
! # POINTS:         	                      501,                       501
! START FREQ:       	               10.000 MHz,                10.000 MHz
! STOP FREQ:        	              110.000 MHz,               110.000 MHz
! SOURCE POWER:     	                     High,                      High
! IFBW:             	                   100 Hz,                    100 Hz
! AVG FACTOR:       	                       1 ,                        1 
! REF PLANE 1:      	                     0 mm,                      0 mm
! REF PLANE 2:      	                     0 mm,                      0 mm
! CAL TYPE:         	                 Full S11,                  Full S11
! CAL METHOD:       	                     SOLT,                      SOLT
! CAL LINE TYPE:    	                     Coax,                      Coax
! DUT PORT 1:       	                K-Conn(F),                 K-Conn(F)
! DUT PORT 2:       	                K-Conn(F),                 K-Conn(F)
! CAL STATUS:       	        OK: Accuracy High,                        --
# GHZ S DB R 50.0
! FREQ.GHZ       S11DB        S11A       S21DB        S21A       S12DB        S12A       S22DB        S22A
  0.010000000   -4.536795  -10.946939  -84.789330   76.481583    0.000000    0.000000    0.000000    0.000000
  0.010200000   -4.526900  -11.136242  -84.403520   77.758354    0.000000    0.000000    0.000000    0.000000
  0.010400000   -4.526821  -11.347740  -85.010300   76.546936    0.000000    0.000000    0.000000    0.000000
  0.010600000   -4.525673  -11.600392  -85.253299   77.521141    0.000000    0.000000    0.000000    0.000000
  0.010800000   -4.526312  -11.780473  -84.931905   78.893936    0.000000    0.000000    0.000000    0.000000
  0.011000000   -4.529261  -12.014838  -85.559886   78.859650    0.000000    0.000000    0.000000    0.000000
  0.011200000   -4.529654  -12.223882  -85.148418   76.890114    0.000000    0.000000    0.000000    0.000000
  0.011400000   -4.532948  -12.458787  -84.948287   75.157516    0.000000    0.000000    0.000000    0.000000
  0.011600000   -4.527792  -12.691521  -85.014184   76.089668    0.000000    0.000000    0.000000    0.000000
  0.011800000   -4.532447  -12.903190  -84.948886   74.194221    0.000000    0.000000    0.000000    0.000000
  0.012000000   -4.534580  -13.135086  -84.868902   71.002403    0.000000    0.000000    0.000000    0.000000
  0.012200000   -4.539256  -13.372392  -85.247244   72.369232    0.000000    0.000000    0.000000    0.000000
  0.012400000   -4.537156  -13.592211  -85.404413   69.520966    0.000000    0.000000    0.000000    0.000000
  0.012600000   -4.541573  -13.842011  -85.357336   71.380035    0.000000    0.000000    0.000000    0.000000
  0.012800000   -4.540797  -14.052650  -84.855610   69.101738    0.000000    0.000000    0.000000    0.000000
  0.013000000   -4.545464  -14.269680  -85.053994   67.382668    0.000000    0.000000    0.000000    0.000000
  0.013200000   -4.544629  -14.485465  -85.157602   63.280991    0.000000    0.000000    0.000000    0.000000
  0.013400000   -4.547630  -14.722459  -85.397624   60.165436    0.000000    0.000000    0.000000    0.000000
  0.013600000   -4.548389  -14.923188  -85.850325   60.063202    0.000000    0.000000    0.000000    0.000000
  0.013800000   -4.551022  -15.182308  -85.920210   60.591061    0.000000    0.000000    0.000000    0.000000
  0.014000000   -4.551597  -15.387168  -86.062142   57.007717    0.000000    0.000000    0.000000    0.000000
  0.014200000   -4.550110  -15.637783  -86.214055   58.054783    0.000000    0.000000    0.000000    0.000000
  0.014400000   -4.553399  -15.858546  -86.657900   56.493217    0.000000    0.000000    0.000000    0.000000
  0.014600000   -4.553008  -16.086319  -86.903200   52.528477    0.000000    0.000000    0.000000    0.000000
  0.014800000   -4.553958  -16.324488  -86.802304   50.512630    0.000000    0.000000    0.000000    0.000000
  0.015000000   -4.556220  -16.533657  -87.274554   47.778488    0.000000    0.000000    0.000000    0.000000
  0.015200000   -4.557063  -16.752377  -87.485129   47.369652    0.000000    0.000000    0.000000    0.000000
  0.015400000   -4.558148  -17.009542  -87.442160   45.983524    0.000000    0.000000    0.000000    0.000000
  0.015600000   -4.561829  -17.181675  -88.651142   44.120255    0.000000    0.000000    0.000000    0.000000
  0.015800000   -4.559827  -17.459225  -88.713531   47.891056    0.000000    0.000000    0.000000    0.000000
  0.016000000   -4.560550  -17.681301  -89.024256   44.123322    0.000000    0.000000    0.000000    0.000000
  0.016200000   -4.559655  -17.891188  -89.266066   44.370689    0.000000    0.000000    0.000000    0.000000
  0.016400000   -4.561960  -18.105221  -90.051445   48.992016    0.000000    0.000000    0.000000    0.000000
  0.016600000   -4.562015  -18.330023  -89.440323   44.109978    0.000000    0.000000    0.000000    0.000000
  0.016800000   -4.560181  -18.544909  -89.338960   43.411682    0.000000    0.000000    0.000000    0.000000
  0.017000000   -4.557361  -18.767380  -90.616177   47.087296    0.000000    0.000000    0.000000    0.000000
  0.017200000   -4.552126  -18.999355  -90.795947   49.173374    0.000000    0.000000    0.000000    0.000000
  0.017400000   -4.552529  -19.200174  -90.448233   44.227257    0.000000    0.000000    0.000000    0.000000
  0.017600000   -4.552632  -19.451458  -90.391098   47.436775    0.000000    0.000000    0.000000    0.000000
  0.017800000   -4.550219  -19.645514  -90.011076   46.252247    0.000000    0.000000    0.000000    0.000000
  0.018000000   -4.553766  -19.852961  -90.303102   47.814201    0.000000    0.000000    0.000000    0.000000
  0.018200000   -4.554200  -20.068497  -91.300014   47.241081    0.000000    0.000000    0.000000    0.000000
  0.018400000   -4.558814  -20.294954  -90.812210   46.758018    0.000000    0.000000    0.000000    0.000000
  0.018600000   -4.557726  -20.519178  -90.930038   50.203518    0.000000    0.000000    0.000000    0.000000
  0.018800000   -4.558208  -20.743765  -89.826616   43.624836    0.000000    0.000000    0.000000    0.000000
  0.019000000   -4.556449  -20.965734  -90.093003   44.899254    0.000000    0.000000    0.000000    0.000000
  0.019200000   -4.558473  -21.172392  -90.834281   46.265453    0.000000    0.000000    0.000000    0.000000
  0.019400000   -4.561549  -21.403370  -90.042583   42.129288    0.000000    0.000000    0.000000    0.000000
  0.019600000   -4.562569  -21.638773  -90.272437   40.669655    0.000000    0.000000    0.000000    0.000000
  0.019800000   -4.566459  -21.845453  -90.589987   44.193146    0.000000    0.000000    0.000000    0.000000
  0.020000000   -4.562510  -22.071505  -91.091169   46.030579    0.000000    0.000000    0.000000    0.000000
  0.020200000   -4.560561  -22.314848  -89.671614   38.643841    0.000000    0.000000    0.000000    0.000000
  0.020400000   -4.565533  -22.532557  -90.947068   44.618660    0.000000    0.000000    0.000000    0.000000
  0.020600000   -4.562391  -22.747644  -90.350326   38.220776    0.000000    0.000000    0.000000    0.000000
  0.020800000   -4.564940  -22.980829  -90.765935   35.660908    0.000000    0.000000    0.000000    0.000000
  0.021000000   -4.565351  -23.231066  -91.875141   38.822319    0.000000    0.000000    0.000000    0.000000
  0.021200000   -4.566446  -23.468649  -91.621989   33.472988    0.000000    0.000000    0.000000    0.000000
  0.021400000   -4.568494  -23.714561  -91.895220   33.067886    0.000000    0.000000    0.000000    0.000000
  0.021600000   -4.569725  -23.918026  -92.261263   35.052311    0.000000    0.000000    0.000000    0.000000
  0.021800000   -4.570992  -24.148119  -91.986429   30.812603    0.000000    0.000000    0.000000    0.000000
  0.022000000   -4.569972  -24.361107  -92.444482   34.464073    0.000000    0.000000    0.000000    0.000000
  0.022200000   -4.573198  -24.588709  -93.137421   27.582096    0.000000    0.000000    0.000000    0.000000
  0.022400000   -4.570160  -24.811462  -93.196540   29.874731    0.000000    0.000000    0.000000    0.000000
  0.022600000   -4.569821  -25.036249  -92.405303   24.696539    0.000000    0.000000    0.000000    0.000000
  0.022800000   -4.574887  -25.257444  -93.230683   25.846298    0.000000    0.000000    0.000000    0.000000
  0.023000000   -4.574895  -25.498655  -93.089557   31.708891    0.000000    0.000000    0.000000    0.000000
  0.023200000   -4.574106  -25.720699  -94.252732   30.585192    0.000000    0.000000    0.000000    0.000000
  0.023400000   -4.575423  -25.929476  -93.192343   33.744423    0.000000    0.000000    0.000000    0.000000
  0.023600000   -4.574873  -26.142698  -93.280523   35.263767    0.000000    0.000000    0.000000    0.000000
  0.023800000   -4.571268  -26.392084  -94.422557   29.582987    0.000000    0.000000    0.000000    0.000000
  0.024000000   -4.567724  -26.602423  -93.579884   29.317081    0.000000    0.000000    0.000000    0.000000
  0.024200000   -4.564651  -26.827682  -93.930948   29.372976    0.000000    0.000000    0.000000    0.000000
  0.024400000   -4.566796  -27.055679  -94.255537   23.402508    0.000000    0.000000    0.000000    0.000000
  0.024600000   -4.567603  -27.293444  -93.380488   29.048450    0.000000    0.000000    0.000000    0.000000
  0.024800000   -4.567798  -27.502663  -94.282088   31.188515    0.000000    0.000000    0.000000    0.000000
  0.025000000   -4.569443  -27.718733  -94.106045   26.079369    0.000000    0.000000    0.000000    0.000000
  0.025200000   -4.569603  -27.929028  -93.480252   29.198359    0.000000    0.000000    0.000000    0.000000
  0.025400000   -4.572338  -28.110441  -94.742236   24.110617    0.000000    0.000000    0.000000    0.000000
  0.025600000   -4.574451  -28.315296  -94.802432   23.944511    0.000000    0.000000    0.000000    0.000000
  0.025800000   -4.577071  -28.495075  -94.214346   24.713825    0.000000    0.000000    0.000000    0.000000
  0.026000000   -4.578520  -28.689852  -93.879238   25.557003    0.000000    0.000000    0.000000    0.000000
  0.026200000   -4.582245  -28.913971  -95.096458   24.108549    0.000000    0.000000    0.000000    0.000000
  0.026400000   -4.589292  -29.142521  -93.563641   24.797512    0.000000    0.000000    0.000000    0.000000
  0.026600000   -4.588451  -29.364405  -94.790836   26.257307    0.000000    0.000000    0.000000    0.000000
  0.026800000   -4.590251  -29.595394  -94.641932   22.149113    0.000000    0.000000    0.000000    0.000000
  0.027000000   -4.591407  -29.833426  -94.330901   26.755077    0.000000    0.000000    0.000000    0.000000
  0.027200000   -4.591389  -30.077944  -93.961870   20.483585    0.000000    0.000000    0.000000    0.000000
  0.027400000   -4.592916  -30.320576  -95.431192   23.115658    0.000000    0.000000    0.000000    0.000000
  0.027600000   -4.598100  -30.570240  -95.335954   19.639233    0.000000    0.000000    0.000000    0.000000
  0.027800000   -4.600890  -30.798719  -97.205169    6.205351    0.000000    0.000000    0.000000    0.000000
  0.028000000   -4.601848  -31.059694  -95.672496   19.481501    0.000000    0.000000    0.000000    0.000000
  0.028200000   -4.598198  -31.328466  -96.480607   19.096100    0.000000    0.000000    0.000000    0.000000
  0.028400000   -4.598628  -31.568649  -95.526582   24.280207    0.000000    0.000000    0.000000    0.000000
  0.028600000   -4.593713  -31.780300  -96.224222   26.884777    0.000000    0.000000    0.000000    0.000000
  0.028800000   -4.593553  -31.973484  -96.669677   22.842405    0.000000    0.000000    0.000000    0.000000
  0.029000000   -4.592675  -32.205452  -96.591551   23.358030    0.000000    0.000000    0.000000    0.000000
  0.029200000   -4.592142  -32.379879  -97.244830   16.674828    0.000000    0.000000    0.000000    0.000000
  0.029400000   -4.595796  -32.586803  -97.440217   22.193840    0.000000    0.000000    0.000000    0.000000
  0.029600000   -4.599321  -32.802158  -96.759890   19.385981    0.000000    0.000000    0.000000    0.000000
  0.029800000   -4.601806  -33.037891  -97.346923   25.290033    0.000000    0.000000    0.000000    0.000000
  0.030000000   -4.611548  -33.247433  -97.247444   15.313757    0.000000    0.000000    0.000000    0.000000
  0.030200000   -4.615678  -33.503681  -97.243499   15.474294    0.000000    0.000000    0.000000    0.000000
  0.030400000   -4.617931  -33.761215  -96.978695   20.697115    0.000000    0.000000    0.000000    0.000000
  0.030600000   -4.617545  -34.027786  -96.637969   20.618166    0.000000    0.000000    0.000000    0.000000
  0.030800000   -4.614080  -34.300320  -96.600825   16.013388    0.000000    0.000000    0.000000    0.000000
  0.031000000   -4.610595  -34.578159  -95.701862   20.923254    0.000000    0.000000    0.000000    0.000000
  0.031200000   -4.602999  -34.808289  -96.763685   33.274162    0.000000    0.000000    0.000000    0.000000
  0.031400000   -4.605756  -35.052418  -97.752413   27.296116    0.000000    0.000000    0.000000    0.000000
  0.031600000   -4.601214  -35.293652  -96.195186   18.410501    0.000000    0.000000    0.000000    0.000000
  0.031800000   -4.597908  -35.492996  -97.944869   13.337433    0.000000    0.000000    0.000000    0.000000
  0.032000000   -4.588183  -35.741486  -97.206593   11.771106    0.000000    0.000000    0.000000    0.000000
  0.032200000   -4.583345  -35.936649  -96.165369   29.239819    0.000000    0.000000    0.000000    0.000000
  0.032400000   -4.576774  -36.108829  -98.196708   26.037933    0.000000    0.000000    0.000000    0.000000
  0.032600000   -4.573778  -36.319595  -97.386859   15.034516    0.000000    0.000000    0.000000    0.000000
  0.032800000   -4.569999  -36.504040  -96.629961   12.778043    0.000000    0.000000    0.000000    0.000000
  0.033000000   -4.571197  -36.666664  -96.711454   24.174484    0.000000    0.000000    0.000000    0.000000
  0.033200000   -4.569230  -36.910873  -99.550642    8.275647    0.000000    0.000000    0.000000    0.000000
  0.033400000   -4.571238  -37.095341  -97.843050    9.149718    0.000000    0.000000    0.000000    0.000000
  0.033600000   -4.576296  -37.307133  -96.540022   18.948528    0.000000    0.000000    0.000000    0.000000
  0.033800000   -4.574059  -37.516941  -98.297760   18.088169    0.000000    0.000000    0.000000    0.000000
  0.034000000   -4.575473  -37.739239  -96.722189    2.525590    0.000000    0.000000    0.000000    0.000000
  0.034200000   -4.579853  -37.951202  -98.138054    2.960835    0.000000    0.000000    0.000000    0.000000
  0.034400000   -4.581353  -38.165974  -97.201203    1.636893    0.000000    0.000000    0.000000    0.000000
  0.034600000   -4.586033  -38.423859  -99.011139   17.692244    0.000000    0.000000    0.000000    0.000000
  0.034800000   -4.593642  -38.657681  -97.255488    9.210532    0.000000    0.000000    0.000000    0.000000
  0.035000000   -4.595784  -38.913174  -99.930860   19.537235    0.000000    0.000000    0.000000    0.000000
  0.035200000   -4.601635  -39.133171 -100.198721    8.814090    0.000000    0.000000    0.000000    0.000000
  0.035400000   -4.601432  -39.379799  -98.864066   17.556187    0.000000    0.000000    0.000000    0.000000
  0.035600000   -4.598527  -39.612785  -98.072702   -1.080767    0.000000    0.000000    0.000000    0.000000
  0.035800000   -4.598985  -39.834759 -100.571256   10.418932    0.000000    0.000000    0.000000    0.000000
  0.036000000   -4.593572  -40.083485  -98.857243   23.623093    0.000000    0.000000    0.000000    0.000000
  0.036200000   -4.591977  -40.338375  -98.583748   -3.050442    0.000000    0.000000    0.000000    0.000000
  0.036400000   -4.590321  -40.565121  -97.753789   -4.177854    0.000000    0.000000    0.000000    0.000000
  0.036600000   -4.583755  -40.774750 -100.479345   -2.524654    0.000000    0.000000    0.000000    0.000000
  0.036800000   -4.579564  -40.962814 -101.590637   10.276320    0.000000    0.000000    0.000000    0.000000
  0.037000000   -4.579372  -41.135738  -98.343365    5.489120    0.000000    0.000000    0.000000    0.000000
  0.037200000   -4.577989  -41.320812 -100.872220    7.943876    0.000000    0.000000    0.000000    0.000000
  0.037400000   -4.582901  -41.533531  -98.980884   13.917262    0.000000    0.000000    0.000000    0.000000
  0.037600000   -4.587829  -41.747398  -99.364487    8.188604    0.000000    0.000000    0.000000    0.000000
  0.037800000   -4.596492  -41.973373  -99.374957   16.453039    0.000000    0.000000    0.000000    0.000000
  0.038000000   -4.604413  -42.225433 -100.183560   11.727926    0.000000    0.000000    0.000000    0.000000
  0.038200000   -4.611736  -42.461174  -99.505103   30.027891    0.000000    0.000000    0.000000    0.000000
  0.038400000   -4.613080  -42.717617 -100.650388   10.171318    0.000000    0.000000    0.000000    0.000000
  0.038600000   -4.618363  -43.018227  -98.122821    9.358024    0.000000    0.000000    0.000000    0.000000
  0.038800000   -4.619553  -43.282619  -98.500763    5.896586    0.000000    0.000000    0.000000    0.000000
  0.039000000   -4.619041  -43.514843 -100.686198   13.013083    0.000000    0.000000    0.000000    0.000000
  0.039200000   -4.615015  -43.799976  -98.899128   21.806423    0.000000    0.000000    0.000000    0.000000
  0.039400000   -4.602359  -44.029358  -99.667792    0.998399    0.000000    0.000000    0.000000    0.000000
  0.039600000   -4.604977  -44.280300 -100.209575    2.228978    0.000000    0.000000    0.000000    0.000000
  0.039800000   -4.597700  -44.480186 -101.581528   11.255779    0.000000    0.000000    0.000000    0.000000
  0.040000000   -4.589886  -44.721054 -100.380393    6.708228    0.000000    0.000000    0.000000    0.000000
  0.040200000   -4.587862  -44.904221  -99.576473    9.090880    0.000000    0.000000    0.000000    0.000000
  0.040400000   -4.587760  -45.090279 -100.964907   14.699827    0.000000    0.000000    0.000000    0.000000
  0.040600000   -4.586545  -45.276024 -100.561443   -6.436800    0.000000    0.000000    0.000000    0.000000
  0.040800000   -4.586123  -45.487316 -101.163431    3.548779    0.000000    0.000000    0.000000    0.000000
  0.041000000   -4.593076  -45.686329 -100.329904   12.805155    0.000000    0.000000    0.000000    0.000000
  0.041200000   -4.594480  -45.905323 -100.781715    6.936186    0.000000    0.000000    0.000000    0.000000
  0.041400000   -4.597478  -46.117794  -98.644023   17.762943    0.000000    0.000000    0.000000    0.000000
  0.041600000   -4.602290  -46.356041 -102.967253   22.353771    0.000000    0.000000    0.000000    0.000000
  0.041800000   -4.603330  -46.589958 -104.501832    8.899486    0.000000    0.000000    0.000000    0.000000
  0.042000000   -4.608470  -46.816341 -102.246941    6.889852    0.000000    0.000000    0.000000    0.000000
  0.042200000   -4.605791  -47.032848  -99.988525   -3.728164    0.000000    0.000000    0.000000    0.000000
  0.042400000   -4.609680  -47.260395 -101.762724   16.246506    0.000000    0.000000    0.000000    0.000000
  0.042600000   -4.611033  -47.477936 -100.567540   11.055271    0.000000    0.000000    0.000000    0.000000
  0.042800000   -4.607269  -47.671246 -103.497779  -20.484644    0.000000    0.000000    0.000000    0.000000
