! Anritsu VNA Master:                     Model: MS2036C/10/77
! SN:                                  1601066
! /bd0/18may26.balun/4a.66.s2p
! Existing Calibration Information:
! TYPE:                         Current Settings,       Active Cal Settings
! TIME:             	   05/26/2018 03:03:01 PM,    05/26/2018 02:51:55 PM
! INTERNAL TEMP:    	                   59.5 C,                    59.5 C
! # POINTS:         	                      500,                       500
! START FREQ:       	               20.000 MHz,                20.000 MHz
! STOP FREQ:        	              120.000 MHz,               120.000 MHz
! SOURCE POWER:     	                     High,                      High
! IFBW:             	                    50 Hz,                     50 Hz
! AVG FACTOR:       	                       1 ,                        1 
! REF PLANE 1:      	                     0 mm,                      0 mm
! REF PLANE 2:      	                     0 mm,                      0 mm
! CAL TYPE:         	                 Full S11,                  Full S11
! CAL METHOD:       	                     SOLT,                      SOLT
! CAL LINE TYPE:    	                     Coax,                      Coax
! DUT PORT 1:       	                K-Conn(M),                 K-Conn(M)
! DUT PORT 2:       	                K-Conn(M),                 K-Conn(M)
! CAL STATUS:       	        OK: Accuracy High,                        --
# GHZ S DB R 50.0
! FREQ.GHZ       S11DB        S11A       S21DB        S21A       S12DB        S12A       S22DB        S22A
  0.020000000   -0.048887  -68.339340  -90.824977   34.244541    0.000000    0.000000    0.000000    0.000000
  0.020200401   -0.044761  -69.005173  -90.555015   31.907051    0.000000    0.000000    0.000000    0.000000
  0.020400802   -0.041656  -69.646332  -90.814154   31.804390    0.000000    0.000000    0.000000    0.000000
  0.020601202   -0.041156  -70.276260  -90.915723   29.549526    0.000000    0.000000    0.000000    0.000000
  0.020801603   -0.038393  -70.919655  -91.473399   26.413166    0.000000    0.000000    0.000000    0.000000
  0.021002004   -0.037978  -71.572456  -91.681976   26.718267    0.000000    0.000000    0.000000    0.000000
  0.021202405   -0.040777  -72.196045  -92.148847   27.371281    0.000000    0.000000    0.000000    0.000000
  0.021402806   -0.042484  -72.838699  -92.465160   21.840555    0.000000    0.000000    0.000000    0.000000
  0.021603206   -0.046293  -73.466934  -92.882906   19.653963    0.000000    0.000000    0.000000    0.000000
  0.021803607   -0.051335  -74.084648  -93.463230   26.949492    0.000000    0.000000    0.000000    0.000000
  0.022004008   -0.053777  -74.686455  -93.372445   25.627192    0.000000    0.000000    0.000000    0.000000
  0.022204409   -0.056327  -75.321739  -93.428478   27.530146    0.000000    0.000000    0.000000    0.000000
  0.022404810   -0.056075  -75.982887  -93.598325   27.073923    0.000000    0.000000    0.000000    0.000000
  0.022605210   -0.059150  -76.638428  -94.402619   24.263403    0.000000    0.000000    0.000000    0.000000
  0.022805611   -0.058394  -77.272690  -94.297980   28.482304    0.000000    0.000000    0.000000    0.000000
  0.023006012   -0.048978  -77.914253  -93.649430   31.174852    0.000000    0.000000    0.000000    0.000000
  0.023206413   -0.041733  -78.570747  -93.246014   29.496267    0.000000    0.000000    0.000000    0.000000
  0.023406814   -0.034583  -79.220894  -93.479188   34.938759    0.000000    0.000000    0.000000    0.000000
  0.023607214   -0.033898  -79.846512  -93.930668   32.530907    0.000000    0.000000    0.000000    0.000000
  0.023807615   -0.032550  -80.457092  -93.526890   31.548120    0.000000    0.000000    0.000000    0.000000
  0.024008016   -0.039938  -81.042297  -93.814694   30.998512    0.000000    0.000000    0.000000    0.000000
  0.024208417   -0.046231  -81.632057  -92.845392   31.350739    0.000000    0.000000    0.000000    0.000000
  0.024408818   -0.051834  -82.181740  -93.394820   30.334923    0.000000    0.000000    0.000000    0.000000
  0.024609218   -0.056663  -82.779495  -93.320246   26.742661    0.000000    0.000000    0.000000    0.000000
  0.024809619   -0.062330  -83.396072  -93.624689   21.352457    0.000000    0.000000    0.000000    0.000000
  0.025010020   -0.066034  -84.052811  -93.668773   21.873039    0.000000    0.000000    0.000000    0.000000
  0.025210421   -0.070629  -84.711372  -94.411703   24.825497    0.000000    0.000000    0.000000    0.000000
  0.025410822   -0.072737  -85.373070  -94.259171   17.833883    0.000000    0.000000    0.000000    0.000000
  0.025611222   -0.070411  -86.043213  -94.098171   16.016169    0.000000    0.000000    0.000000    0.000000
  0.025811623   -0.068406  -86.683784  -94.765245   18.238699    0.000000    0.000000    0.000000    0.000000
  0.026012024   -0.063575  -87.295876  -95.166326   16.579611    0.000000    0.000000    0.000000    0.000000
  0.026212425   -0.061026  -87.898636  -95.445211   19.948610    0.000000    0.000000    0.000000    0.000000
  0.026412826   -0.060785  -88.486908  -95.612127   17.282297    0.000000    0.000000    0.000000    0.000000
  0.026613226   -0.066954  -89.074829  -95.367754   19.262873    0.000000    0.000000    0.000000    0.000000
  0.026813627   -0.074280  -89.638855  -95.325249   13.926642    0.000000    0.000000    0.000000    0.000000
  0.027014028   -0.079614  -90.181084  -95.498980   15.724017    0.000000    0.000000    0.000000    0.000000
  0.027214429   -0.089618  -90.739372  -95.473274   16.161320    0.000000    0.000000    0.000000    0.000000
  0.027414830   -0.101214  -91.363686  -96.341247   20.051109    0.000000    0.000000    0.000000    0.000000
  0.027615230   -0.104919  -92.028938  -96.483872   21.647743    0.000000    0.000000    0.000000    0.000000
  0.027815631   -0.109121  -92.700371  -96.529204   15.072788    0.000000    0.000000    0.000000    0.000000
  0.028016032   -0.105336  -93.383385  -96.331231   20.245377    0.000000    0.000000    0.000000    0.000000
  0.028216433   -0.097164  -94.069229  -97.553538   23.792601    0.000000    0.000000    0.000000    0.000000
  0.028416834   -0.089257  -94.737511  -95.685100   22.256380    0.000000    0.000000    0.000000    0.000000
  0.028617234   -0.080611  -95.377922  -95.611742   17.290451    0.000000    0.000000    0.000000    0.000000
  0.028817635   -0.071949  -95.993309  -95.894586   16.913939    0.000000    0.000000    0.000000    0.000000
  0.029018036   -0.063086  -96.562218  -96.662031   16.460979    0.000000    0.000000    0.000000    0.000000
  0.029218437   -0.055716  -97.107430  -95.788999   18.231243    0.000000    0.000000    0.000000    0.000000
  0.029418838   -0.051243  -97.623932  -96.520535   16.408209    0.000000    0.000000    0.000000    0.000000
  0.029619238   -0.048468  -98.150803  -95.464717   19.088684    0.000000    0.000000    0.000000    0.000000
  0.029819639   -0.050108  -98.670517  -96.545386   21.531351    0.000000    0.000000    0.000000    0.000000
  0.030020040   -0.055927  -99.219337  -96.563634   13.014688    0.000000    0.000000    0.000000    0.000000
  0.030220441   -0.063550  -99.773369  -95.656173    9.307580    0.000000    0.000000    0.000000    0.000000
  0.030420842   -0.075285 -100.377304  -96.961471   13.170006    0.000000    0.000000    0.000000    0.000000
  0.030621242   -0.085101 -101.012573  -96.366731   12.181461    0.000000    0.000000    0.000000    0.000000
  0.030821643   -0.085359 -101.647049  -98.349974    8.138673    0.000000    0.000000    0.000000    0.000000
  0.031022044   -0.086337 -102.272797  -97.794331   12.295884    0.000000    0.000000    0.000000    0.000000
  0.031222445   -0.081059 -102.869072  -97.662524   11.886025    0.000000    0.000000    0.000000    0.000000
  0.031422846   -0.083193 -103.464302  -97.236416   11.517440    0.000000    0.000000    0.000000    0.000000
  0.031623246   -0.081184 -104.025558  -97.250877   11.988736    0.000000    0.000000    0.000000    0.000000
  0.031823647   -0.078645 -104.571480  -99.034110    1.627684    0.000000    0.000000    0.000000    0.000000
  0.032024048   -0.080039 -105.064842  -97.660911   13.016309    0.000000    0.000000    0.000000    0.000000
  0.032224449   -0.085743 -105.563042  -98.401071    9.239414    0.000000    0.000000    0.000000    0.000000
  0.032424850   -0.094766 -106.083626  -97.860240   11.098303    0.000000    0.000000    0.000000    0.000000
  0.032625251   -0.107260 -106.643456  -97.929302   15.547802    0.000000    0.000000    0.000000    0.000000
  0.032825651   -0.116548 -107.212357  -97.983301   12.914862    0.000000    0.000000    0.000000    0.000000
  0.033026052   -0.124491 -107.828926  -97.690237   20.450129    0.000000    0.000000    0.000000    0.000000
  0.033226453   -0.126097 -108.440697  -97.755455   21.268551    0.000000    0.000000    0.000000    0.000000
  0.033426854   -0.127669 -109.067490  -97.724997   12.794080    0.000000    0.000000    0.000000    0.000000
  0.033627255   -0.130063 -109.692581  -98.342434   11.313925    0.000000    0.000000    0.000000    0.000000
  0.033827655   -0.130410 -110.363228  -98.732591   14.066987    0.000000    0.000000    0.000000    0.000000
  0.034028056   -0.129225 -110.984383  -98.875236   12.778429    0.000000    0.000000    0.000000    0.000000
  0.034228457   -0.125069 -111.610825  -97.777141    5.896682    0.000000    0.000000    0.000000    0.000000
  0.034428858   -0.115961 -112.233620  -99.202258   10.083818    0.000000    0.000000    0.000000    0.000000
  0.034629259   -0.107431 -112.793320  -98.454715    8.539469    0.000000    0.000000    0.000000    0.000000
  0.034829659   -0.098405 -113.342117  -98.323142    6.319332    0.000000    0.000000    0.000000    0.000000
  0.035030060   -0.094322 -113.873337  -98.823310   10.894102    0.000000    0.000000    0.000000    0.000000
  0.035230461   -0.089493 -114.395493 -100.278474    2.195536    0.000000    0.000000    0.000000    0.000000
  0.035430862   -0.092648 -114.921921 -100.791714    9.728731    0.000000    0.000000    0.000000    0.000000
  0.035631263   -0.097618 -115.445595  -99.404060   -2.875533    0.000000    0.000000    0.000000    0.000000
  0.035831663   -0.103848 -115.980698 -101.312373    0.921098    0.000000    0.000000    0.000000    0.000000
  0.036032064   -0.111949 -116.552231 -101.064658   -2.432223    0.000000    0.000000    0.000000    0.000000
  0.036232465   -0.121644 -117.148987 -100.934352    3.031419    0.000000    0.000000    0.000000    0.000000
  0.036432866   -0.127842 -117.773018 -100.123123    2.783144    0.000000    0.000000    0.000000    0.000000
  0.036633267   -0.130700 -118.386452 -100.838689   13.149974    0.000000    0.000000    0.000000    0.000000
  0.036833667   -0.126812 -118.968697  -99.711920   13.031574    0.000000    0.000000    0.000000    0.000000
  0.037034068   -0.118460 -119.523132  -99.200047    9.143455    0.000000    0.000000    0.000000    0.000000
  0.037234469   -0.110527 -120.030304  -99.140915    5.054083    0.000000    0.000000    0.000000    0.000000
  0.037434870   -0.103996 -120.486214 -100.666022   20.752188    0.000000    0.000000    0.000000    0.000000
  0.037635271   -0.103954 -120.935837  -99.647744   13.706992    0.000000    0.000000    0.000000    0.000000
  0.037835671   -0.108317 -121.425232  -99.552279   13.400741    0.000000    0.000000    0.000000    0.000000
  0.038036072   -0.118018 -121.930054 -100.019557    1.295209    0.000000    0.000000    0.000000    0.000000
  0.038236473   -0.127852 -122.474785  -99.728968    9.370071    0.000000    0.000000    0.000000    0.000000
  0.038436874   -0.131387 -123.001915 -100.003191   11.388731    0.000000    0.000000    0.000000    0.000000
  0.038637275   -0.136369 -123.535103  -98.450274    3.933506    0.000000    0.000000    0.000000    0.000000
  0.038837675   -0.142049 -124.095154  -99.341231    9.659198    0.000000    0.000000    0.000000    0.000000
  0.039038076   -0.148693 -124.683067  -98.931533    4.721596    0.000000    0.000000    0.000000    0.000000
  0.039238477   -0.154598 -125.278877 -101.056500    1.027303    0.000000    0.000000    0.000000    0.000000
  0.039438878   -0.155355 -125.861794 -100.453327    7.653973    0.000000    0.000000    0.000000    0.000000
  0.039639279   -0.155436 -126.450027  -99.711161    4.973840    0.000000    0.000000    0.000000    0.000000
  0.039839679   -0.150750 -127.016190 -100.528121    0.474911    0.000000    0.000000    0.000000    0.000000
  0.040040080   -0.144823 -127.557114 -100.761090  -12.666836    0.000000    0.000000    0.000000    0.000000
  0.040240481   -0.141207 -128.095215 -101.042386   16.687078    0.000000    0.000000    0.000000    0.000000
  0.040440882   -0.138439 -128.657547 -101.355872    4.860382    0.000000    0.000000    0.000000    0.000000
  0.040641283   -0.136482 -129.186264 -101.123319   -9.391121    0.000000    0.000000    0.000000    0.000000
  0.040841683   -0.133197 -129.724030 -100.561813   -0.925510    0.000000    0.000000    0.000000    0.000000
  0.041042084   -0.135970 -130.246552 -100.806646    7.063971    0.000000    0.000000    0.000000    0.000000
  0.041242485   -0.143193 -130.727188 -100.513484  -11.231504    0.000000    0.000000    0.000000    0.000000
  0.041442886   -0.153179 -131.245575 -102.220889    9.409167    0.000000    0.000000    0.000000    0.000000
  0.041643287   -0.165033 -131.803375 -103.930819    0.952077    0.000000    0.000000    0.000000    0.000000
  0.041843687   -0.169446 -132.398621 -102.304563   12.236510    0.000000    0.000000    0.000000    0.000000
  0.042044088   -0.168131 -132.964630 -100.507535   12.245031    0.000000    0.000000    0.000000    0.000000
  0.042244489   -0.157292 -133.524902  -99.818694   15.417316    0.000000    0.000000    0.000000    0.000000
  0.042444890   -0.149681 -134.038483 -100.841333   23.333735    0.000000    0.000000    0.000000    0.000000
  0.042645291   -0.141237 -134.501450  -99.955046   19.973927    0.000000    0.000000    0.000000    0.000000
  0.042845691   -0.141152 -134.963562 -101.876523   12.749409    0.000000    0.000000    0.000000    0.000000
  0.043046092   -0.142616 -135.427750 -100.181335    6.881158    0.000000    0.000000    0.000000    0.000000
  0.043246493   -0.146944 -135.897858  -99.767712    7.224445    0.000000    0.000000    0.000000    0.000000
  0.043446894   -0.149657 -136.404449  -99.991119   10.903971    0.000000    0.000000    0.000000    0.000000
  0.043647295   -0.153470 -136.860382 -101.618710   -0.019482    0.000000    0.000000    0.000000    0.000000
  0.043847695   -0.158436 -137.361481 -102.450234    6.599216    0.000000    0.000000    0.000000    0.000000
  0.044048096   -0.163883 -137.864243 -100.059875    4.596615    0.000000    0.000000    0.000000    0.000000
  0.044248497   -0.170419 -138.389511 -100.598639   -3.363253    0.000000    0.000000    0.000000    0.000000
  0.044448898   -0.174870 -138.930710 -101.434309    3.530138    0.000000    0.000000    0.000000    0.000000
  0.044649299   -0.176452 -139.483139 -100.985154   -1.511348    0.000000    0.000000    0.000000    0.000000
  0.044849699   -0.176707 -139.988144 -102.043092   -6.956898    0.000000    0.000000    0.000000    0.000000
  0.045050100   -0.178583 -140.505524 -101.755218   -8.041649    0.000000    0.000000    0.000000    0.000000
  0.045250501   -0.178271 -141.014572 -103.099151   -5.881527    0.000000    0.000000    0.000000    0.000000
  0.045450902   -0.179126 -141.551346 -102.152638    0.596506    0.000000    0.000000    0.000000    0.000000
  0.045651303   -0.176918 -142.088272 -102.813830    5.580070    0.000000    0.000000    0.000000    0.000000
  0.045851703   -0.174214 -142.628632 -104.739965    0.185901    0.000000    0.000000    0.000000    0.000000
  0.046052104   -0.172020 -143.152100 -103.768157    9.383743    0.000000    0.000000    0.000000    0.000000
  0.046252505   -0.169057 -143.659195 -104.682076    8.535511    0.000000    0.000000    0.000000    0.000000
  0.046452906   -0.172826 -144.127594 -103.596279    8.519497    0.000000    0.000000    0.000000    0.000000
  0.046653307   -0.178732 -144.620087 -103.628420   11.715320    0.000000    0.000000    0.000000    0.000000
  0.046853707   -0.186836 -145.132477 -103.145937   19.941809    0.000000    0.000000    0.000000    0.000000
  0.047054108   -0.191913 -145.667282 -101.361025   21.477167    0.000000    0.000000    0.000000    0.000000
  0.047254509   -0.193513 -146.230591 -101.686245   10.236944    0.000000    0.000000    0.000000    0.000000
  0.047454910   -0.187203 -146.745407 -103.169877    4.782845    0.000000    0.000000    0.000000    0.000000
  0.047655311   -0.182541 -147.246170 -101.223232   13.554592    0.000000    0.000000    0.000000    0.000000
  0.047855711   -0.179119 -147.703461 -101.344510    4.570513    0.000000    0.000000    0.000000    0.000000
  0.048056112   -0.175484 -148.167694 -102.611946    5.968107    0.000000    0.000000    0.000000    0.000000
  0.048256513   -0.175788 -148.632355 -101.711312    3.940711    0.000000    0.000000    0.000000    0.000000
  0.048456914   -0.176094 -149.097610 -101.725680   16.213888    0.000000    0.000000    0.000000    0.000000
  0.048657315   -0.175309 -149.546539 -101.582798   -1.114145    0.000000    0.000000    0.000000    0.000000
  0.048857715   -0.180423 -149.993118 -101.153039    1.861794    0.000000    0.000000    0.000000    0.000000
  0.049058116   -0.185019 -150.444855 -100.574709   -2.740816    0.000000    0.000000    0.000000    0.000000
  0.049258517   -0.191884 -150.926636 -100.217353   -5.022578    0.000000    0.000000    0.000000    0.000000
  0.049458918   -0.196246 -151.407516 -100.719318  -15.135004    0.000000    0.000000    0.000000    0.000000
  0.049659319   -0.198636 -151.917007 -104.329794   -6.763692    0.000000    0.000000    0.000000    0.000000
  0.049859719   -0.200372 -152.410507 -103.391703   -2.538627    0.000000    0.000000    0.000000    0.000000
  0.050060120   -0.198770 -152.880417 -103.188738   -5.084287    0.000000    0.000000    0.000000    0.000000
  0.050260521   -0.202506 -153.349121 -102.985064   -9.035689    0.000000    0.000000    0.000000    0.000000
  0.050460922   -0.205821 -153.840988 -102.646411   -1.506302    0.000000    0.000000    0.000000    0.000000
  0.050661323   -0.206334 -154.352402 -103.923156  -20.508987    0.000000    0.000000    0.000000    0.000000
  0.050861723   -0.207129 -154.889145 -106.602328    4.968111    0.000000    0.000000    0.000000    0.000000
  0.051062124   -0.204918 -155.394302 -104.706061    6.166917    0.000000    0.000000    0.000000    0.000000
  0.051262525   -0.203778 -155.881241 -106.043674    4.206723    0.000000    0.000000    0.000000    0.000000
  0.051462926   -0.203955 -156.383865 -107.263590   23.775438    0.000000    0.000000    0.000000    0.000000
  0.051663327   -0.204470 -156.849167 -105.882036    5.818447    0.000000    0.000000    0.000000    0.000000
  0.051863727   -0.209525 -157.327316 -103.284073    6.320653    0.000000    0.000000    0.000000    0.000000
  0.052064128   -0.213500 -157.810257 -104.999446   33.612869    0.000000    0.000000    0.000000    0.000000
  0.052264529   -0.216629 -158.286926 -104.906652    8.639934    0.000000    0.000000    0.000000    0.000000
  0.052464930   -0.216271 -158.799286 -102.492835   -0.023857    0.000000    0.000000    0.000000    0.000000
  0.052665331   -0.214474 -159.294571 -101.481214   12.976812    0.000000    0.000000    0.000000    0.000000
  0.052865731   -0.212445 -159.769043 -102.988563    4.335583    0.000000    0.000000    0.000000    0.000000
