! Anritsu VNA Master:                     Model: MS2036C/10/77
! SN:                                  1601066
! /bd0/18may26.balun/4a.me2.s2p
! Existing Calibration Information:
! TYPE:                         Current Settings,       Active Cal Settings
! TIME:             	   05/26/2018 03:12:58 PM,    05/26/2018 02:51:55 PM
! INTERNAL TEMP:    	                   59.5 C,                    59.5 C
! # POINTS:         	                      500,                       500
! START FREQ:       	               20.000 MHz,                20.000 MHz
! STOP FREQ:        	              120.000 MHz,               120.000 MHz
! SOURCE POWER:     	                     High,                      High
! IFBW:             	                    50 Hz,                     50 Hz
! AVG FACTOR:       	                       1 ,                        1 
! REF PLANE 1:      	                     0 mm,                      0 mm
! REF PLANE 2:      	                     0 mm,                      0 mm
! CAL TYPE:         	                 Full S11,                  Full S11
! CAL METHOD:       	                     SOLT,                      SOLT
! CAL LINE TYPE:    	                     Coax,                      Coax
! DUT PORT 1:       	                K-Conn(M),                 K-Conn(M)
! DUT PORT 2:       	                K-Conn(M),                 K-Conn(M)
! CAL STATUS:       	        OK: Accuracy High,                        --
# GHZ S DB R 50.0
! FREQ.GHZ       S11DB        S11A       S21DB        S21A       S12DB        S12A       S22DB        S22A
  0.020000000   -0.656857 -126.400055  -91.686148   30.444431    0.000000    0.000000    0.000000    0.000000
  0.020200401   -0.654660 -127.912613  -91.307277   27.898422    0.000000    0.000000    0.000000    0.000000
  0.020400802   -0.651551 -129.383804  -91.574589   22.526119    0.000000    0.000000    0.000000    0.000000
  0.020601202   -0.652425 -130.842682  -92.229240   23.619537    0.000000    0.000000    0.000000    0.000000
  0.020801603   -0.656041 -132.332550  -92.073506   26.919151    0.000000    0.000000    0.000000    0.000000
  0.021002004   -0.663130 -133.867401  -92.231329   24.430870    0.000000    0.000000    0.000000    0.000000
  0.021202405   -0.669666 -135.397446  -93.109417   29.576885    0.000000    0.000000    0.000000    0.000000
  0.021402806   -0.674322 -136.950012  -93.221661   29.332052    0.000000    0.000000    0.000000    0.000000
  0.021603206   -0.679641 -138.501053  -93.570298   33.506557    0.000000    0.000000    0.000000    0.000000
  0.021803607   -0.686245 -140.060059  -93.466170   31.359032    0.000000    0.000000    0.000000    0.000000
  0.022004008   -0.692727 -141.618698  -93.398033   35.968964    0.000000    0.000000    0.000000    0.000000
  0.022204409   -0.693126 -143.230499  -93.267857   35.088871    0.000000    0.000000    0.000000    0.000000
  0.022404810   -0.694572 -144.839661  -92.691994   35.146118    0.000000    0.000000    0.000000    0.000000
  0.022605210   -0.697554 -146.432571  -93.081590   33.473961    0.000000    0.000000    0.000000    0.000000
  0.022805611   -0.700645 -148.008575  -92.538521   28.761438    0.000000    0.000000    0.000000    0.000000
  0.023006012   -0.699713 -149.580414  -93.557492   34.375057    0.000000    0.000000    0.000000    0.000000
  0.023206413   -0.707258 -151.186951  -92.911943   30.441666    0.000000    0.000000    0.000000    0.000000
  0.023406814   -0.713500 -152.812271  -92.832887   27.615330    0.000000    0.000000    0.000000    0.000000
  0.023607214   -0.721264 -154.445923  -92.687180   26.830580    0.000000    0.000000    0.000000    0.000000
  0.023807615   -0.728550 -156.080063  -92.779817   23.274998    0.000000    0.000000    0.000000    0.000000
  0.024008016   -0.737931 -157.695953  -93.312789   19.518154    0.000000    0.000000    0.000000    0.000000
  0.024208417   -0.748126 -159.337036  -93.893731   20.167162    0.000000    0.000000    0.000000    0.000000
  0.024408818   -0.758886 -160.963974  -93.282727   16.724291    0.000000    0.000000    0.000000    0.000000
  0.024609218   -0.770883 -162.639435  -93.902816   18.537901    0.000000    0.000000    0.000000    0.000000
  0.024809619   -0.777968 -164.332184  -94.012978   19.425673    0.000000    0.000000    0.000000    0.000000
  0.025010020   -0.783732 -166.015762  -94.060356   19.429117    0.000000    0.000000    0.000000    0.000000
  0.025210421   -0.793775 -167.705612  -94.580195   16.873293    0.000000    0.000000    0.000000    0.000000
  0.025410822   -0.803257 -169.392960  -95.062097   17.417110    0.000000    0.000000    0.000000    0.000000
  0.025611222   -0.812088 -171.096329  -95.125731   18.654865    0.000000    0.000000    0.000000    0.000000
  0.025811623   -0.823986 -172.794922  -95.521070   25.137812    0.000000    0.000000    0.000000    0.000000
  0.026012024   -0.836547 -174.532059  -95.203919   17.601986    0.000000    0.000000    0.000000    0.000000
  0.026212425   -0.850559 -176.270981  -96.136429   27.967867    0.000000    0.000000    0.000000    0.000000
  0.026412826   -0.866331 -178.012222  -96.335870   24.294273    0.000000    0.000000    0.000000    0.000000
  0.026613226   -0.884271 -179.787903  -96.016766   20.468180    0.000000    0.000000    0.000000    0.000000
  0.026813627   -0.900236  178.434448  -95.799688   26.790342    0.000000    0.000000    0.000000    0.000000
  0.027014028   -0.914009  176.671783  -95.084231   24.735806    0.000000    0.000000    0.000000    0.000000
  0.027214429   -0.929644  174.897659  -95.641274   23.139496    0.000000    0.000000    0.000000    0.000000
  0.027414830   -0.942596  173.117111  -95.321811   18.425825    0.000000    0.000000    0.000000    0.000000
  0.027615230   -0.959974  171.332947  -95.119199   18.210569    0.000000    0.000000    0.000000    0.000000
  0.027815631   -0.979334  169.515030  -95.213545   23.812284    0.000000    0.000000    0.000000    0.000000
  0.028016032   -0.998016  167.684402  -95.931056   13.601586    0.000000    0.000000    0.000000    0.000000
  0.028216433   -1.017102  165.831650  -95.921523   15.435863    0.000000    0.000000    0.000000    0.000000
  0.028416834   -1.037555  163.984024  -96.311405   18.956444    0.000000    0.000000    0.000000    0.000000
  0.028617234   -1.059533  162.142075  -95.693953    9.975981    0.000000    0.000000    0.000000    0.000000
  0.028817635   -1.082879  160.271484  -95.783402   20.383900    0.000000    0.000000    0.000000    0.000000
  0.029018036   -1.106115  158.389389  -96.662000   13.709128    0.000000    0.000000    0.000000    0.000000
  0.029218437   -1.129764  156.477127  -96.399022   15.990707    0.000000    0.000000    0.000000    0.000000
  0.029418838   -1.152037  154.569107  -96.529871   15.506944    0.000000    0.000000    0.000000    0.000000
  0.029619238   -1.172457  152.692520  -97.316736   10.472326    0.000000    0.000000    0.000000    0.000000
  0.029819639   -1.194831  150.807831  -97.183824   14.064540    0.000000    0.000000    0.000000    0.000000
  0.030020040   -1.218636  148.914291  -97.518646   18.422232    0.000000    0.000000    0.000000    0.000000
  0.030220441   -1.244786  147.025391  -97.383563   12.905194    0.000000    0.000000    0.000000    0.000000
  0.030420842   -1.276755  145.138184  -96.879081   21.660275    0.000000    0.000000    0.000000    0.000000
  0.030621242   -1.314733  143.200623  -97.533518   22.626804    0.000000    0.000000    0.000000    0.000000
  0.030821643   -1.349176  141.219238  -97.967531   19.322615    0.000000    0.000000    0.000000    0.000000
  0.031022044   -1.382538  139.209885  -98.260738   18.992249    0.000000    0.000000    0.000000    0.000000
  0.031222445   -1.409757  137.169235  -97.860448   17.728624    0.000000    0.000000    0.000000    0.000000
  0.031422846   -1.437147  135.131409  -97.596906   10.673628    0.000000    0.000000    0.000000    0.000000
  0.031623246   -1.463490  133.109406  -96.081327   15.593704    0.000000    0.000000    0.000000    0.000000
  0.031823647   -1.485141  131.109528  -98.367080   16.635216    0.000000    0.000000    0.000000    0.000000
  0.032024048   -1.507014  129.094437  -97.718629   10.497559    0.000000    0.000000    0.000000    0.000000
  0.032224449   -1.531219  127.113083  -97.063463   19.270206    0.000000    0.000000    0.000000    0.000000
  0.032424850   -1.558825  125.161102  -98.333760    8.263536    0.000000    0.000000    0.000000    0.000000
  0.032625251   -1.592927  123.175629  -96.990481   10.519419    0.000000    0.000000    0.000000    0.000000
  0.032825651   -1.629964  121.203453  -97.504834   15.468915    0.000000    0.000000    0.000000    0.000000
  0.033026052   -1.670746  119.235306  -97.421899   16.899422    0.000000    0.000000    0.000000    0.000000
  0.033226453   -1.713413  117.229858  -97.720364    6.155204    0.000000    0.000000    0.000000    0.000000
  0.033426854   -1.759805  115.210114  -97.325787   11.079384    0.000000    0.000000    0.000000    0.000000
  0.033627255   -1.803555  113.174301  -97.805059   12.916829    0.000000    0.000000    0.000000    0.000000
  0.033827655   -1.847102  111.075546  -97.894734   12.997158    0.000000    0.000000    0.000000    0.000000
  0.034028056   -1.889659  109.011360  -99.660470    4.691403    0.000000    0.000000    0.000000    0.000000
  0.034228457   -1.934086  106.906288  -98.954433   -0.023958    0.000000    0.000000    0.000000    0.000000
  0.034428858   -1.978098  104.836311  -99.003864   16.524260    0.000000    0.000000    0.000000    0.000000
  0.034629259   -2.017928  102.755730  -99.724408   -3.107161    0.000000    0.000000    0.000000    0.000000
  0.034829659   -2.054852  100.692032  -99.078773    9.072020    0.000000    0.000000    0.000000    0.000000
  0.035030060   -2.087488   98.670326  -98.944747    7.837791    0.000000    0.000000    0.000000    0.000000
  0.035230461   -2.131247   96.676422 -100.310005    8.808475    0.000000    0.000000    0.000000    0.000000
  0.035430862   -2.175538   94.660080  -98.122369   11.100464    0.000000    0.000000    0.000000    0.000000
  0.035631263   -2.230926   92.638855 -100.192219   15.580783    0.000000    0.000000    0.000000    0.000000
  0.035831663   -2.290120   90.575958  -97.626281   11.800007    0.000000    0.000000    0.000000    0.000000
  0.036032064   -2.346539   88.479073  -99.531221   17.293674    0.000000    0.000000    0.000000    0.000000
  0.036232465   -2.402786   86.308601  -98.186698    6.996212    0.000000    0.000000    0.000000    0.000000
  0.036432866   -2.457895   84.150871  -99.133918    5.360530    0.000000    0.000000    0.000000    0.000000
  0.036633267   -2.506990   81.950203  -99.456191    9.042087    0.000000    0.000000    0.000000    0.000000
  0.036833667   -2.554862   79.752083  -98.789074    8.306059    0.000000    0.000000    0.000000    0.000000
  0.037034068   -2.595975   77.586807  -99.408738    4.508225    0.000000    0.000000    0.000000    0.000000
  0.037234469   -2.635659   75.440819  -99.232946    5.148485    0.000000    0.000000    0.000000    0.000000
  0.037434870   -2.674077   73.300591  -98.826350   10.895871    0.000000    0.000000    0.000000    0.000000
  0.037635271   -2.713094   71.197395 -101.142252   11.769913    0.000000    0.000000    0.000000    0.000000
  0.037835671   -2.760676   69.044830  -99.626355   -2.137208    0.000000    0.000000    0.000000    0.000000
  0.038036072   -2.814824   66.950844 -100.886289   11.931098    0.000000    0.000000    0.000000    0.000000
  0.038236473   -2.870908   64.929749 -101.705517    0.364203    0.000000    0.000000    0.000000    0.000000
  0.038436874   -2.926795   62.868946 -100.724651    9.697665    0.000000    0.000000    0.000000    0.000000
  0.038637275   -2.987224   60.835785 -100.683396    5.303335    0.000000    0.000000    0.000000    0.000000
  0.038837675   -3.046217   58.752125 -101.776554    3.791267    0.000000    0.000000    0.000000    0.000000
  0.039038076   -3.106010   56.635815 -101.876941   12.882551    0.000000    0.000000    0.000000    0.000000
  0.039238477   -3.158080   54.494019 -100.231269    1.370374    0.000000    0.000000    0.000000    0.000000
  0.039438878   -3.202701   52.357231 -100.519668    4.406735    0.000000    0.000000    0.000000    0.000000
  0.039639279   -3.244864   50.294117 -101.511112    3.284608    0.000000    0.000000    0.000000    0.000000
  0.039839679   -3.285702   48.270229 -100.746654    4.059552    0.000000    0.000000    0.000000    0.000000
  0.040040080   -3.326243   46.244076  -99.690758    7.774136    0.000000    0.000000    0.000000    0.000000
  0.040240481   -3.376534   44.267761 -101.534254    0.287020    0.000000    0.000000    0.000000    0.000000
  0.040440882   -3.429848   42.274666 -100.362011   10.503620    0.000000    0.000000    0.000000    0.000000
  0.040641283   -3.486378   40.255745 -100.949002   10.320395    0.000000    0.000000    0.000000    0.000000
  0.040841683   -3.544851   38.218334 -100.771121   -4.849833    0.000000    0.000000    0.000000    0.000000
  0.041042084   -3.601845   36.178570 -100.363897    7.211210    0.000000    0.000000    0.000000    0.000000
  0.041242485   -3.657176   34.113472 -101.614649    1.916051    0.000000    0.000000    0.000000    0.000000
  0.041442886   -3.711976   32.052677 -100.219857    1.603353    0.000000    0.000000    0.000000    0.000000
  0.041643287   -3.763814   29.965740  -99.874627   -3.606144    0.000000    0.000000    0.000000    0.000000
  0.041843687   -3.816970   27.877247 -100.434496    2.045864    0.000000    0.000000    0.000000    0.000000
  0.042044088   -3.863350   25.786526 -101.213606   -2.828466    0.000000    0.000000    0.000000    0.000000
  0.042244489   -3.909654   23.716038 -104.109717    3.910381    0.000000    0.000000    0.000000    0.000000
  0.042444890   -3.953562   21.678413 -102.241533   -5.607772    0.000000    0.000000    0.000000    0.000000
  0.042645291   -3.996849   19.632915 -102.699859    0.805450    0.000000    0.000000    0.000000    0.000000
  0.042845691   -4.041238   17.591877 -101.114120    9.161445    0.000000    0.000000    0.000000    0.000000
  0.043046092   -4.081186   15.559620 -101.420790    0.376186    0.000000    0.000000    0.000000    0.000000
  0.043246493   -4.121993   13.532791 -101.184882    6.496184    0.000000    0.000000    0.000000    0.000000
  0.043446894   -4.161548   11.538646 -103.568554    3.801166    0.000000    0.000000    0.000000    0.000000
  0.043647295   -4.201692    9.544602 -103.481268   13.219208    0.000000    0.000000    0.000000    0.000000
  0.043847695   -4.241527    7.564276 -103.922431   13.183905    0.000000    0.000000    0.000000    0.000000
  0.044048096   -4.279681    5.631192 -102.842735   17.354555    0.000000    0.000000    0.000000    0.000000
  0.044248497   -4.316438    3.688831 -101.366062   -0.374135    0.000000    0.000000    0.000000    0.000000
  0.044448898   -4.351341    1.750203 -103.351175   17.926399    0.000000    0.000000    0.000000    0.000000
  0.044649299   -4.382033   -0.158026 -102.205242    7.145283    0.000000    0.000000    0.000000    0.000000
  0.044849699   -4.420340   -2.024458 -102.283383    3.488994    0.000000    0.000000    0.000000    0.000000
  0.045050100   -4.458766   -3.861377 -101.332915    3.909646    0.000000    0.000000    0.000000    0.000000
  0.045250501   -4.498511   -5.698621 -100.883975    5.602085    0.000000    0.000000    0.000000    0.000000
  0.045450902   -4.535981   -7.539731 -101.659769    2.761013    0.000000    0.000000    0.000000    0.000000
  0.045651303   -4.570345   -9.402697 -101.108258    7.268714    0.000000    0.000000    0.000000    0.000000
  0.045851703   -4.607592  -11.244308 -100.965665    8.566690    0.000000    0.000000    0.000000    0.000000
  0.046052104   -4.642453  -13.085897 -102.968959    7.889721    0.000000    0.000000    0.000000    0.000000
  0.046252505   -4.676677  -14.936647 -102.081827   -2.977613    0.000000    0.000000    0.000000    0.000000
  0.046452906   -4.714029  -16.777262 -102.933145   -5.118441    0.000000    0.000000    0.000000    0.000000
  0.046653307   -4.749536  -18.594004 -101.714920   -7.939127    0.000000    0.000000    0.000000    0.000000
  0.046853707   -4.786315  -20.418505 -102.867151    5.706097    0.000000    0.000000    0.000000    0.000000
  0.047054108   -4.823050  -22.271999 -102.811678    1.173007    0.000000    0.000000    0.000000    0.000000
  0.047254509   -4.861244  -24.117062 -103.754008   12.132173    0.000000    0.000000    0.000000    0.000000
  0.047454910   -4.890140  -25.944498 -102.707535   13.648594    0.000000    0.000000    0.000000    0.000000
  0.047655311   -4.925037  -27.783127 -105.424495  -12.090281    0.000000    0.000000    0.000000    0.000000
  0.047855711   -4.952655  -29.610947 -103.961531   -5.883160    0.000000    0.000000    0.000000    0.000000
  0.048056112   -4.980293  -31.453642 -103.319483   11.533372    0.000000    0.000000    0.000000    0.000000
  0.048256513   -5.007581  -33.272690 -105.504316   -4.499987    0.000000    0.000000    0.000000    0.000000
  0.048456914   -5.028692  -35.086147 -103.081762   27.194513    0.000000    0.000000    0.000000    0.000000
  0.048657315   -5.045950  -36.899151 -100.932548    5.125108    0.000000    0.000000    0.000000    0.000000
  0.048857715   -5.062235  -38.679810 -103.704511    5.770094    0.000000    0.000000    0.000000    0.000000
  0.049058116   -5.077863  -40.409313 -102.581128    7.295663    0.000000    0.000000    0.000000    0.000000
  0.049258517   -5.091492  -42.089832 -103.288847    3.697384    0.000000    0.000000    0.000000    0.000000
  0.049458918   -5.107582  -43.735203 -101.848950   17.070274    0.000000    0.000000    0.000000    0.000000
  0.049659319   -5.123282  -45.397678 -102.144901    3.127945    0.000000    0.000000    0.000000    0.000000
  0.049859719   -5.145377  -47.050880 -101.941275   17.294769    0.000000    0.000000    0.000000    0.000000
  0.050060120   -5.164052  -48.690475 -101.652992   -4.547699    0.000000    0.000000    0.000000    0.000000
  0.050260521   -5.185349  -50.319836 -101.989754    2.323453    0.000000    0.000000    0.000000    0.000000
  0.050460922   -5.205163  -51.948891 -101.367820    8.244555    0.000000    0.000000    0.000000    0.000000
  0.050661323   -5.221107  -53.571747 -103.419752  -10.964293    0.000000    0.000000    0.000000    0.000000
  0.050861723   -5.237926  -55.230095 -100.937862    5.781911    0.000000    0.000000    0.000000    0.000000
  0.051062124   -5.252631  -56.833668 -103.650319  -14.355369    0.000000    0.000000    0.000000    0.000000
  0.051262525   -5.267938  -58.435917 -101.082897   -5.987176    0.000000    0.000000    0.000000    0.000000
  0.051462926   -5.282137  -60.027138 -104.188165  -26.199228    0.000000    0.000000    0.000000    0.000000
  0.051663327   -5.295235  -61.585236 -101.851258  -16.889084    0.000000    0.000000    0.000000    0.000000
  0.051863727   -5.314918  -63.112621 -104.714191   14.595327    0.000000    0.000000    0.000000    0.000000
  0.052064128   -5.334680  -64.688080 -105.392384   -9.627906    0.000000    0.000000    0.000000    0.000000
  0.052264529   -5.352985  -66.223877 -105.903488   -0.712346    0.000000    0.000000    0.000000    0.000000
  0.052464930   -5.369761  -67.788193 -104.958636   14.698034    0.000000    0.000000    0.000000    0.000000
  0.052665331   -5.387046  -69.367920 -105.676854    7.230278    0.000000    0.000000    0.000000    0.000000
  0.052865731   -5.402466  -70.926262 -103.612538    7.906442    0.000000    0.000000    0.000000    0.000000
