! Anritsu VNA Master:                     Model: MS2036C/10/77
! SN:                                  1601066
! /bd0/18may26.balun/4a.r20.2.s2p
! Existing Calibration Information:
! TYPE:                         Current Settings,       Active Cal Settings
! TIME:             	   05/26/2018 03:22:31 PM,    05/26/2018 02:51:55 PM
! INTERNAL TEMP:    	                   59.5 C,                    59.5 C
! # POINTS:         	                      500,                       500
! START FREQ:       	               20.000 MHz,                20.000 MHz
! STOP FREQ:        	              120.000 MHz,               120.000 MHz
! SOURCE POWER:     	                     High,                      High
! IFBW:             	                    50 Hz,                     50 Hz
! AVG FACTOR:       	                       1 ,                        1 
! REF PLANE 1:      	                     0 mm,                      0 mm
! REF PLANE 2:      	                     0 mm,                      0 mm
! CAL TYPE:         	                 Full S11,                  Full S11
! CAL METHOD:       	                     SOLT,                      SOLT
! CAL LINE TYPE:    	                     Coax,                      Coax
! DUT PORT 1:       	                K-Conn(M),                 K-Conn(M)
! DUT PORT 2:       	                K-Conn(M),                 K-Conn(M)
! CAL STATUS:       	        OK: Accuracy High,                        --
# GHZ S DB R 50.0
! FREQ.GHZ       S11DB        S11A       S21DB        S21A       S12DB        S12A       S22DB        S22A
  0.020000000   -7.286459  154.610641  -92.318939   34.847191    0.000000    0.000000    0.000000    0.000000
  0.020200401   -7.287680  154.351166  -91.839842   34.640724    0.000000    0.000000    0.000000    0.000000
  0.020400802   -7.288908  154.104141  -91.746315   30.738306    0.000000    0.000000    0.000000    0.000000
  0.020601202   -7.286152  153.826767  -92.277796   35.697342    0.000000    0.000000    0.000000    0.000000
  0.020801603   -7.285612  153.568863  -92.516025   36.336147    0.000000    0.000000    0.000000    0.000000
  0.021002004   -7.278778  153.305939  -92.496274   34.332916    0.000000    0.000000    0.000000    0.000000
  0.021202405   -7.280806  153.034195  -92.044070   31.752962    0.000000    0.000000    0.000000    0.000000
  0.021402806   -7.281087  152.795151  -92.331405   33.683430    0.000000    0.000000    0.000000    0.000000
  0.021603206   -7.284257  152.537766  -92.202639   34.102894    0.000000    0.000000    0.000000    0.000000
  0.021803607   -7.284616  152.297272  -92.534538   31.512741    0.000000    0.000000    0.000000    0.000000
  0.022004008   -7.291448  152.034485  -92.943986   32.458515    0.000000    0.000000    0.000000    0.000000
  0.022204409   -7.288753  151.794113  -91.691461   35.072128    0.000000    0.000000    0.000000    0.000000
  0.022404810   -7.286848  151.533340  -92.490544   32.514137    0.000000    0.000000    0.000000    0.000000
  0.022605210   -7.290378  151.309708  -92.718423   31.455265    0.000000    0.000000    0.000000    0.000000
  0.022805611   -7.292422  151.029160  -92.761541   32.776638    0.000000    0.000000    0.000000    0.000000
  0.023006012   -7.290231  150.807251  -92.678509   29.411440    0.000000    0.000000    0.000000    0.000000
  0.023206413   -7.289481  150.530121  -92.386844   29.256084    0.000000    0.000000    0.000000    0.000000
  0.023406814   -7.285409  150.250748  -92.465815   30.241158    0.000000    0.000000    0.000000    0.000000
  0.023607214   -7.285013  149.960831  -93.422669   26.728449    0.000000    0.000000    0.000000    0.000000
  0.023807615   -7.284085  149.708694  -93.614384   29.147877    0.000000    0.000000    0.000000    0.000000
  0.024008016   -7.284221  149.457336  -93.991951   18.377430    0.000000    0.000000    0.000000    0.000000
  0.024208417   -7.281831  149.225433  -94.256862   24.457579    0.000000    0.000000    0.000000    0.000000
  0.024408818   -7.286365  148.984528  -93.907037   20.637997    0.000000    0.000000    0.000000    0.000000
  0.024609218   -7.289708  148.770935  -93.575054   18.899803    0.000000    0.000000    0.000000    0.000000
  0.024809619   -7.289324  148.529465  -94.136683   23.739325    0.000000    0.000000    0.000000    0.000000
  0.025010020   -7.288677  148.303238  -93.573506   19.051413    0.000000    0.000000    0.000000    0.000000
  0.025210421   -7.292700  148.042923  -94.425425   19.669722    0.000000    0.000000    0.000000    0.000000
  0.025410822   -7.295089  147.756439  -94.174120   23.576321    0.000000    0.000000    0.000000    0.000000
  0.025611222   -7.296703  147.500336  -94.703899   26.481215    0.000000    0.000000    0.000000    0.000000
  0.025811623   -7.291402  147.223816  -95.814138   26.564417    0.000000    0.000000    0.000000    0.000000
  0.026012024   -7.286737  146.951508  -95.615653   23.081047    0.000000    0.000000    0.000000    0.000000
  0.026212425   -7.283300  146.680450  -95.203698   27.158173    0.000000    0.000000    0.000000    0.000000
  0.026412826   -7.280375  146.414505  -95.696268   24.248325    0.000000    0.000000    0.000000    0.000000
  0.026613226   -7.276165  146.172394  -95.473961   18.668629    0.000000    0.000000    0.000000    0.000000
  0.026813627   -7.275429  145.944412  -95.572291   24.865509    0.000000    0.000000    0.000000    0.000000
  0.027014028   -7.273636  145.730835  -95.417616   20.723265    0.000000    0.000000    0.000000    0.000000
  0.027214429   -7.276781  145.559647  -95.842452   18.541601    0.000000    0.000000    0.000000    0.000000
  0.027414830   -7.273965  145.357529  -94.737589   20.349014    0.000000    0.000000    0.000000    0.000000
  0.027615230   -7.277434  145.162796  -95.387234   20.150579    0.000000    0.000000    0.000000    0.000000
  0.027815631   -7.282865  144.914200  -95.529556   17.400087    0.000000    0.000000    0.000000    0.000000
  0.028016032   -7.286194  144.653412  -95.922337   15.659857    0.000000    0.000000    0.000000    0.000000
  0.028216433   -7.288875  144.388107  -96.118772   17.114555    0.000000    0.000000    0.000000    0.000000
  0.028416834   -7.290633  144.101440  -96.140004   20.078207    0.000000    0.000000    0.000000    0.000000
  0.028617234   -7.293553  143.839264  -97.004557   21.342262    0.000000    0.000000    0.000000    0.000000
  0.028817635   -7.293062  143.544464  -97.510464   13.412174    0.000000    0.000000    0.000000    0.000000
  0.029018036   -7.295714  143.269531  -96.182886   16.449862    0.000000    0.000000    0.000000    0.000000
  0.029218437   -7.294333  143.000366  -96.309893   17.323715    0.000000    0.000000    0.000000    0.000000
  0.029418838   -7.292822  142.747818  -96.745512   14.641772    0.000000    0.000000    0.000000    0.000000
  0.029619238   -7.287166  142.519318  -97.408058   15.132453    0.000000    0.000000    0.000000    0.000000
  0.029819639   -7.285100  142.294754  -97.669324   14.796505    0.000000    0.000000    0.000000    0.000000
  0.030020040   -7.283486  142.089462  -97.417155    9.898473    0.000000    0.000000    0.000000    0.000000
  0.030220441   -7.283499  141.865814  -97.612677   10.123601    0.000000    0.000000    0.000000    0.000000
  0.030420842   -7.287753  141.663467  -97.810373    9.444665    0.000000    0.000000    0.000000    0.000000
  0.030621242   -7.295165  141.418991  -97.746806   17.130606    0.000000    0.000000    0.000000    0.000000
  0.030821643   -7.297708  141.136932  -96.695161   19.587446    0.000000    0.000000    0.000000    0.000000
  0.031022044   -7.298704  140.836731  -97.662770   17.358351    0.000000    0.000000    0.000000    0.000000
  0.031222445   -7.289344  140.574173  -97.317131    5.162404    0.000000    0.000000    0.000000    0.000000
  0.031422846   -7.290604  140.277390  -98.254092   10.883442    0.000000    0.000000    0.000000    0.000000
  0.031623246   -7.289865  139.981277  -97.465113   15.400977    0.000000    0.000000    0.000000    0.000000
  0.031823647   -7.283307  139.734222  -98.814879   20.938423    0.000000    0.000000    0.000000    0.000000
  0.032024048   -7.277754  139.476105  -97.898497   14.285078    0.000000    0.000000    0.000000    0.000000
  0.032224449   -7.270344  139.204849  -99.143671   10.477755    0.000000    0.000000    0.000000    0.000000
  0.032424850   -7.259453  139.026718  -97.616300   13.004189    0.000000    0.000000    0.000000    0.000000
  0.032625251   -7.253654  138.783279  -97.554704   15.408186    0.000000    0.000000    0.000000    0.000000
  0.032825651   -7.250908  138.580658  -98.261902    8.760886    0.000000    0.000000    0.000000    0.000000
  0.033026052   -7.250913  138.372192  -97.881481    6.999446    0.000000    0.000000    0.000000    0.000000
  0.033226453   -7.252890  138.158478  -97.650418    5.446421    0.000000    0.000000    0.000000    0.000000
  0.033426854   -7.259693  137.928406  -97.288287   12.335196    0.000000    0.000000    0.000000    0.000000
  0.033627255   -7.264828  137.704147  -98.266879   15.177335    0.000000    0.000000    0.000000    0.000000
  0.033827655   -7.268865  137.431747  -98.934297    8.558105    0.000000    0.000000    0.000000    0.000000
  0.034028056   -7.275471  137.165176  -98.029911   10.416769    0.000000    0.000000    0.000000    0.000000
  0.034228457   -7.279051  136.884338  -98.596730    6.410994    0.000000    0.000000    0.000000    0.000000
  0.034428858   -7.285757  136.640839  -98.494259   12.356095    0.000000    0.000000    0.000000    0.000000
  0.034629259   -7.287382  136.372452  -99.886159    2.193999    0.000000    0.000000    0.000000    0.000000
  0.034829659   -7.285612  136.110703  -97.791532    8.729005    0.000000    0.000000    0.000000    0.000000
  0.035030060   -7.278215  135.858078  -99.272687    9.004612    0.000000    0.000000    0.000000    0.000000
  0.035230461   -7.276672  135.597778 -100.415004   -2.289972    0.000000    0.000000    0.000000    0.000000
  0.035430862   -7.266880  135.351501  -98.645228    8.598103    0.000000    0.000000    0.000000    0.000000
  0.035631263   -7.264544  135.119019  -99.102914    6.840455    0.000000    0.000000    0.000000    0.000000
  0.035831663   -7.265408  134.935944  -99.332000    6.221725    0.000000    0.000000    0.000000    0.000000
  0.036032064   -7.270540  134.737350  -98.500810   15.344117    0.000000    0.000000    0.000000    0.000000
  0.036232465   -7.277028  134.479462  -98.851390    0.483759    0.000000    0.000000    0.000000    0.000000
  0.036432866   -7.282965  134.237427 -100.344717    8.129580    0.000000    0.000000    0.000000    0.000000
  0.036633267   -7.292315  133.935730 -100.410878   10.221367    0.000000    0.000000    0.000000    0.000000
  0.036833667   -7.295086  133.645935  -99.030243    5.694940    0.000000    0.000000    0.000000    0.000000
  0.037034068   -7.297976  133.342575  -98.540308   10.613729    0.000000    0.000000    0.000000    0.000000
  0.037234469   -7.293228  133.051559  -98.372530    8.167321    0.000000    0.000000    0.000000    0.000000
  0.037434870   -7.290698  132.769089  -98.663663   19.166037    0.000000    0.000000    0.000000    0.000000
  0.037635271   -7.279815  132.511261  -99.218125    5.589452    0.000000    0.000000    0.000000    0.000000
  0.037835671   -7.273269  132.247787  -99.730364    2.763798    0.000000    0.000000    0.000000    0.000000
  0.038036072   -7.265063  131.987473  -99.041760    9.713042    0.000000    0.000000    0.000000    0.000000
  0.038236473   -7.256806  131.808090 -100.812230    5.687093    0.000000    0.000000    0.000000    0.000000
  0.038436874   -7.254450  131.611099  -99.543256   -7.609479    0.000000    0.000000    0.000000    0.000000
  0.038637275   -7.259250  131.408859 -100.389493    0.392461    0.000000    0.000000    0.000000    0.000000
  0.038837675   -7.263485  131.184982 -101.137378   12.415789    0.000000    0.000000    0.000000    0.000000
  0.039038076   -7.267724  130.954803 -100.233321    2.635170    0.000000    0.000000    0.000000    0.000000
  0.039238477   -7.269643  130.664047 -100.666362   10.935348    0.000000    0.000000    0.000000    0.000000
  0.039438878   -7.275319  130.406616 -101.032961    8.116250    0.000000    0.000000    0.000000    0.000000
  0.039639279   -7.274469  130.168777 -101.077523    7.467032    0.000000    0.000000    0.000000    0.000000
  0.039839679   -7.274673  129.916733 -100.959350    6.027190    0.000000    0.000000    0.000000    0.000000
  0.040040080   -7.276335  129.655685 -100.930696   -5.257519    0.000000    0.000000    0.000000    0.000000
  0.040240481   -7.272408  129.399002 -101.976508    9.218358    0.000000    0.000000    0.000000    0.000000
  0.040440882   -7.265112  129.137848 -100.271342    3.571516    0.000000    0.000000    0.000000    0.000000
  0.040641283   -7.260144  128.871429 -101.770005   14.064099    0.000000    0.000000    0.000000    0.000000
  0.040841683   -7.255217  128.651474 -101.149625   11.818803    0.000000    0.000000    0.000000    0.000000
  0.041042084   -7.250299  128.464844 -101.628133   -3.805522    0.000000    0.000000    0.000000    0.000000
  0.041242485   -7.250577  128.277695  -99.019624    9.030561    0.000000    0.000000    0.000000    0.000000
  0.041442886   -7.255723  128.080276 -100.280368    2.917334    0.000000    0.000000    0.000000    0.000000
  0.041643287   -7.260175  127.866348 -100.313944   10.192246    0.000000    0.000000    0.000000    0.000000
  0.041843687   -7.269277  127.653419 -101.282733    6.294643    0.000000    0.000000    0.000000    0.000000
  0.042044088   -7.274945  127.362785 -101.423422    3.989512    0.000000    0.000000    0.000000    0.000000
  0.042244489   -7.278101  127.150368 -101.219615   -7.544616    0.000000    0.000000    0.000000    0.000000
  0.042444890   -7.279700  126.867706 -100.068706    4.912970    0.000000    0.000000    0.000000    0.000000
  0.042645291   -7.282909  126.600304 -101.218947    7.801480    0.000000    0.000000    0.000000    0.000000
  0.042845691   -7.277379  126.333176 -101.314712    2.007617    0.000000    0.000000    0.000000    0.000000
  0.043046092   -7.274716  126.039627 -103.354613   -3.419450    0.000000    0.000000    0.000000    0.000000
  0.043246493   -7.267601  125.768425  -99.807906    8.313009    0.000000    0.000000    0.000000    0.000000
  0.043446894   -7.259414  125.549515 -100.554038   -6.945949    0.000000    0.000000    0.000000    0.000000
  0.043647295   -7.260535  125.286217 -101.692784    8.727227    0.000000    0.000000    0.000000    0.000000
  0.043847695   -7.258136  125.087799 -102.561479   -7.106522    0.000000    0.000000    0.000000    0.000000
  0.044048096   -7.260299  124.861992 -101.740006   -1.751045    0.000000    0.000000    0.000000    0.000000
  0.044248497   -7.264267  124.616135 -101.205310   11.292505    0.000000    0.000000    0.000000    0.000000
  0.044448898   -7.270808  124.338783 -102.475812    8.511592    0.000000    0.000000    0.000000    0.000000
  0.044649299   -7.272163  124.053185 -103.668699   -4.013384    0.000000    0.000000    0.000000    0.000000
  0.044849699   -7.276437  123.812546 -101.247360    4.741621    0.000000    0.000000    0.000000    0.000000
  0.045050100   -7.276650  123.569832 -101.453657    6.111437    0.000000    0.000000    0.000000    0.000000
  0.045250501   -7.282585  123.306923 -102.265369    5.746128    0.000000    0.000000    0.000000    0.000000
  0.045450902   -7.279588  123.038849 -101.716678   -0.554177    0.000000    0.000000    0.000000    0.000000
  0.045651303   -7.275508  122.737572 -102.512371    4.876840    0.000000    0.000000    0.000000    0.000000
  0.045851703   -7.264540  122.459953 -102.120662    6.698192    0.000000    0.000000    0.000000    0.000000
  0.046052104   -7.254353  122.188461 -101.413948    3.652869    0.000000    0.000000    0.000000    0.000000
  0.046252505   -7.248987  121.963249 -102.735457   12.775225    0.000000    0.000000    0.000000    0.000000
  0.046452906   -7.247462  121.758385 -102.652944    0.983043    0.000000    0.000000    0.000000    0.000000
  0.046653307   -7.245074  121.578583 -102.429420   14.799280    0.000000    0.000000    0.000000    0.000000
  0.046853707   -7.243208  121.366707 -101.439600   16.867407    0.000000    0.000000    0.000000    0.000000
  0.047054108   -7.252511  121.164948 -103.084122    3.198984    0.000000    0.000000    0.000000    0.000000
  0.047254509   -7.251629  120.930878 -101.420994   -4.143557    0.000000    0.000000    0.000000    0.000000
  0.047454910   -7.258465  120.681412 -100.523305    4.779005    0.000000    0.000000    0.000000    0.000000
  0.047655311   -7.258804  120.438255 -102.895658   -3.498801    0.000000    0.000000    0.000000    0.000000
  0.047855711   -7.259413  120.169212 -103.840084   -1.476792    0.000000    0.000000    0.000000    0.000000
  0.048056112   -7.256971  119.931061 -101.478916    5.370925    0.000000    0.000000    0.000000    0.000000
  0.048256513   -7.253126  119.661415 -102.009287    8.015168    0.000000    0.000000    0.000000    0.000000
  0.048456914   -7.246647  119.408249 -105.255867   -0.433241    0.000000    0.000000    0.000000    0.000000
  0.048657315   -7.246319  119.169342 -101.156082    3.799006    0.000000    0.000000    0.000000    0.000000
  0.048857715   -7.242250  118.949013 -102.262252   11.436236    0.000000    0.000000    0.000000    0.000000
  0.049058116   -7.242279  118.719208 -102.150808    2.991396    0.000000    0.000000    0.000000    0.000000
  0.049258517   -7.246243  118.522018 -101.830620    8.999123    0.000000    0.000000    0.000000    0.000000
  0.049458918   -7.246974  118.287582 -104.377947    8.249946    0.000000    0.000000    0.000000    0.000000
  0.049659319   -7.249870  118.043289 -103.654257    1.594573    0.000000    0.000000    0.000000    0.000000
  0.049859719   -7.252897  117.801476 -102.981435   23.978645    0.000000    0.000000    0.000000    0.000000
  0.050060120   -7.257112  117.553101 -102.576482   -4.540832    0.000000    0.000000    0.000000    0.000000
  0.050260521   -7.265810  117.295006 -104.565728    9.501231    0.000000    0.000000    0.000000    0.000000
  0.050460922   -7.265366  117.016434 -100.460398    6.892589    0.000000    0.000000    0.000000    0.000000
  0.050661323   -7.268069  116.743721 -103.771757   -4.076795    0.000000    0.000000    0.000000    0.000000
  0.050861723   -7.261377  116.475792 -103.286799   22.296276    0.000000    0.000000    0.000000    0.000000
  0.051062124   -7.257068  116.169937 -102.497943  -14.557921    0.000000    0.000000    0.000000    0.000000
  0.051262525   -7.249989  115.893585 -103.608699   10.673770    0.000000    0.000000    0.000000    0.000000
  0.051462926   -7.246030  115.641357 -103.684586    9.810354    0.000000    0.000000    0.000000    0.000000
  0.051663327   -7.244097  115.398857 -101.776866    8.452419    0.000000    0.000000    0.000000    0.000000
  0.051863727   -7.238708  115.191986 -101.450741   -0.060633    0.000000    0.000000    0.000000    0.000000
  0.052064128   -7.234045  114.974129 -103.885515   -5.101712    0.000000    0.000000    0.000000    0.000000
  0.052264529   -7.238861  114.760773 -103.872627   11.053988    0.000000    0.000000    0.000000    0.000000
  0.052464930   -7.238067  114.548752 -102.434203    1.383793    0.000000    0.000000    0.000000    0.000000
  0.052665331   -7.241717  114.305374 -104.579610   -2.554651    0.000000    0.000000    0.000000    0.000000
  0.052865731   -7.243649  114.058357 -101.487390    0.977204    0.000000    0.000000    0.000000    0.000000
