! Anritsu VNA Master:                     Model: MS2036C/10/77
! SN:                                  1601066
! /bd0/18may26.balun/4a.r50.s2p
! Existing Calibration Information:
! TYPE:                         Current Settings,       Active Cal Settings
! TIME:             	   05/26/2018 03:07:53 PM,    05/26/2018 02:51:55 PM
! INTERNAL TEMP:    	                   59.3 C,                    59.5 C
! # POINTS:         	                      500,                       500
! START FREQ:       	               20.000 MHz,                20.000 MHz
! STOP FREQ:        	              120.000 MHz,               120.000 MHz
! SOURCE POWER:     	                     High,                      High
! IFBW:             	                    50 Hz,                     50 Hz
! AVG FACTOR:       	                       1 ,                        1 
! REF PLANE 1:      	                     0 mm,                      0 mm
! REF PLANE 2:      	                     0 mm,                      0 mm
! CAL TYPE:         	                 Full S11,                  Full S11
! CAL METHOD:       	                     SOLT,                      SOLT
! CAL LINE TYPE:    	                     Coax,                      Coax
! DUT PORT 1:       	                K-Conn(M),                 K-Conn(M)
! DUT PORT 2:       	                K-Conn(M),                 K-Conn(M)
! CAL STATUS:       	        OK: Accuracy High,                        --
# GHZ S DB R 50.0
! FREQ.GHZ       S11DB        S11A       S21DB        S21A       S12DB        S12A       S22DB        S22A
  0.020000000  -39.309499   48.695889  -91.781102   31.767426    0.000000    0.000000    0.000000    0.000000
  0.020200401  -39.232538   48.992607  -91.169322   32.040760    0.000000    0.000000    0.000000    0.000000
  0.020400802  -39.205686   48.388683  -91.356087   37.707260    0.000000    0.000000    0.000000    0.000000
  0.020601202  -39.071434   48.530830  -91.966011   35.082481    0.000000    0.000000    0.000000    0.000000
  0.020801603  -38.953296   47.434422  -92.407114   35.027504    0.000000    0.000000    0.000000    0.000000
  0.021002004  -38.938940   48.170444  -91.243836   35.421524    0.000000    0.000000    0.000000    0.000000
  0.021202405  -38.733548   47.426910  -91.189151   33.063560    0.000000    0.000000    0.000000    0.000000
  0.021402806  -38.770152   47.473248  -92.224032   29.477501    0.000000    0.000000    0.000000    0.000000
  0.021603206  -38.632018   46.728817  -92.102049   31.041574    0.000000    0.000000    0.000000    0.000000
  0.021803607  -38.447140   47.349876  -92.007391   30.062365    0.000000    0.000000    0.000000    0.000000
  0.022004008  -38.355952   46.770447  -92.741947   29.132666    0.000000    0.000000    0.000000    0.000000
  0.022204409  -38.353343   46.563324  -92.269419   31.920885    0.000000    0.000000    0.000000    0.000000
  0.022404810  -38.129366   46.932011  -92.670157   27.403193    0.000000    0.000000    0.000000    0.000000
  0.022605210  -38.090145   46.892918  -93.508509   28.735788    0.000000    0.000000    0.000000    0.000000
  0.022805611  -37.880816   47.007271  -93.047302   31.742788    0.000000    0.000000    0.000000    0.000000
  0.023006012  -37.888103   47.149246  -93.650647   24.374998    0.000000    0.000000    0.000000    0.000000
  0.023206413  -37.834381   47.414280  -93.283555   22.425806    0.000000    0.000000    0.000000    0.000000
  0.023406814  -37.754181   47.968109  -93.434044   26.759369    0.000000    0.000000    0.000000    0.000000
  0.023607214  -37.593262   48.620861  -92.976485   29.888798    0.000000    0.000000    0.000000    0.000000
  0.023807615  -37.639556   48.420868  -93.306694   29.370220    0.000000    0.000000    0.000000    0.000000
  0.024008016  -37.638032   48.659798  -93.717290   24.440847    0.000000    0.000000    0.000000    0.000000
  0.024208417  -37.655011   48.861401  -93.752583   28.433037    0.000000    0.000000    0.000000    0.000000
  0.024408818  -37.611924   48.727287  -94.077502   24.841738    0.000000    0.000000    0.000000    0.000000
  0.024609218  -37.652746   48.573933  -94.000356   25.123899    0.000000    0.000000    0.000000    0.000000
  0.024809619  -37.609335   48.687660  -94.171411   27.192383    0.000000    0.000000    0.000000    0.000000
  0.025010020  -37.736858   48.453823  -94.652886   23.343447    0.000000    0.000000    0.000000    0.000000
  0.025210421  -37.687844   48.534794  -94.111504   21.656410    0.000000    0.000000    0.000000    0.000000
  0.025410822  -37.594129   47.597687  -95.024783   19.773443    0.000000    0.000000    0.000000    0.000000
  0.025611222  -37.670464   47.214108  -93.758596   23.954832    0.000000    0.000000    0.000000    0.000000
  0.025811623  -37.624529   47.518784  -94.445933   21.196365    0.000000    0.000000    0.000000    0.000000
  0.026012024  -37.580668   46.820023  -94.878028   18.171030    0.000000    0.000000    0.000000    0.000000
  0.026212425  -37.568674   45.842640  -95.131534   20.655527    0.000000    0.000000    0.000000    0.000000
  0.026412826  -37.456662   45.062817  -95.283461   24.417946    0.000000    0.000000    0.000000    0.000000
  0.026613226  -37.434309   44.641842  -95.264739   18.836250    0.000000    0.000000    0.000000    0.000000
  0.026813627  -37.238473   44.621117  -94.936229   19.902508    0.000000    0.000000    0.000000    0.000000
  0.027014028  -37.117975   43.961910  -96.228176   17.991781    0.000000    0.000000    0.000000    0.000000
  0.027214429  -36.998717   43.660606  -95.490235   19.276165    0.000000    0.000000    0.000000    0.000000
  0.027414830  -36.963775   43.460125  -95.787340   13.769299    0.000000    0.000000    0.000000    0.000000
  0.027615230  -36.929897   43.239353  -96.269552   22.059114    0.000000    0.000000    0.000000    0.000000
  0.027815631  -36.744183   43.296753  -95.353001   12.962003    0.000000    0.000000    0.000000    0.000000
  0.028016032  -36.586539   43.761284  -97.204452   16.362211    0.000000    0.000000    0.000000    0.000000
  0.028216433  -36.477455   43.824833  -96.468034   22.316656    0.000000    0.000000    0.000000    0.000000
  0.028416834  -36.345704   44.091019  -96.341155   28.199551    0.000000    0.000000    0.000000    0.000000
  0.028617234  -36.234564   43.990417  -96.129817   15.601998    0.000000    0.000000    0.000000    0.000000
  0.028817635  -36.133917   44.724827  -96.042580   20.439310    0.000000    0.000000    0.000000    0.000000
  0.029018036  -36.174671   44.795517  -96.470151   16.841724    0.000000    0.000000    0.000000    0.000000
  0.029218437  -36.083491   45.216801  -97.463004   15.066140    0.000000    0.000000    0.000000    0.000000
  0.029418838  -36.041161   45.517029  -96.498015   12.519933    0.000000    0.000000    0.000000    0.000000
  0.029619238  -36.109198   46.415600  -97.014534   16.232433    0.000000    0.000000    0.000000    0.000000
  0.029819639  -36.084469   46.495491  -97.057763   22.267815    0.000000    0.000000    0.000000    0.000000
  0.030020040  -36.044291   46.391182  -97.311508   21.552824    0.000000    0.000000    0.000000    0.000000
  0.030220441  -36.164227   46.571312  -97.953212   11.739435    0.000000    0.000000    0.000000    0.000000
  0.030420842  -36.165179   46.671833  -96.998556   14.376754    0.000000    0.000000    0.000000    0.000000
  0.030621242  -36.199177   46.368595  -97.572707   15.626001    0.000000    0.000000    0.000000    0.000000
  0.030821643  -36.219271   45.854683  -96.771174   15.794416    0.000000    0.000000    0.000000    0.000000
  0.031022044  -36.167153   45.803699  -97.419207   19.103296    0.000000    0.000000    0.000000    0.000000
  0.031222445  -36.267320   45.511425  -97.017581    6.617358    0.000000    0.000000    0.000000    0.000000
  0.031422846  -36.154741   44.968773  -97.834628   16.096558    0.000000    0.000000    0.000000    0.000000
  0.031623246  -36.125345   43.693058  -98.830822   11.286705    0.000000    0.000000    0.000000    0.000000
  0.031823647  -36.144411   43.299660  -97.294015   15.366005    0.000000    0.000000    0.000000    0.000000
  0.032024048  -35.981702   42.343311  -97.646371    7.798704    0.000000    0.000000    0.000000    0.000000
  0.032224449  -35.901132   42.289677  -97.837201   15.296640    0.000000    0.000000    0.000000    0.000000
  0.032424850  -35.877168   42.017548  -96.852037   14.407405    0.000000    0.000000    0.000000    0.000000
  0.032625251  -35.737685   41.850258  -98.535579   10.553963    0.000000    0.000000    0.000000    0.000000
  0.032825651  -35.674121   41.386131  -97.292053    7.972842    0.000000    0.000000    0.000000    0.000000
  0.033026052  -35.476363   41.253677  -98.057957   13.689122    0.000000    0.000000    0.000000    0.000000
  0.033226453  -35.334731   41.499641  -97.695331   13.890062    0.000000    0.000000    0.000000    0.000000
  0.033426854  -35.199550   41.587154  -99.011815    9.523656    0.000000    0.000000    0.000000    0.000000
  0.033627255  -35.069098   41.393982  -98.938120    8.885118    0.000000    0.000000    0.000000    0.000000
  0.033827655  -35.020390   41.731941  -99.224568   12.735955    0.000000    0.000000    0.000000    0.000000
  0.034028056  -34.928000   42.278568  -97.979107   13.053051    0.000000    0.000000    0.000000    0.000000
  0.034228457  -34.837707   42.588985  -98.605954    7.279160    0.000000    0.000000    0.000000    0.000000
  0.034428858  -34.740750   43.277813  -98.343787   15.501904    0.000000    0.000000    0.000000    0.000000
  0.034629259  -34.689865   43.677563  -99.881276    9.108259    0.000000    0.000000    0.000000    0.000000
  0.034829659  -34.755302   44.248211  -98.693061    6.579989    0.000000    0.000000    0.000000    0.000000
  0.035030060  -34.721433   45.474815  -99.375615    2.905957    0.000000    0.000000    0.000000    0.000000
  0.035230461  -34.816658   45.196301  -98.669335   11.740966    0.000000    0.000000    0.000000    0.000000
  0.035430862  -34.763488   46.395130  -99.851314   -0.187528    0.000000    0.000000    0.000000    0.000000
  0.035631263  -34.868416   46.767677  -98.684471    1.910714    0.000000    0.000000    0.000000    0.000000
  0.035831663  -34.930496   46.476250  -99.156153    2.812354    0.000000    0.000000    0.000000    0.000000
  0.036032064  -35.041076   45.875149  -99.900630   10.442434    0.000000    0.000000    0.000000    0.000000
  0.036232465  -35.115103   46.016102  -98.908944    5.485582    0.000000    0.000000    0.000000    0.000000
  0.036432866  -35.191677   45.535934 -100.933364    1.922931    0.000000    0.000000    0.000000    0.000000
  0.036633267  -35.250214   45.306244  -99.032712    9.232542    0.000000    0.000000    0.000000    0.000000
  0.036833667  -35.304840   44.272263  -98.655084   11.671778    0.000000    0.000000    0.000000    0.000000
  0.037034068  -35.270931   43.422874  -99.956926    6.090921    0.000000    0.000000    0.000000    0.000000
  0.037234469  -35.252730   42.796051  -99.419885   14.701285    0.000000    0.000000    0.000000    0.000000
  0.037434870  -35.200056   41.711903  -98.704277    4.076401    0.000000    0.000000    0.000000    0.000000
  0.037635271  -35.129654   40.736588  -98.423597   10.075966    0.000000    0.000000    0.000000    0.000000
  0.037835671  -35.098086   40.481937  -99.238670    9.612776    0.000000    0.000000    0.000000    0.000000
  0.038036072  -34.918024   39.751507  -99.403291    8.444856    0.000000    0.000000    0.000000    0.000000
  0.038236473  -34.858567   39.243149 -100.331949    0.959640    0.000000    0.000000    0.000000    0.000000
  0.038436874  -34.694509   38.953667  -98.624401   -1.342371    0.000000    0.000000    0.000000    0.000000
  0.038637275  -34.614537   38.784187  -99.845697    7.570875    0.000000    0.000000    0.000000    0.000000
  0.038837675  -34.439435   38.458942 -100.018617    2.719682    0.000000    0.000000    0.000000    0.000000
  0.039038076  -34.360698   38.401897 -101.914950    6.924738    0.000000    0.000000    0.000000    0.000000
  0.039238477  -34.182744   38.916382  -99.036200    4.758942    0.000000    0.000000    0.000000    0.000000
  0.039438878  -34.011921   39.038971 -100.243472   -4.649186    0.000000    0.000000    0.000000    0.000000
  0.039639279  -33.902783   40.150101  -99.806538    6.656586    0.000000    0.000000    0.000000    0.000000
  0.039839679  -33.880831   40.611465  -99.941229    6.273531    0.000000    0.000000    0.000000    0.000000
  0.040040080  -33.762408   41.339245 -101.500074   16.115225    0.000000    0.000000    0.000000    0.000000
  0.040240481  -33.777185   42.034187  -99.805156    6.264000    0.000000    0.000000    0.000000    0.000000
  0.040440882  -33.764211   43.172153 -100.998376    2.825294    0.000000    0.000000    0.000000    0.000000
  0.040641283  -33.752928   43.538605 -101.189624   15.782748    0.000000    0.000000    0.000000    0.000000
  0.040841683  -33.862133   43.835167 -100.977168   -2.711947    0.000000    0.000000    0.000000    0.000000
  0.041042084  -33.918947   44.409565 -101.101639   14.231668    0.000000    0.000000    0.000000    0.000000
  0.041242485  -34.014082   44.754112 -100.975912    9.675588    0.000000    0.000000    0.000000    0.000000
  0.041442886  -34.101156   44.882286 -102.762329    2.849597    0.000000    0.000000    0.000000    0.000000
  0.041643287  -34.187982   44.639786 -100.623674   12.303504    0.000000    0.000000    0.000000    0.000000
  0.041843687  -34.304691   44.398739 -100.318269    9.422310    0.000000    0.000000    0.000000    0.000000
  0.042044088  -34.344729   44.237072 -100.096806   16.406691    0.000000    0.000000    0.000000    0.000000
  0.042244489  -34.529156   43.155827 -101.649348    0.861965    0.000000    0.000000    0.000000    0.000000
  0.042444890  -34.555121   42.828674 -100.373544    0.111810    0.000000    0.000000    0.000000    0.000000
  0.042645291  -34.609703   41.860115 -100.630152    3.073995    0.000000    0.000000    0.000000    0.000000
  0.042845691  -34.721588   40.827515 -100.175052   -2.737172    0.000000    0.000000    0.000000    0.000000
  0.043046092  -34.606557   39.874565 -101.199036   11.711355    0.000000    0.000000    0.000000    0.000000
  0.043246493  -34.545155   38.667446 -103.947634    7.563535    0.000000    0.000000    0.000000    0.000000
  0.043446894  -34.501347   37.614166 -102.100850    0.395929    0.000000    0.000000    0.000000    0.000000
  0.043647295  -34.339515   36.790226 -102.963950   10.942430    0.000000    0.000000    0.000000    0.000000
  0.043847695  -34.254207   36.237946 -102.535173    8.649232    0.000000    0.000000    0.000000    0.000000
  0.044048096  -34.098525   35.707672 -102.077627   -5.241402    0.000000    0.000000    0.000000    0.000000
  0.044248497  -33.946403   35.140560 -101.234713    7.965036    0.000000    0.000000    0.000000    0.000000
  0.044448898  -33.747870   35.122940 -102.439787   -3.756912    0.000000    0.000000    0.000000    0.000000
  0.044649299  -33.617029   34.985111 -101.315217   10.316455    0.000000    0.000000    0.000000    0.000000
  0.044849699  -33.428262   35.552933  -99.957832    6.044999    0.000000    0.000000    0.000000    0.000000
  0.045050100  -33.293300   35.999832 -100.191772    8.096189    0.000000    0.000000    0.000000    0.000000
  0.045250501  -33.212321   35.991856 -101.704496   16.090643    0.000000    0.000000    0.000000    0.000000
  0.045450902  -33.147233   36.816689 -103.021279    6.539226    0.000000    0.000000    0.000000    0.000000
  0.045651303  -33.052547   37.239288 -101.243224   15.021219    0.000000    0.000000    0.000000    0.000000
  0.045851703  -33.005890   38.209599 -102.987084    0.661984    0.000000    0.000000    0.000000    0.000000
  0.046052104  -32.974481   38.981022 -101.736008    6.972626    0.000000    0.000000    0.000000    0.000000
  0.046252505  -33.009977   39.338570 -101.731273    7.465333    0.000000    0.000000    0.000000    0.000000
  0.046452906  -32.981427   39.723106 -101.626020   -8.597063    0.000000    0.000000    0.000000    0.000000
  0.046653307  -33.099410   40.574677 -101.586559   -3.750296    0.000000    0.000000    0.000000    0.000000
  0.046853707  -33.163312   41.400810 -100.709193    1.062512    0.000000    0.000000    0.000000    0.000000
  0.047054108  -33.248828   40.961803 -105.426192   -8.118493    0.000000    0.000000    0.000000    0.000000
  0.047254509  -33.374730   41.747578 -102.631421   -3.499666    0.000000    0.000000    0.000000    0.000000
  0.047454910  -33.457288   41.068348 -101.534357    3.703849    0.000000    0.000000    0.000000    0.000000
  0.047655311  -33.533870   41.330887 -102.514978   -5.209511    0.000000    0.000000    0.000000    0.000000
  0.047855711  -33.644563   41.139408 -104.034961    1.605911    0.000000    0.000000    0.000000    0.000000
  0.048056112  -33.728388   40.331833 -103.085918    8.790849    0.000000    0.000000    0.000000    0.000000
  0.048256513  -33.810401   39.625706 -102.803074    7.849070    0.000000    0.000000    0.000000    0.000000
  0.048456914  -33.851053   38.491230 -102.486352   -5.343051    0.000000    0.000000    0.000000    0.000000
  0.048657315  -33.823095   37.068882 -101.794480    6.174486    0.000000    0.000000    0.000000    0.000000
  0.048857715  -33.835424   36.791508 -103.210343   -2.582248    0.000000    0.000000    0.000000    0.000000
  0.049058116  -33.840455   35.548363 -102.676387   10.534956    0.000000    0.000000    0.000000    0.000000
  0.049258517  -33.701641   34.811901 -101.252998    9.046313    0.000000    0.000000    0.000000    0.000000
  0.049458918  -33.575288   34.366982 -104.047963    7.110580    0.000000    0.000000    0.000000    0.000000
  0.049659319  -33.500891   33.425148 -103.204899    8.355795    0.000000    0.000000    0.000000    0.000000
  0.049859719  -33.345579   33.045227 -103.260413   -0.131528    0.000000    0.000000    0.000000    0.000000
  0.050060120  -33.230542   32.430614 -102.228799   -1.862195    0.000000    0.000000    0.000000    0.000000
  0.050260521  -33.080643   32.089962 -102.754955    7.195314    0.000000    0.000000    0.000000    0.000000
  0.050460922  -32.912490   32.087749 -103.006939    0.061410    0.000000    0.000000    0.000000    0.000000
  0.050661323  -32.766721   32.470543 -103.987795   -4.119622    0.000000    0.000000    0.000000    0.000000
  0.050861723  -32.740186   33.123363 -102.234910   11.737567    0.000000    0.000000    0.000000    0.000000
  0.051062124  -32.575181   33.555286 -102.841270    0.695270    0.000000    0.000000    0.000000    0.000000
  0.051262525  -32.545340   33.987946 -103.585646   20.023935    0.000000    0.000000    0.000000    0.000000
  0.051462926  -32.470265   34.736206 -103.847637    5.204081    0.000000    0.000000    0.000000    0.000000
  0.051663327  -32.484680   35.094707 -103.164056   -5.880619    0.000000    0.000000    0.000000    0.000000
  0.051863727  -32.450831   35.509998 -103.791113    3.112140    0.000000    0.000000    0.000000    0.000000
  0.052064128  -32.473619   36.352478 -102.139376   -8.778077    0.000000    0.000000    0.000000    0.000000
  0.052264529  -32.491533   36.381100 -101.952322    2.467263    0.000000    0.000000    0.000000    0.000000
  0.052464930  -32.524263   36.780445 -103.009098    1.273372    0.000000    0.000000    0.000000    0.000000
  0.052665331  -32.605667   37.080524 -104.050809    0.966674    0.000000    0.000000    0.000000    0.000000
  0.052865731  -32.597232   36.854454 -103.873923    3.668166    0.000000    0.000000    0.000000    0.000000
