! Anritsu VNA Master:                 Model: MS2034B/10/19/501
! SN:                                  1337062
! /bd0/ovro-jan-2016/dcp-ant256-z2-lna.s2p
! Existing Calibration Information:
! TYPE:                         Current Settings,       Active Cal Settings
! TIME:             	   01/12/2016 03:44:57 PM,    01/12/2016 03:37:40 PM
! INTERNAL TEMP:    	                   41.8 C,                    41.5 C
! # POINTS:         	                      500,                       500
! START FREQ:       	               10.000 MHz,                10.000 MHz
! STOP FREQ:        	              110.000 MHz,               110.000 MHz
! SOURCE POWER:     	                      Low,                       Low
! IFBW:             	                    1 kHz,                     1 kHz
! AVG FACTOR:       	                       4 ,                        4 
! REF PLANE 1:      	                 2.2245 m,                  2.2245 m
! REF PLANE 2:      	                     0 mm,                      0 mm
! CAL TYPE:         	                 Full S11,                  Full S11
! CAL METHOD:       	                     SOLT,                      SOLT
! CAL LINE TYPE:    	                     Coax,                      Coax
! DUT PORT 1:       	                K-Conn(M),                 K-Conn(M)
! DUT PORT 2:       	                N-Conn(M),                 N-Conn(M)
! CAL STATUS:       	        OK: Accuracy High,                        --
# GHZ S DB R 50.0
! FREQ.GHZ       S11DB        S11A       S21DB        S21A       S12DB        S12A       S22DB        S22A
  0.010000000  -26.860331 -170.393478  -62.579847 -135.327103    0.000000    0.000000    0.000000    0.000000
  0.010200401  -27.376600 -168.032043  -60.227707 -156.305618    0.000000    0.000000    0.000000    0.000000
  0.010400802  -27.501565 -174.205200  -69.999908  -59.160099    0.000000    0.000000    0.000000    0.000000
  0.010601202  -27.152144 -178.725861  -63.451496 -146.080276    0.000000    0.000000    0.000000    0.000000
  0.010801603  -27.504912  177.411346  -69.889802  105.512978    0.000000    0.000000    0.000000    0.000000
  0.011002004  -27.693461  174.470688  -64.019260 -155.601593    0.000000    0.000000    0.000000    0.000000
  0.011202405  -27.495631  174.091064  -68.878156 -168.222076    0.000000    0.000000    0.000000    0.000000
  0.011402806  -27.289649  166.821609  -61.642064  168.393097    0.000000    0.000000    0.000000    0.000000
  0.011603206  -27.061237  165.863281  -72.106383 -163.820236    0.000000    0.000000    0.000000    0.000000
  0.011803607  -27.005244  164.535019  -68.124238 -179.287170    0.000000    0.000000    0.000000    0.000000
  0.012004008  -27.461196  161.602005  -67.018081  160.589966    0.000000    0.000000    0.000000    0.000000
  0.012204409  -27.034846  157.751526  -68.096538  -97.157440    0.000000    0.000000    0.000000    0.000000
  0.012404810  -27.072385  156.755249  -64.143175  -99.893211    0.000000    0.000000    0.000000    0.000000
  0.012605210  -26.734074  153.381592  -64.834295 -154.618225    0.000000    0.000000    0.000000    0.000000
  0.012805611  -26.492765  153.812958  -68.143478  167.557648    0.000000    0.000000    0.000000    0.000000
  0.013006012  -26.647962  144.562073  -64.393401 -130.684738    0.000000    0.000000    0.000000    0.000000
  0.013206413  -27.186915  141.165665  -62.561861 -123.548546    0.000000    0.000000    0.000000    0.000000
  0.013406814  -27.159470  143.097031  -59.344513 -153.317932    0.000000    0.000000    0.000000    0.000000
  0.013607214  -26.625917  138.604462  -68.438129  167.170944    0.000000    0.000000    0.000000    0.000000
  0.013807615  -27.240869  139.563370  -64.055715 -124.175911    0.000000    0.000000    0.000000    0.000000
  0.014008016  -26.876960  134.570221  -60.774781 -126.871574    0.000000    0.000000    0.000000    0.000000
  0.014208417  -26.000995  132.812103  -58.302657  166.145035    0.000000    0.000000    0.000000    0.000000
  0.014408818  -26.102472  124.718803  -67.149928 -149.614044    0.000000    0.000000    0.000000    0.000000
  0.014609218  -25.911381  126.600189  -61.149519  178.825043    0.000000    0.000000    0.000000    0.000000
  0.014809619  -26.680770  124.753036  -66.787310  175.811722    0.000000    0.000000    0.000000    0.000000
  0.015010020  -26.403805  123.096237  -66.665141 -112.447762    0.000000    0.000000    0.000000    0.000000
  0.015210421  -25.682061  120.807686  -75.699586 -109.929794    0.000000    0.000000    0.000000    0.000000
  0.015410822  -25.587327  118.980911  -67.109360 -139.989029    0.000000    0.000000    0.000000    0.000000
  0.015611222  -25.524132  113.298660  -65.366263  162.334442    0.000000    0.000000    0.000000    0.000000
  0.015811623  -24.912542  110.807098  -62.999718  -86.729897    0.000000    0.000000    0.000000    0.000000
  0.016012024  -25.208151  112.942383  -72.206733 -157.056824    0.000000    0.000000    0.000000    0.000000
  0.016212425  -24.568561  109.906387  -66.978219 -107.962280    0.000000    0.000000    0.000000    0.000000
  0.016412826  -24.626631  106.638115  -62.410496 -168.293137    0.000000    0.000000    0.000000    0.000000
  0.016613226  -24.959129  106.405479  -71.548503 -152.407318    0.000000    0.000000    0.000000    0.000000
  0.016813627  -24.182825  105.509628  -64.310490 -162.823685    0.000000    0.000000    0.000000    0.000000
  0.017014028  -24.150760  103.843987  -66.246010 -106.823868    0.000000    0.000000    0.000000    0.000000
  0.017214429  -23.533214  101.195625  -66.380434 -172.135895    0.000000    0.000000    0.000000    0.000000
  0.017414830  -23.435425  101.296295  -59.574031 -135.039459    0.000000    0.000000    0.000000    0.000000
  0.017615230  -23.247331   98.582657  -66.694359 -173.094498    0.000000    0.000000    0.000000    0.000000
  0.017815631  -23.121691   99.363045  -77.477937  152.333755    0.000000    0.000000    0.000000    0.000000
  0.018016032  -23.495032   95.931534  -59.511628 -162.899460    0.000000    0.000000    0.000000    0.000000
  0.018216433  -23.181539   94.435005  -61.288670  -99.852768    0.000000    0.000000    0.000000    0.000000
  0.018416834  -22.751486   91.902611  -70.057755 -123.920090    0.000000    0.000000    0.000000    0.000000
  0.018617234  -22.673882   91.638153  -62.703036 -129.183273    0.000000    0.000000    0.000000    0.000000
  0.018817635  -22.433715   90.670509  -66.583837 -145.946198    0.000000    0.000000    0.000000    0.000000
  0.019018036  -22.630640   87.512993  -64.037800 -105.778275    0.000000    0.000000    0.000000    0.000000
  0.019218437  -21.953434   88.881653  -59.628256 -142.561844    0.000000    0.000000    0.000000    0.000000
  0.019418838  -22.176015   86.413406  -65.741711 -132.640259    0.000000    0.000000    0.000000    0.000000
  0.019619238  -22.059012   83.830826  -59.249303  -76.120789    0.000000    0.000000    0.000000    0.000000
  0.019819639  -21.679957   81.068428  -62.142272 -143.737015    0.000000    0.000000    0.000000    0.000000
  0.020020040  -21.592247   82.742607  -61.766968 -107.676125    0.000000    0.000000    0.000000    0.000000
  0.020220441  -21.522819   79.577332  -65.876254 -105.148689    0.000000    0.000000    0.000000    0.000000
  0.020420842  -20.941232   76.922516  -66.987247 -142.383881    0.000000    0.000000    0.000000    0.000000
  0.020621242  -21.493342   78.759499  -64.840525  -81.336372    0.000000    0.000000    0.000000    0.000000
  0.020821643  -20.909598   74.884377  -69.910475 -141.957047    0.000000    0.000000    0.000000    0.000000
  0.021022044  -21.102147   72.564445  -68.149760  149.156067    0.000000    0.000000    0.000000    0.000000
  0.021222445  -20.666647   70.038582  -72.278871  -73.287514    0.000000    0.000000    0.000000    0.000000
  0.021422846  -20.387737   70.329231  -74.812325  -23.460329    0.000000    0.000000    0.000000    0.000000
  0.021623246  -20.447896   67.101768  -67.712657 -128.049820    0.000000    0.000000    0.000000    0.000000
  0.021823647  -20.213305   67.154579  -66.402075 -142.472061    0.000000    0.000000    0.000000    0.000000
  0.022024048  -20.045985   64.960197  -60.752228 -137.352768    0.000000    0.000000    0.000000    0.000000
  0.022224449  -19.865908   63.771183  -66.818906 -167.265289    0.000000    0.000000    0.000000    0.000000
  0.022424850  -20.083359   60.976856  -61.774519  -88.719597    0.000000    0.000000    0.000000    0.000000
  0.022625251  -19.924782   58.946281  -59.412781  -94.074127    0.000000    0.000000    0.000000    0.000000
  0.022825651  -19.462286   56.397659  -62.446400 -128.485855    0.000000    0.000000    0.000000    0.000000
  0.023026052  -19.459035   57.651932  -66.399717  160.584702    0.000000    0.000000    0.000000    0.000000
  0.023226453  -19.351010   52.697521  -64.570647 -172.930359    0.000000    0.000000    0.000000    0.000000
  0.023426854  -19.312641   51.470642  -61.589307 -138.446167    0.000000    0.000000    0.000000    0.000000
  0.023627255  -19.337862   49.422199  -59.937865 -125.943840    0.000000    0.000000    0.000000    0.000000
  0.023827655  -19.104541   47.790588  -62.860492 -113.266129    0.000000    0.000000    0.000000    0.000000
  0.024028056  -18.969681   45.432117  -64.894029 -154.439423    0.000000    0.000000    0.000000    0.000000
  0.024228457  -19.150625   41.438267  -61.603892 -132.482544    0.000000    0.000000    0.000000    0.000000
  0.024428858  -18.808629   38.880543  -69.891792  -88.760284    0.000000    0.000000    0.000000    0.000000
  0.024629259  -18.420256   35.300385  -65.338672  -98.651611    0.000000    0.000000    0.000000    0.000000
  0.024829659  -18.739584   34.599182  -62.253139 -146.458786    0.000000    0.000000    0.000000    0.000000
  0.025030060  -18.664825   31.497478  -63.206452  -64.359863    0.000000    0.000000    0.000000    0.000000
  0.025230461  -18.746137   27.264910  -67.813754 -134.962845    0.000000    0.000000    0.000000    0.000000
  0.025430862  -18.365235   21.503132  -64.163270 -121.229164    0.000000    0.000000    0.000000    0.000000
  0.025631263  -18.533495   20.705238  -66.155638 -113.986618    0.000000    0.000000    0.000000    0.000000
  0.025831663  -18.795067   18.110920  -63.670858  -23.959915    0.000000    0.000000    0.000000    0.000000
  0.026032064  -18.819229   12.299451  -65.808816  -82.020866    0.000000    0.000000    0.000000    0.000000
  0.026232465  -19.097256    8.087665  -68.596225 -111.808762    0.000000    0.000000    0.000000    0.000000
  0.026432866  -19.276863    3.931909  -67.537299 -141.954941    0.000000    0.000000    0.000000    0.000000
  0.026633267  -20.254757   -1.112283  -63.672039 -126.840179    0.000000    0.000000    0.000000    0.000000
  0.026833667  -20.305315   -8.245720  -64.107982  -70.917099    0.000000    0.000000    0.000000    0.000000
  0.027034068  -20.567280  -12.043662  -63.829068 -140.657166    0.000000    0.000000    0.000000    0.000000
  0.027234469  -21.494295  -15.459129  -64.835956  -60.519600    0.000000    0.000000    0.000000    0.000000
  0.027434870  -23.204142  -18.827742  -70.076246  -36.774815    0.000000    0.000000    0.000000    0.000000
  0.027635271  -23.680673  -24.297089  -63.219982  -86.805946    0.000000    0.000000    0.000000    0.000000
  0.027835671  -24.992080  -26.516796  -72.089332  -59.679413    0.000000    0.000000    0.000000    0.000000
  0.028036072  -26.311027  -28.984205  -65.139486 -106.912918    0.000000    0.000000    0.000000    0.000000
  0.028236473  -27.877605  -27.964924  -75.379420  -61.725422    0.000000    0.000000    0.000000    0.000000
  0.028436874  -28.777768  -27.519617  -63.167805  -30.069572    0.000000    0.000000    0.000000    0.000000
  0.028637275  -30.711740  -19.426418  -65.857438 -132.251022    0.000000    0.000000    0.000000    0.000000
  0.028837675  -33.651731  -20.542089  -61.970423  -99.389076    0.000000    0.000000    0.000000    0.000000
  0.029038076  -34.732284   -0.852078  -63.290493 -140.813782    0.000000    0.000000    0.000000    0.000000
  0.029238477  -35.558307   10.908562  -62.344515  -81.786537    0.000000    0.000000    0.000000    0.000000
  0.029438878  -35.515849   25.345610  -60.805862  -65.376938    0.000000    0.000000    0.000000    0.000000
  0.029639279  -30.532825   11.811354  -62.530221  -59.389969    0.000000    0.000000    0.000000    0.000000
  0.029839679  -30.968737   21.271030  -64.522093  -69.002991    0.000000    0.000000    0.000000    0.000000
  0.030040080  -31.842928   43.608162  -74.387185  170.165070    0.000000    0.000000    0.000000    0.000000
  0.030240481  -30.807940   43.795902  -65.388631 -151.698044    0.000000    0.000000    0.000000    0.000000
  0.030440882  -30.441167   49.831295  -65.335258 -119.644325    0.000000    0.000000    0.000000    0.000000
  0.030641283  -29.772963   47.099930  -61.957488  -98.845459    0.000000    0.000000    0.000000    0.000000
  0.030841683  -29.838136   46.149197  -61.166277  -99.367035    0.000000    0.000000    0.000000    0.000000
  0.031042084  -29.028569   48.886589  -61.608351 -116.697678    0.000000    0.000000    0.000000    0.000000
  0.031242485  -29.084111   48.076645  -59.701505  -64.171837    0.000000    0.000000    0.000000    0.000000
  0.031442886  -28.333318   46.678890  -69.059508  -35.052601    0.000000    0.000000    0.000000    0.000000
  0.031643287  -28.256001   48.681511  -65.648172  -79.209671    0.000000    0.000000    0.000000    0.000000
  0.031843687  -28.497888   43.779404  -63.137995  -60.487007    0.000000    0.000000    0.000000    0.000000
  0.032044088  -28.278507   48.640846  -64.084117 -122.387779    0.000000    0.000000    0.000000    0.000000
  0.032244489  -27.889981   47.549068  -62.036947  -48.695248    0.000000    0.000000    0.000000    0.000000
  0.032444890  -28.297894   36.018932  -62.412533  -55.993847    0.000000    0.000000    0.000000    0.000000
  0.032645291  -28.325140   43.712032  -68.283960 -132.995972    0.000000    0.000000    0.000000    0.000000
  0.032845691  -28.070268   38.538811  -86.807855   19.541233    0.000000    0.000000    0.000000    0.000000
  0.033046092  -28.912934   39.977615  -62.892464  -60.657112    0.000000    0.000000    0.000000    0.000000
  0.033246493  -28.283101   42.107876  -62.649992 -123.025833    0.000000    0.000000    0.000000    0.000000
  0.033446894  -28.266936   37.886635  -64.913690  -92.057152    0.000000    0.000000    0.000000    0.000000
  0.033647295  -28.626727   40.571545  -61.549882  -29.507301    0.000000    0.000000    0.000000    0.000000
  0.033847695  -29.816503   44.763672  -67.345157 -154.304718    0.000000    0.000000    0.000000    0.000000
  0.034048096  -29.435483   41.119003  -65.627821  -92.146736    0.000000    0.000000    0.000000    0.000000
  0.034248497  -28.981505   42.423023  -63.986165  -43.128334    0.000000    0.000000    0.000000    0.000000
  0.034448898  -29.552964   39.091938  -64.529133 -144.521286    0.000000    0.000000    0.000000    0.000000
  0.034649299  -29.329091   49.952953  -64.368890 -106.792397    0.000000    0.000000    0.000000    0.000000
  0.034849699  -29.386296   42.732788  -67.001812 -117.278992    0.000000    0.000000    0.000000    0.000000
  0.035050100  -29.685119   41.884361  -66.473072  -44.199028    0.000000    0.000000    0.000000    0.000000
  0.035250501  -30.222105   42.733723  -63.117935  -89.431007    0.000000    0.000000    0.000000    0.000000
  0.035450902  -29.632180   44.345924  -66.693097   -7.463645    0.000000    0.000000    0.000000    0.000000
  0.035651303  -30.521615   44.911434  -63.366966 -105.303421    0.000000    0.000000    0.000000    0.000000
  0.035851703  -29.913465   44.817467  -62.588230 -102.357140    0.000000    0.000000    0.000000    0.000000
  0.036052104  -29.238258   57.733452  -64.173643  -70.840195    0.000000    0.000000    0.000000    0.000000
  0.036252505  -30.604680   50.057762  -65.337207  -57.335518    0.000000    0.000000    0.000000    0.000000
  0.036452906  -30.964595   51.989899  -67.039666  -44.355984    0.000000    0.000000    0.000000    0.000000
  0.036653307  -30.819574   61.317299  -63.639893  -56.462711    0.000000    0.000000    0.000000    0.000000
  0.036853707  -30.956374   52.333115  -69.046284  -12.844087    0.000000    0.000000    0.000000    0.000000
  0.037054108  -30.721304   61.112755  -65.062525    1.067228    0.000000    0.000000    0.000000    0.000000
  0.037254509  -31.235912   57.877171  -60.999696  -66.803596    0.000000    0.000000    0.000000    0.000000
  0.037454910  -31.745179   59.614956  -65.334747  -72.883469    0.000000    0.000000    0.000000    0.000000
  0.037655311  -31.677424   67.089676  -67.249864 -133.398422    0.000000    0.000000    0.000000    0.000000
  0.037855711  -31.342246   65.839699  -65.618810 -132.486984    0.000000    0.000000    0.000000    0.000000
  0.038056112  -31.517881   64.113655  -65.369720  -78.502907    0.000000    0.000000    0.000000    0.000000
  0.038256513  -31.024287   62.657333  -66.979693  -79.994003    0.000000    0.000000    0.000000    0.000000
  0.038456914  -30.936600   65.859810  -77.004708 -161.241226    0.000000    0.000000    0.000000    0.000000
  0.038657315  -30.723322   68.471710  -67.007903  -57.906693    0.000000    0.000000    0.000000    0.000000
  0.038857715  -30.850612   73.044533  -68.934928  -51.559265    0.000000    0.000000    0.000000    0.000000
  0.039058116  -30.865534   79.285423  -62.780694  -90.940735    0.000000    0.000000    0.000000    0.000000
  0.039258517  -30.966568   75.871574  -64.164413  -80.523300    0.000000    0.000000    0.000000    0.000000
  0.039458918  -32.317387   72.691345  -62.588352  -82.378853    0.000000    0.000000    0.000000    0.000000
  0.039659319  -31.196659   78.735497  -74.889130  -78.811256    0.000000    0.000000    0.000000    0.000000
  0.039859719  -31.885100   84.214531  -59.348719  -72.852142    0.000000    0.000000    0.000000    0.000000
  0.040060120  -30.560314   85.749573  -92.997852   42.270607    0.000000    0.000000    0.000000    0.000000
  0.040260521  -30.452299   85.466255  -64.439204  -73.713814    0.000000    0.000000    0.000000    0.000000
  0.040460922  -31.795995   82.408203  -78.386775 -158.316071    0.000000    0.000000    0.000000    0.000000
  0.040661323  -30.420074   87.167717  -61.883504  -85.315254    0.000000    0.000000    0.000000    0.000000
  0.040861723  -31.168640   90.831039  -60.541205  -41.172935    0.000000    0.000000    0.000000    0.000000
  0.041062124  -30.575883   89.893906  -64.360024  -27.518938    0.000000    0.000000    0.000000    0.000000
  0.041262525  -30.619596   89.706055  -78.420685  -65.795212    0.000000    0.000000    0.000000    0.000000
  0.041462926  -30.638544   92.498047  -63.396497  -60.605110    0.000000    0.000000    0.000000    0.000000
  0.041663327  -31.311039   95.760811  -60.637703  -69.905960    0.000000    0.000000    0.000000    0.000000
  0.041863727  -30.673430   90.104744  -64.769330  -69.652367    0.000000    0.000000    0.000000    0.000000
  0.042064128  -31.546023   95.638214  -71.359964 -140.939804    0.000000    0.000000    0.000000    0.000000
  0.042264529  -30.464491   95.827660  -61.817591  -72.342651    0.000000    0.000000    0.000000    0.000000
  0.042464930  -31.600434   93.781631  -63.762791  -56.141445    0.000000    0.000000    0.000000    0.000000
  0.042665331  -32.002265   88.988380  -66.748680  -62.417862    0.000000    0.000000    0.000000    0.000000
  0.042865731  -30.917388   97.983521  -62.307176  -74.475891    0.000000    0.000000    0.000000    0.000000
