! Anritsu VNA Master:                 Model: MS2034B/10/19/501
! SN:                                  1337062
! /bd0/ovro-jan-2016/dcp-ant256-z2-ant-avg16.s2p
! Existing Calibration Information:
! TYPE:                         Current Settings,       Active Cal Settings
! TIME:             	   01/12/2016 03:48:10 PM,    01/12/2016 03:37:40 PM
! INTERNAL TEMP:    	                   41.0 C,                    41.5 C
! # POINTS:         	                      500,                       500
! START FREQ:       	               10.000 MHz,                10.000 MHz
! STOP FREQ:        	              110.000 MHz,               110.000 MHz
! SOURCE POWER:     	                      Low,                       Low
! IFBW:             	                    1 kHz,                     1 kHz
! AVG FACTOR:       	                      16 ,                        4 
! REF PLANE 1:      	                 2.2245 m,                  2.2245 m
! REF PLANE 2:      	                     0 mm,                      0 mm
! CAL TYPE:         	                 Full S11,                  Full S11
! CAL METHOD:       	                     SOLT,                      SOLT
! CAL LINE TYPE:    	                     Coax,                      Coax
! DUT PORT 1:       	                K-Conn(M),                 K-Conn(M)
! DUT PORT 2:       	                N-Conn(M),                 N-Conn(M)
! CAL STATUS:       	        OK: Accuracy High,                        --
# GHZ S DB R 50.0
! FREQ.GHZ       S11DB        S11A       S21DB        S21A       S12DB        S12A       S22DB        S22A
  0.010000000   -0.692610  -17.551493  -64.377119 -155.817932    0.000000    0.000000    0.000000    0.000000
  0.010200401   -0.679470  -17.947966  -66.000712 -144.394058    0.000000    0.000000    0.000000    0.000000
  0.010400802   -0.690103  -18.463177  -67.783922 -161.697388    0.000000    0.000000    0.000000    0.000000
  0.010601202   -0.647503  -18.561991  -67.200656 -146.174637    0.000000    0.000000    0.000000    0.000000
  0.010801603   -0.726500  -19.164270  -66.377985 -167.749313    0.000000    0.000000    0.000000    0.000000
  0.011002004   -0.698045  -19.499409  -65.729326 -150.539505    0.000000    0.000000    0.000000    0.000000
  0.011202405   -0.673352  -19.720123  -65.716116 -154.561172    0.000000    0.000000    0.000000    0.000000
  0.011402806   -0.681707  -20.088646  -66.204358 -154.951385    0.000000    0.000000    0.000000    0.000000
  0.011603206   -0.715342  -20.726719  -67.051627 -138.566910    0.000000    0.000000    0.000000    0.000000
  0.011803607   -0.690923  -20.900436  -65.663396 -132.208099    0.000000    0.000000    0.000000    0.000000
  0.012004008   -0.668557  -22.026987  -63.297596 -143.989273    0.000000    0.000000    0.000000    0.000000
  0.012204409   -0.707635  -22.136784  -67.404919 -137.594315    0.000000    0.000000    0.000000    0.000000
  0.012404810   -0.719899  -22.350111  -67.359737 -142.386459    0.000000    0.000000    0.000000    0.000000
  0.012605210   -0.746871  -22.726675  -64.624776 -140.004623    0.000000    0.000000    0.000000    0.000000
  0.012805611   -0.670570  -23.363800  -67.204354 -136.748260    0.000000    0.000000    0.000000    0.000000
  0.013006012   -0.723762  -23.638300  -64.934373 -148.223145    0.000000    0.000000    0.000000    0.000000
  0.013206413   -0.682901  -23.924711  -63.447711 -144.477478    0.000000    0.000000    0.000000    0.000000
  0.013406814   -0.681897  -24.674248  -63.610444 -143.653137    0.000000    0.000000    0.000000    0.000000
  0.013607214   -0.723957  -25.202829  -65.312149 -136.095215    0.000000    0.000000    0.000000    0.000000
  0.013807615   -0.715664  -25.713491  -65.684713 -146.057343    0.000000    0.000000    0.000000    0.000000
  0.014008016   -0.776737  -25.816633  -63.435837 -140.667755    0.000000    0.000000    0.000000    0.000000
  0.014208417   -0.782468  -26.430353  -64.822759 -135.104904    0.000000    0.000000    0.000000    0.000000
  0.014408818   -0.711573  -27.052221  -66.373530 -154.239822    0.000000    0.000000    0.000000    0.000000
  0.014609218   -0.699772  -27.358223  -63.987592 -163.703583    0.000000    0.000000    0.000000    0.000000
  0.014809619   -0.743200  -27.931578  -66.122253 -138.883270    0.000000    0.000000    0.000000    0.000000
  0.015010020   -0.735473  -28.478439  -65.987650 -152.312683    0.000000    0.000000    0.000000    0.000000
  0.015210421   -0.716822  -28.774067  -67.556589 -153.159973    0.000000    0.000000    0.000000    0.000000
  0.015410822   -0.712898  -29.196686  -66.848087 -139.475815    0.000000    0.000000    0.000000    0.000000
  0.015611222   -0.761162  -29.924494  -65.229761 -157.822342    0.000000    0.000000    0.000000    0.000000
  0.015811623   -0.728093  -30.218510  -66.622283 -158.069489    0.000000    0.000000    0.000000    0.000000
  0.016012024   -0.743969  -30.705082  -67.106663 -152.288864    0.000000    0.000000    0.000000    0.000000
  0.016212425   -0.698378  -31.112991  -65.885230 -153.217529    0.000000    0.000000    0.000000    0.000000
  0.016412826   -0.736783  -31.720051  -65.579190 -151.853256    0.000000    0.000000    0.000000    0.000000
  0.016613226   -0.752088  -32.206345  -66.206591 -147.423386    0.000000    0.000000    0.000000    0.000000
  0.016813627   -0.797352  -33.067039  -66.690540 -160.570389    0.000000    0.000000    0.000000    0.000000
  0.017014028   -0.750237  -33.111000  -65.590667 -155.911148    0.000000    0.000000    0.000000    0.000000
  0.017214429   -0.767745  -33.632713  -65.747720 -145.297180    0.000000    0.000000    0.000000    0.000000
  0.017414830   -0.782163  -34.258850  -66.997970 -139.549332    0.000000    0.000000    0.000000    0.000000
  0.017615230   -0.786443  -34.628918  -67.855983 -157.757645    0.000000    0.000000    0.000000    0.000000
  0.017815631   -0.792716  -35.216244  -65.605069 -155.408264    0.000000    0.000000    0.000000    0.000000
  0.018016032   -0.793080  -35.867290  -66.080563 -135.291367    0.000000    0.000000    0.000000    0.000000
  0.018216433   -0.801238  -36.507149  -66.364971 -141.393936    0.000000    0.000000    0.000000    0.000000
  0.018416834   -0.846775  -36.861801  -64.803573 -147.574326    0.000000    0.000000    0.000000    0.000000
  0.018617234   -0.796361  -37.479053  -65.066236 -137.255295    0.000000    0.000000    0.000000    0.000000
  0.018817635   -0.839088  -37.513588  -64.180481 -132.497147    0.000000    0.000000    0.000000    0.000000
  0.019018036   -0.811173  -38.699596  -65.148984 -142.355621    0.000000    0.000000    0.000000    0.000000
  0.019218437   -0.810933  -38.875294  -65.192533 -131.267868    0.000000    0.000000    0.000000    0.000000
  0.019418838   -0.807765  -39.394806  -65.822036 -127.525818    0.000000    0.000000    0.000000    0.000000
  0.019619238   -0.825506  -40.264263  -65.391737 -130.989578    0.000000    0.000000    0.000000    0.000000
  0.019819639   -0.781191  -40.673622  -63.742650 -136.423782    0.000000    0.000000    0.000000    0.000000
  0.020020040   -0.844634  -41.068043  -64.217375 -139.505661    0.000000    0.000000    0.000000    0.000000
  0.020220441   -0.811322  -41.713146  -65.671248 -148.267471    0.000000    0.000000    0.000000    0.000000
  0.020420842   -0.815127  -42.136364  -64.084135 -123.987534    0.000000    0.000000    0.000000    0.000000
  0.020621242   -0.842307  -42.870861  -65.300351 -139.801514    0.000000    0.000000    0.000000    0.000000
  0.020821643   -0.815503  -43.517239  -63.263170 -127.735367    0.000000    0.000000    0.000000    0.000000
  0.021022044   -0.868861  -44.374149  -66.504687 -140.834885    0.000000    0.000000    0.000000    0.000000
  0.021222445   -0.824802  -44.792130  -66.022522 -121.628265    0.000000    0.000000    0.000000    0.000000
  0.021422846   -0.863717  -45.565334  -64.732548 -111.786179    0.000000    0.000000    0.000000    0.000000
  0.021623246   -0.874108  -46.182899  -65.420044 -126.073677    0.000000    0.000000    0.000000    0.000000
  0.021823647   -0.914920  -46.726570  -64.746133 -133.055435    0.000000    0.000000    0.000000    0.000000
  0.022024048   -0.880625  -47.566086  -64.951301 -126.430191    0.000000    0.000000    0.000000    0.000000
  0.022224449   -0.904891  -48.094666  -64.452817 -126.217468    0.000000    0.000000    0.000000    0.000000
  0.022424850   -0.904947  -48.688881  -64.899149 -132.909760    0.000000    0.000000    0.000000    0.000000
  0.022625251   -0.933045  -49.592831  -64.951151 -123.032349    0.000000    0.000000    0.000000    0.000000
  0.022825651   -0.949043  -50.240425  -63.445484 -134.038406    0.000000    0.000000    0.000000    0.000000
  0.023026052   -0.929314  -50.956375  -65.525996 -137.088638    0.000000    0.000000    0.000000    0.000000
  0.023226453   -0.917638  -51.846100  -65.628067 -126.583527    0.000000    0.000000    0.000000    0.000000
  0.023426854   -0.921386  -52.331665  -64.003308 -121.025940    0.000000    0.000000    0.000000    0.000000
  0.023627255   -0.934841  -53.407967  -66.235877 -136.244690    0.000000    0.000000    0.000000    0.000000
  0.023827655   -0.966255  -54.088791  -65.704621 -133.865280    0.000000    0.000000    0.000000    0.000000
  0.024028056   -0.971832  -54.926281  -65.449486 -140.328293    0.000000    0.000000    0.000000    0.000000
  0.024228457   -0.992096  -55.701351  -64.866247 -140.541824    0.000000    0.000000    0.000000    0.000000
  0.024428858   -1.007587  -56.287533  -65.312008 -128.836670    0.000000    0.000000    0.000000    0.000000
  0.024629259   -1.019340  -57.037823  -66.783255 -125.274170    0.000000    0.000000    0.000000    0.000000
  0.024829659   -1.001121  -58.003872  -65.769922 -117.541107    0.000000    0.000000    0.000000    0.000000
  0.025030060   -1.059734  -58.667618  -67.295641 -106.737442    0.000000    0.000000    0.000000    0.000000
  0.025230461   -1.047080  -59.742886  -67.052536 -101.885124    0.000000    0.000000    0.000000    0.000000
  0.025430862   -0.990952  -60.387150  -65.821887 -117.245613    0.000000    0.000000    0.000000    0.000000
  0.025631263   -1.064419  -61.439247  -65.575211 -116.205849    0.000000    0.000000    0.000000    0.000000
  0.025831663   -1.068951  -62.236835  -64.439933 -113.236206    0.000000    0.000000    0.000000    0.000000
  0.026032064   -1.149688  -63.288498  -66.912502 -105.481873    0.000000    0.000000    0.000000    0.000000
  0.026232465   -1.067984  -63.931549  -66.861547 -105.524109    0.000000    0.000000    0.000000    0.000000
  0.026432866   -1.091814  -65.201164  -67.272283  -97.456032    0.000000    0.000000    0.000000    0.000000
  0.026633267   -1.082358  -66.393707  -65.564774 -109.020935    0.000000    0.000000    0.000000    0.000000
  0.026833667   -1.052186  -66.392746  -64.632240  -89.024536    0.000000    0.000000    0.000000    0.000000
  0.027034068   -1.115490  -67.452614  -65.686489  -98.797180    0.000000    0.000000    0.000000    0.000000
  0.027234469   -1.136482  -68.323654  -65.208707  -84.388062    0.000000    0.000000    0.000000    0.000000
  0.027434870   -1.198952  -69.273407  -66.275823  -89.467903    0.000000    0.000000    0.000000    0.000000
  0.027635271   -1.159519  -70.408470  -64.357520  -89.168564    0.000000    0.000000    0.000000    0.000000
  0.027835671   -1.169803  -71.188934  -65.233246  -86.115829    0.000000    0.000000    0.000000    0.000000
  0.028036072   -1.239206  -71.648933  -65.818590 -101.551590    0.000000    0.000000    0.000000    0.000000
  0.028236473   -1.213498  -73.178200  -64.957364  -81.158241    0.000000    0.000000    0.000000    0.000000
  0.028436874   -1.252166  -73.879250  -66.350252 -104.278358    0.000000    0.000000    0.000000    0.000000
  0.028637275   -1.250656  -74.841507  -64.151733 -100.769127    0.000000    0.000000    0.000000    0.000000
  0.028837675   -1.300849  -75.876770  -67.998311  -91.495483    0.000000    0.000000    0.000000    0.000000
  0.029038076   -1.281570  -77.185356  -66.009116  -95.029251    0.000000    0.000000    0.000000    0.000000
  0.029238477   -1.367578  -77.666183  -65.362362  -84.570518    0.000000    0.000000    0.000000    0.000000
  0.029438878   -1.321889  -79.276604  -63.656162  -86.079346    0.000000    0.000000    0.000000    0.000000
  0.029639279   -1.399500  -80.519409  -63.842382 -102.057381    0.000000    0.000000    0.000000    0.000000
  0.029839679   -1.453611  -80.589119  -64.566238  -95.952141    0.000000    0.000000    0.000000    0.000000
  0.030040080   -1.457888  -81.934418  -65.986394  -96.735870    0.000000    0.000000    0.000000    0.000000
  0.030240481   -1.430760  -83.286125  -66.812161  -93.364365    0.000000    0.000000    0.000000    0.000000
  0.030440882   -1.547603  -84.388237  -65.405578  -99.265350    0.000000    0.000000    0.000000    0.000000
  0.030641283   -1.511624  -85.555428  -64.912160  -94.221397    0.000000    0.000000    0.000000    0.000000
  0.030841683   -1.564404  -86.699310  -65.910045  -88.327614    0.000000    0.000000    0.000000    0.000000
  0.031042084   -1.542916  -87.371162  -64.858175  -98.288643    0.000000    0.000000    0.000000    0.000000
  0.031242485   -1.592919  -88.682312  -63.829829 -102.673080    0.000000    0.000000    0.000000    0.000000
  0.031442886   -1.640958  -90.249519  -66.238885  -93.640823    0.000000    0.000000    0.000000    0.000000
  0.031643287   -1.676095  -91.102371  -66.983654 -113.159355    0.000000    0.000000    0.000000    0.000000
  0.031843687   -1.766811  -92.691719  -65.072775  -93.403236    0.000000    0.000000    0.000000    0.000000
  0.032044088   -1.765238  -93.591927  -66.810721  -99.229607    0.000000    0.000000    0.000000    0.000000
  0.032244489   -1.805962  -95.125427  -66.024667 -104.619118    0.000000    0.000000    0.000000    0.000000
  0.032444890   -1.771682  -95.860924  -67.410792  -97.841446    0.000000    0.000000    0.000000    0.000000
  0.032645291   -1.896478  -97.365532  -66.057578  -93.113503    0.000000    0.000000    0.000000    0.000000
  0.032845691   -1.914774  -98.409386  -64.574298 -100.510239    0.000000    0.000000    0.000000    0.000000
  0.033046092   -1.935417 -100.160629  -68.032126  -93.748215    0.000000    0.000000    0.000000    0.000000
  0.033246493   -2.004525 -101.136482  -66.843510  -92.156898    0.000000    0.000000    0.000000    0.000000
  0.033446894   -2.035578 -102.542267  -67.301665 -107.423508    0.000000    0.000000    0.000000    0.000000
  0.033647295   -2.024121 -103.756927  -65.547103  -95.219337    0.000000    0.000000    0.000000    0.000000
  0.033847695   -2.112972 -105.565155  -66.621026 -102.964577    0.000000    0.000000    0.000000    0.000000
  0.034048096   -2.174408 -106.649147  -66.165863 -106.668571    0.000000    0.000000    0.000000    0.000000
  0.034248497   -2.193791 -108.238556  -66.160105  -88.630005    0.000000    0.000000    0.000000    0.000000
  0.034448898   -2.269378 -109.432671  -65.455525  -87.743622    0.000000    0.000000    0.000000    0.000000
  0.034649299   -2.307431 -110.583176  -63.866537  -79.188011    0.000000    0.000000    0.000000    0.000000
  0.034849699   -2.316515 -112.017296  -68.134268  -80.162827    0.000000    0.000000    0.000000    0.000000
  0.035050100   -2.358474 -113.417671  -64.883515  -83.051018    0.000000    0.000000    0.000000    0.000000
  0.035250501   -2.413152 -114.632240  -65.248994  -95.066330    0.000000    0.000000    0.000000    0.000000
  0.035450902   -2.473554 -116.430534  -65.897316  -75.440315    0.000000    0.000000    0.000000    0.000000
  0.035651303   -2.479089 -117.614929  -65.124216  -80.049149    0.000000    0.000000    0.000000    0.000000
  0.035851703   -2.530013 -118.928413  -63.721534  -93.328903    0.000000    0.000000    0.000000    0.000000
  0.036052104   -2.599264 -119.989784  -63.620612  -75.297020    0.000000    0.000000    0.000000    0.000000
  0.036252505   -2.635326 -121.886490  -63.342988  -85.215637    0.000000    0.000000    0.000000    0.000000
  0.036452906   -2.702756 -123.006516  -64.595114  -81.645714    0.000000    0.000000    0.000000    0.000000
  0.036653307   -2.759496 -124.238968  -63.649178  -88.841629    0.000000    0.000000    0.000000    0.000000
  0.036853707   -2.767705 -125.679047  -64.509329  -76.750931    0.000000    0.000000    0.000000    0.000000
  0.037054108   -2.818356 -126.992355  -65.534447  -88.862671    0.000000    0.000000    0.000000    0.000000
  0.037254509   -2.899807 -128.584122  -67.058377  -80.959679    0.000000    0.000000    0.000000    0.000000
  0.037454910   -2.900819 -129.671478  -64.569717  -79.927597    0.000000    0.000000    0.000000    0.000000
  0.037655311   -2.962946 -131.303543  -65.003733  -81.623322    0.000000    0.000000    0.000000    0.000000
  0.037855711   -2.982915 -132.218643  -64.852618  -71.123741    0.000000    0.000000    0.000000    0.000000
  0.038056112   -3.049357 -133.974319  -64.664447  -75.672752    0.000000    0.000000    0.000000    0.000000
  0.038256513   -3.126578 -135.037750  -64.395697  -89.059639    0.000000    0.000000    0.000000    0.000000
  0.038456914   -3.176048 -136.599884  -66.511355  -85.706467    0.000000    0.000000    0.000000    0.000000
  0.038657315   -3.244390 -137.763947  -64.362792  -75.906807    0.000000    0.000000    0.000000    0.000000
  0.038857715   -3.281035 -138.933411  -64.335345  -81.197868    0.000000    0.000000    0.000000    0.000000
  0.039058116   -3.333036 -140.353241  -64.519332  -78.999901    0.000000    0.000000    0.000000    0.000000
  0.039258517   -3.355541 -141.723450  -65.779608  -60.377327    0.000000    0.000000    0.000000    0.000000
  0.039458918   -3.431138 -142.958649  -63.476484  -75.092834    0.000000    0.000000    0.000000    0.000000
  0.039659319   -3.473737 -144.015564  -66.637836  -84.837479    0.000000    0.000000    0.000000    0.000000
  0.039859719   -3.498473 -145.435043  -65.269548  -70.639709    0.000000    0.000000    0.000000    0.000000
  0.040060120   -3.553892 -146.936798  -67.081403  -81.061646    0.000000    0.000000    0.000000    0.000000
  0.040260521   -3.639723 -148.107468  -66.364888  -66.435936    0.000000    0.000000    0.000000    0.000000
  0.040460922   -3.630067 -149.277405  -65.172708  -80.472359    0.000000    0.000000    0.000000    0.000000
  0.040661323   -3.717277 -150.673737  -65.909677  -77.219841    0.000000    0.000000    0.000000    0.000000
  0.040861723   -3.742447 -152.014313  -64.488308  -87.083717    0.000000    0.000000    0.000000    0.000000
  0.041062124   -3.793604 -153.279892  -64.589868  -72.235100    0.000000    0.000000    0.000000    0.000000
  0.041262525   -3.829624 -154.423798  -66.586059  -71.640121    0.000000    0.000000    0.000000    0.000000
  0.041462926   -3.929166 -155.528229  -65.690772  -77.414246    0.000000    0.000000    0.000000    0.000000
  0.041663327   -3.960768 -156.857300  -65.951364  -77.895592    0.000000    0.000000    0.000000    0.000000
  0.041863727   -3.959720 -158.210464  -64.489960  -57.558102    0.000000    0.000000    0.000000    0.000000
  0.042064128   -4.024234 -159.185196  -65.175172  -62.573936    0.000000    0.000000    0.000000    0.000000
  0.042264529   -4.048988 -160.455856  -63.880149  -65.339180    0.000000    0.000000    0.000000    0.000000
  0.042464930   -4.115582 -161.406174  -67.561447  -62.691296    0.000000    0.000000    0.000000    0.000000
  0.042665331   -4.139603 -162.500809  -64.632343  -65.399063    0.000000    0.000000    0.000000    0.000000
  0.042865731   -4.183538 -164.061172  -65.388278  -51.759514    0.000000    0.000000    0.000000    0.000000
