! Anritsu VNA Master:                 Model: MS2034B/10/19/501
! SN:                                  1337062
! /bd0/ovro-jan-2016/dcp3-b2-balun-short.s2p
! Existing Calibration Information:
! TYPE:                         Current Settings,       Active Cal Settings
! TIME:             	   01/14/2016 12:52:28 PM,    01/14/2016 12:01:10 PM
! INTERNAL TEMP:    	                   42.5 C,                    43.8 C
! # POINTS:         	                      500,                       500
! START FREQ:       	               10.000 MHz,                10.000 MHz
! STOP FREQ:        	              110.000 MHz,               110.000 MHz
! SOURCE POWER:     	                     High,                      High
! IFBW:             	                   100 Hz,                    100 Hz
! AVG FACTOR:       	                       4 ,                        4 
! REF PLANE 1:      	                     0 mm,                      0 mm
! REF PLANE 2:      	                     0 mm,                      0 mm
! CAL TYPE:         	                 Full S11,                  Full S11
! CAL METHOD:       	                     SOLT,                      SOLT
! CAL LINE TYPE:    	                     Coax,                      Coax
! DUT PORT 1:       	                K-Conn(M),                 K-Conn(M)
! DUT PORT 2:       	                N-Conn(M),                 N-Conn(M)
! CAL STATUS:       	        OK: Accuracy High,                        --
# GHZ S DB R 50.0
! FREQ.GHZ       S11DB        S11A       S21DB        S21A       S12DB        S12A       S22DB        S22A
  0.010000000   -0.194113  174.384048 -103.623109  122.865799    0.000000    0.000000    0.000000    0.000000
  0.010200401   -0.198402  174.293365 -105.285085  131.115219    0.000000    0.000000    0.000000    0.000000
  0.010400802   -0.202545  174.208313 -104.876668  135.168915    0.000000    0.000000    0.000000    0.000000
  0.010601202   -0.205686  174.073517 -105.572942  125.065475    0.000000    0.000000    0.000000    0.000000
  0.010801603   -0.210782  173.968567 -104.813080  128.372849    0.000000    0.000000    0.000000    0.000000
  0.011002004   -0.205616  173.876297 -106.090111  130.368469    0.000000    0.000000    0.000000    0.000000
  0.011202405   -0.208526  173.774399 -104.189176  136.423218    0.000000    0.000000    0.000000    0.000000
  0.011402806   -0.209693  173.697693 -105.876599  131.971039    0.000000    0.000000    0.000000    0.000000
  0.011603206   -0.213064  173.565598 -104.854162  126.701797    0.000000    0.000000    0.000000    0.000000
  0.011803607   -0.214139  173.475037 -105.266056  129.383865    0.000000    0.000000    0.000000    0.000000
  0.012004008   -0.210684  173.393143 -107.157729  128.449081    0.000000    0.000000    0.000000    0.000000
  0.012204409   -0.215711  173.292786 -105.398581  129.152344    0.000000    0.000000    0.000000    0.000000
  0.012404810   -0.215869  173.161118 -105.995336  133.620972    0.000000    0.000000    0.000000    0.000000
  0.012605210   -0.217821  173.057129 -105.916993  135.283829    0.000000    0.000000    0.000000    0.000000
  0.012805611   -0.223174  172.946808 -106.667936  131.119339    0.000000    0.000000    0.000000    0.000000
  0.013006012   -0.219841  172.844055 -106.152460  129.034683    0.000000    0.000000    0.000000    0.000000
  0.013206413   -0.226084  172.757797 -107.080174  133.801544    0.000000    0.000000    0.000000    0.000000
  0.013406814   -0.225093  172.635986 -106.457414  134.633774    0.000000    0.000000    0.000000    0.000000
  0.013607214   -0.227910  172.536774 -107.744778  138.874527    0.000000    0.000000    0.000000    0.000000
  0.013807615   -0.227168  172.434418 -106.407169  142.993118    0.000000    0.000000    0.000000    0.000000
  0.014008016   -0.229523  172.325638 -106.259524  133.572952    0.000000    0.000000    0.000000    0.000000
  0.014208417   -0.230749  172.223373 -107.679480  128.619644    0.000000    0.000000    0.000000    0.000000
  0.014408818   -0.229735  172.140915 -107.406681  123.184799    0.000000    0.000000    0.000000    0.000000
  0.014609218   -0.231613  172.020264 -106.892108  131.654953    0.000000    0.000000    0.000000    0.000000
  0.014809619   -0.233913  171.918457 -107.455917  137.008820    0.000000    0.000000    0.000000    0.000000
  0.015010020   -0.233835  171.815002 -106.834454  136.254379    0.000000    0.000000    0.000000    0.000000
  0.015210421   -0.235574  171.710571 -108.434411  129.960556    0.000000    0.000000    0.000000    0.000000
  0.015410822   -0.235834  171.617920 -107.684824  133.518890    0.000000    0.000000    0.000000    0.000000
  0.015611222   -0.237229  171.516205 -108.563028  129.867844    0.000000    0.000000    0.000000    0.000000
  0.015811623   -0.236921  171.396469 -108.335468  132.159531    0.000000    0.000000    0.000000    0.000000
  0.016012024   -0.239229  171.315170 -108.059816  135.891632    0.000000    0.000000    0.000000    0.000000
  0.016212425   -0.240214  171.214722 -108.013634  137.923309    0.000000    0.000000    0.000000    0.000000
  0.016412826   -0.241985  171.106232 -107.580614  136.945496    0.000000    0.000000    0.000000    0.000000
  0.016613226   -0.241167  171.024490 -106.873886  124.936089    0.000000    0.000000    0.000000    0.000000
  0.016813627   -0.243261  170.903168 -106.854734  137.931808    0.000000    0.000000    0.000000    0.000000
  0.017014028   -0.246121  170.816391 -108.703252  144.013168    0.000000    0.000000    0.000000    0.000000
  0.017214429   -0.245298  170.727814 -107.282912  135.890961    0.000000    0.000000    0.000000    0.000000
  0.017414830   -0.247768  170.631302 -109.282810  140.880783    0.000000    0.000000    0.000000    0.000000
  0.017615230   -0.248352  170.537735 -107.354333  140.702011    0.000000    0.000000    0.000000    0.000000
  0.017815631   -0.247249  170.433029 -107.700706  141.596222    0.000000    0.000000    0.000000    0.000000
  0.018016032   -0.249646  170.327316 -108.458622  145.232086    0.000000    0.000000    0.000000    0.000000
  0.018216433   -0.251376  170.237762 -108.525986  147.186005    0.000000    0.000000    0.000000    0.000000
  0.018416834   -0.253251  170.149323 -107.709832  142.745087    0.000000    0.000000    0.000000    0.000000
  0.018617234   -0.254454  170.045227 -108.693999  145.682297    0.000000    0.000000    0.000000    0.000000
  0.018817635   -0.256990  169.945801 -108.199780  153.232361    0.000000    0.000000    0.000000    0.000000
  0.019018036   -0.258502  169.851990 -108.608078  148.974594    0.000000    0.000000    0.000000    0.000000
  0.019218437   -0.259647  169.749283 -106.533499  141.496552    0.000000    0.000000    0.000000    0.000000
  0.019418838   -0.262435  169.653046 -108.798272  139.525360    0.000000    0.000000    0.000000    0.000000
  0.019619238   -0.265413  169.555527 -108.905675  138.177261    0.000000    0.000000    0.000000    0.000000
  0.019819639   -0.267065  169.460251 -109.230135  155.144409    0.000000    0.000000    0.000000    0.000000
  0.020020040   -0.268568  169.348099 -108.281677  150.096588    0.000000    0.000000    0.000000    0.000000
  0.020220441   -0.271139  169.238953 -109.283746  145.828018    0.000000    0.000000    0.000000    0.000000
  0.020420842   -0.272850  169.138565 -110.031930  142.834122    0.000000    0.000000    0.000000    0.000000
  0.020621242   -0.273818  169.035812 -107.588165  147.025513    0.000000    0.000000    0.000000    0.000000
  0.020821643   -0.276905  168.927811 -107.801294  149.396652    0.000000    0.000000    0.000000    0.000000
  0.021022044   -0.280331  168.825012 -107.915692  141.474640    0.000000    0.000000    0.000000    0.000000
  0.021222445   -0.280837  168.726608 -108.599212  147.013046    0.000000    0.000000    0.000000    0.000000
  0.021422846   -0.283015  168.625656 -108.415525  137.208862    0.000000    0.000000    0.000000    0.000000
  0.021623246   -0.283372  168.508850 -108.039500  157.935730    0.000000    0.000000    0.000000    0.000000
  0.021823647   -0.283975  168.400558 -106.714642  142.655304    0.000000    0.000000    0.000000    0.000000
  0.022024048   -0.286539  168.301987 -108.311367  143.403961    0.000000    0.000000    0.000000    0.000000
  0.022224449   -0.287463  168.188553 -107.537109  143.582336    0.000000    0.000000    0.000000    0.000000
  0.022424850   -0.288762  168.081268 -108.242631  150.859680    0.000000    0.000000    0.000000    0.000000
  0.022625251   -0.289743  167.969025 -107.381985  149.270905    0.000000    0.000000    0.000000    0.000000
  0.022825651   -0.290635  167.866898 -106.952568  140.529007    0.000000    0.000000    0.000000    0.000000
  0.023026052   -0.289261  167.755035 -107.267067  132.287491    0.000000    0.000000    0.000000    0.000000
  0.023226453   -0.291761  167.646835 -107.853297  148.271103    0.000000    0.000000    0.000000    0.000000
  0.023426854   -0.291467  167.556076 -107.526389  145.544800    0.000000    0.000000    0.000000    0.000000
  0.023627255   -0.291365  167.436737 -107.810415  146.821396    0.000000    0.000000    0.000000    0.000000
  0.023827655   -0.290975  167.319763 -107.942033  151.966400    0.000000    0.000000    0.000000    0.000000
  0.024028056   -0.291427  167.223236 -106.580060  141.679077    0.000000    0.000000    0.000000    0.000000
  0.024228457   -0.290688  167.127365 -106.525533  141.565002    0.000000    0.000000    0.000000    0.000000
  0.024428858   -0.290482  167.038757 -106.812051  150.716949    0.000000    0.000000    0.000000    0.000000
  0.024629259   -0.291053  166.927216 -108.349098  138.048080    0.000000    0.000000    0.000000    0.000000
  0.024829659   -0.287057  166.823822 -109.228514  145.911835    0.000000    0.000000    0.000000    0.000000
  0.025030060   -0.288889  166.732025 -108.629671  141.644669    0.000000    0.000000    0.000000    0.000000
  0.025230461   -0.288439  166.611343 -108.566448  133.208694    0.000000    0.000000    0.000000    0.000000
  0.025430862   -0.287307  166.515335 -106.595109  136.470459    0.000000    0.000000    0.000000    0.000000
  0.025631263   -0.287727  166.419037 -106.974459  137.283783    0.000000    0.000000    0.000000    0.000000
  0.025831663   -0.285209  166.311127 -107.991346  142.707748    0.000000    0.000000    0.000000    0.000000
  0.026032064   -0.286434  166.225464 -108.695357  148.679779    0.000000    0.000000    0.000000    0.000000
  0.026232465   -0.284864  166.145386 -107.469790  139.222931    0.000000    0.000000    0.000000    0.000000
  0.026432866   -0.287560  166.027084 -106.418158  141.202179    0.000000    0.000000    0.000000    0.000000
  0.026633267   -0.286129  165.924759 -107.002843  138.395004    0.000000    0.000000    0.000000    0.000000
  0.026833667   -0.284167  165.840286 -107.915273  148.234909    0.000000    0.000000    0.000000    0.000000
  0.027034068   -0.284996  165.741074 -106.446626  139.836639    0.000000    0.000000    0.000000    0.000000
  0.027234469   -0.286736  165.654251 -107.968982  147.073227    0.000000    0.000000    0.000000    0.000000
  0.027434870   -0.288267  165.577057 -107.957713  149.283463    0.000000    0.000000    0.000000    0.000000
  0.027635271   -0.290568  165.461487 -107.345670  135.092392    0.000000    0.000000    0.000000    0.000000
  0.027835671   -0.291327  165.363327 -106.952226  137.541931    0.000000    0.000000    0.000000    0.000000
  0.028036072   -0.285143  165.273544 -107.941310  145.028091    0.000000    0.000000    0.000000    0.000000
  0.028236473   -0.289590  165.178772 -106.690685  144.788681    0.000000    0.000000    0.000000    0.000000
  0.028436874   -0.295340  165.077774 -106.429449  140.665390    0.000000    0.000000    0.000000    0.000000
  0.028637275   -0.297614  164.992950 -105.829120  140.112671    0.000000    0.000000    0.000000    0.000000
  0.028837675   -0.297222  164.872925 -107.573164  136.062225    0.000000    0.000000    0.000000    0.000000
  0.029038076   -0.298485  164.777466 -106.536633  134.913666    0.000000    0.000000    0.000000    0.000000
  0.029238477   -0.299671  164.721863 -107.201486  135.744034    0.000000    0.000000    0.000000    0.000000
  0.029438878   -0.300654  164.604462 -106.543342  141.358887    0.000000    0.000000    0.000000    0.000000
  0.029639279   -0.300348  164.519592 -105.944508  142.254761    0.000000    0.000000    0.000000    0.000000
  0.029839679   -0.302483  164.409927 -107.244178  150.072128    0.000000    0.000000    0.000000    0.000000
  0.030040080   -0.306159  164.296951 -106.060879  137.292480    0.000000    0.000000    0.000000    0.000000
  0.030240481   -0.305657  164.204529 -107.385419  138.605545    0.000000    0.000000    0.000000    0.000000
  0.030440882   -0.303475  164.135880 -106.112442  131.283539    0.000000    0.000000    0.000000    0.000000
  0.030641283   -0.308245  164.011490 -107.438036  144.585236    0.000000    0.000000    0.000000    0.000000
  0.030841683   -0.311654  163.904938 -106.341375  139.713028    0.000000    0.000000    0.000000    0.000000
  0.031042084   -0.311297  163.815170 -106.044643  137.140701    0.000000    0.000000    0.000000    0.000000
  0.031242485   -0.312990  163.691528 -105.602055  138.242981    0.000000    0.000000    0.000000    0.000000
  0.031442886   -0.313321  163.608444 -106.158284  135.499710    0.000000    0.000000    0.000000    0.000000
  0.031643287   -0.315655  163.524994 -105.095317  143.076187    0.000000    0.000000    0.000000    0.000000
  0.031843687   -0.314429  163.405045 -105.982731  136.319809    0.000000    0.000000    0.000000    0.000000
  0.032044088   -0.323347  163.317307 -105.059674  138.360062    0.000000    0.000000    0.000000    0.000000
  0.032244489   -0.312236  163.210388 -105.731099  141.521011    0.000000    0.000000    0.000000    0.000000
  0.032444890   -0.317098  163.085526 -106.986296  137.993729    0.000000    0.000000    0.000000    0.000000
  0.032645291   -0.317312  163.007614 -106.510198  147.270248    0.000000    0.000000    0.000000    0.000000
  0.032845691   -0.323617  162.895248 -105.121098  137.220840    0.000000    0.000000    0.000000    0.000000
  0.033046092   -0.321299  162.796097 -105.445676  141.126099    0.000000    0.000000    0.000000    0.000000
  0.033246493   -0.320928  162.711823 -106.757411  145.992905    0.000000    0.000000    0.000000    0.000000
  0.033446894   -0.322846  162.613876 -106.520784  140.013290    0.000000    0.000000    0.000000    0.000000
  0.033647295   -0.322610  162.529297 -106.640819  146.453186    0.000000    0.000000    0.000000    0.000000
  0.033847695   -0.326324  162.419449 -106.547879  137.899109    0.000000    0.000000    0.000000    0.000000
  0.034048096   -0.326816  162.314178 -106.229598  151.220367    0.000000    0.000000    0.000000    0.000000
  0.034248497   -0.328174  162.221695 -106.585931  140.936935    0.000000    0.000000    0.000000    0.000000
  0.034448898   -0.327938  162.127228 -105.599360  140.144150    0.000000    0.000000    0.000000    0.000000
  0.034649299   -0.328415  162.017273 -106.160480  146.467285    0.000000    0.000000    0.000000    0.000000
  0.034849699   -0.328921  161.922379 -105.834087  128.087967    0.000000    0.000000    0.000000    0.000000
  0.035050100   -0.329586  161.819885 -106.456838  139.278732    0.000000    0.000000    0.000000    0.000000
  0.035250501   -0.330995  161.733917 -107.261228  143.537933    0.000000    0.000000    0.000000    0.000000
  0.035450902   -0.330803  161.641434 -107.550589  148.726898    0.000000    0.000000    0.000000    0.000000
  0.035651303   -0.331783  161.539841 -106.026570  144.021362    0.000000    0.000000    0.000000    0.000000
  0.035851703   -0.334446  161.426224 -105.747239  135.498215    0.000000    0.000000    0.000000    0.000000
  0.036052104   -0.335868  161.351807 -105.047551  146.851074    0.000000    0.000000    0.000000    0.000000
  0.036252505   -0.335185  161.259155 -106.479939  140.096146    0.000000    0.000000    0.000000    0.000000
  0.036452906   -0.336921  161.162460 -107.312681  145.537033    0.000000    0.000000    0.000000    0.000000
  0.036653307   -0.334966  161.062576 -105.292984  143.845047    0.000000    0.000000    0.000000    0.000000
  0.036853707   -0.336233  160.958939 -105.277122  139.825455    0.000000    0.000000    0.000000    0.000000
  0.037054108   -0.338312  160.872696 -104.463816  144.569473    0.000000    0.000000    0.000000    0.000000
  0.037254509   -0.339251  160.762299 -105.056217  146.042114    0.000000    0.000000    0.000000    0.000000
  0.037454910   -0.340899  160.686539 -106.275737  139.990067    0.000000    0.000000    0.000000    0.000000
  0.037655311   -0.342084  160.581894 -107.220780  141.021988    0.000000    0.000000    0.000000    0.000000
  0.037855711   -0.342137  160.482025 -105.529765  142.601669    0.000000    0.000000    0.000000    0.000000
  0.038056112   -0.343957  160.394089 -105.751768  135.789459    0.000000    0.000000    0.000000    0.000000
  0.038256513   -0.345901  160.293152 -105.274864  134.131271    0.000000    0.000000    0.000000    0.000000
  0.038456914   -0.348007  160.197556 -106.422470  133.668167    0.000000    0.000000    0.000000    0.000000
  0.038657315   -0.347519  160.099625 -105.638007  143.396332    0.000000    0.000000    0.000000    0.000000
  0.038857715   -0.349793  160.005280 -106.782222  141.409485    0.000000    0.000000    0.000000    0.000000
  0.039058116   -0.352227  159.901688 -106.098786  140.421906    0.000000    0.000000    0.000000    0.000000
  0.039258517   -0.354475  159.799179 -106.377587  150.730988    0.000000    0.000000    0.000000    0.000000
  0.039458918   -0.355900  159.701874 -105.683681  136.737198    0.000000    0.000000    0.000000    0.000000
  0.039659319   -0.355379  159.605240 -105.245688  141.162186    0.000000    0.000000    0.000000    0.000000
  0.039859719   -0.357446  159.497055 -106.768690  146.601791    0.000000    0.000000    0.000000    0.000000
  0.040060120   -0.358978  159.396484 -105.038389  145.793549    0.000000    0.000000    0.000000    0.000000
  0.040260521   -0.358292  159.293732 -104.634494  140.797897    0.000000    0.000000    0.000000    0.000000
  0.040460922   -0.360381  159.194443 -106.185107  152.468491    0.000000    0.000000    0.000000    0.000000
  0.040661323   -0.361016  159.100754 -106.075160  147.269119    0.000000    0.000000    0.000000    0.000000
  0.040861723   -0.364697  158.993759 -107.102221  144.589172    0.000000    0.000000    0.000000    0.000000
  0.041062124   -0.367280  158.883514 -105.823503  148.025192    0.000000    0.000000    0.000000    0.000000
  0.041262525   -0.365756  158.783081 -104.958627  144.782166    0.000000    0.000000    0.000000    0.000000
  0.041462926   -0.367366  158.679855 -105.126043  143.583740    0.000000    0.000000    0.000000    0.000000
  0.041663327   -0.370264  158.572861 -106.086373  149.912109    0.000000    0.000000    0.000000    0.000000
  0.041863727   -0.368893  158.480316 -104.813629  137.807251    0.000000    0.000000    0.000000    0.000000
  0.042064128   -0.368358  158.360855 -104.456915  143.130524    0.000000    0.000000    0.000000    0.000000
  0.042264529   -0.367918  158.271378 -108.168291  136.795517    0.000000    0.000000    0.000000    0.000000
  0.042464930   -0.371632  158.155792 -107.245856  144.478165    0.000000    0.000000    0.000000    0.000000
  0.042665331   -0.370778  158.062546 -106.795294  142.527390    0.000000    0.000000    0.000000    0.000000
  0.042865731   -0.373874  157.944656 -105.519689  135.095520    0.000000    0.000000    0.000000    0.000000
