! Anritsu VNA Master:                     Model: MS2036C/10/77
! SN:                                  1601066
! /card0/usr/18may12.lna.rl/252a.lna.rl.redo.s2p
! Existing Calibration Information:
! TYPE:                         Current Settings,       Active Cal Settings
! TIME:             	   05/13/2018 10:41:16 AM,    05/13/2018 10:34:45 AM
! INTERNAL TEMP:    	                   46.0 C,                    46.0 C
! # POINTS:         	                      500,                       500
! START FREQ:       	               20.000 MHz,                20.000 MHz
! STOP FREQ:        	              120.000 MHz,               120.000 MHz
! SOURCE POWER:     	                      Low,                       Low
! IFBW:             	                    10 Hz,                     10 Hz
! AVG FACTOR:       	                       1 ,                        1 
! REF PLANE 1:      	                     0 mm,                      0 mm
! REF PLANE 2:      	                     0 mm,                      0 mm
! CAL TYPE:         	                 Full S22,                  Full S22
! CAL METHOD:       	                     SOLT,                      SOLT
! CAL LINE TYPE:    	                     Coax,                      Coax
! DUT PORT 1:       	                K-Conn(M),                 K-Conn(M)
! DUT PORT 2:       	                K-Conn(M),                 K-Conn(M)
! CAL STATUS:       	        OK: Accuracy High,                        --
# GHZ S DB R 50.0
! FREQ.GHZ       S11DB        S11A       S21DB        S21A       S12DB        S12A       S22DB        S22A
  0.020000000    0.000000    0.000000    0.000000    0.000000  -83.263324   79.813629  -21.437674   42.302067
  0.020200401    0.000000    0.000000    0.000000    0.000000  -82.653329   77.142723  -21.439058   39.423332
  0.020400802    0.000000    0.000000    0.000000    0.000000  -83.279537   61.145912  -21.375262   37.747746
  0.020601202    0.000000    0.000000    0.000000    0.000000  -81.547702   68.362862  -21.443370   34.132484
  0.020801603    0.000000    0.000000    0.000000    0.000000  -83.392444   62.002110  -21.391049   32.358131
  0.021002004    0.000000    0.000000    0.000000    0.000000  -83.151487   63.984364  -21.394854   29.822712
  0.021202405    0.000000    0.000000    0.000000    0.000000  -83.842203   45.904369  -21.504879   26.723223
  0.021402806    0.000000    0.000000    0.000000    0.000000  -85.273674   55.852470  -21.351806   23.257513
  0.021603206    0.000000    0.000000    0.000000    0.000000  -85.211480   60.270927  -21.423075   21.887791
  0.021803607    0.000000    0.000000    0.000000    0.000000  -82.674296   51.254944  -21.461888   17.692324
  0.022004008    0.000000    0.000000    0.000000    0.000000  -81.644819   71.342522  -21.389237   14.770642
  0.022204409    0.000000    0.000000    0.000000    0.000000  -81.906741   64.103363  -21.475516   11.704722
  0.022404810    0.000000    0.000000    0.000000    0.000000  -84.494289   48.665649  -21.449382    9.141401
  0.022605210    0.000000    0.000000    0.000000    0.000000  -83.258133   78.272987  -21.488876    4.924104
  0.022805611    0.000000    0.000000    0.000000    0.000000  -83.298323   67.719246  -21.460201    1.679875
  0.023006012    0.000000    0.000000    0.000000    0.000000  -83.578497   69.437576  -21.491781   -2.066416
  0.023206413    0.000000    0.000000    0.000000    0.000000  -82.864767   55.349983  -21.453859   -4.855562
  0.023406814    0.000000    0.000000    0.000000    0.000000  -82.794917   47.794281  -21.516837   -8.862814
  0.023607214    0.000000    0.000000    0.000000    0.000000  -85.630328   49.044491  -21.475628  -12.620500
  0.023807615    0.000000    0.000000    0.000000    0.000000  -84.261900   51.059742  -21.446872  -16.447964
  0.024008016    0.000000    0.000000    0.000000    0.000000  -84.144550   59.530624  -21.371991  -20.001457
  0.024208417    0.000000    0.000000    0.000000    0.000000  -81.528827   67.311302  -21.394280  -24.074244
  0.024408818    0.000000    0.000000    0.000000    0.000000  -84.630766   51.358826  -21.333636  -28.279341
  0.024609218    0.000000    0.000000    0.000000    0.000000  -82.058234   69.358513  -21.519835  -32.530830
  0.024809619    0.000000    0.000000    0.000000    0.000000  -84.890949   37.914375  -21.308529  -36.819687
  0.025010020    0.000000    0.000000    0.000000    0.000000  -83.296774   56.570004  -21.230046  -41.821716
  0.025210421    0.000000    0.000000    0.000000    0.000000  -82.477820   69.003281  -21.232680  -46.929909
  0.025410822    0.000000    0.000000    0.000000    0.000000  -82.068331   55.426392  -21.131811  -51.737118
  0.025611222    0.000000    0.000000    0.000000    0.000000  -85.185598   77.484200  -21.169676  -57.095680
  0.025811623    0.000000    0.000000    0.000000    0.000000  -84.909704   66.037521  -21.011944  -63.196167
  0.026012024    0.000000    0.000000    0.000000    0.000000  -83.409147   40.692879  -21.080338  -69.241402
  0.026212425    0.000000    0.000000    0.000000    0.000000  -83.113754   58.861374  -20.935756  -74.711441
  0.026412826    0.000000    0.000000    0.000000    0.000000  -83.522681   53.746117  -21.055808  -80.506607
  0.026613226    0.000000    0.000000    0.000000    0.000000  -84.500922   66.668724  -21.092314  -88.030769
  0.026813627    0.000000    0.000000    0.000000    0.000000  -84.294450   60.907188  -21.078623  -94.898460
  0.027014028    0.000000    0.000000    0.000000    0.000000  -85.789517   50.953308  -21.194517 -101.867699
  0.027214429    0.000000    0.000000    0.000000    0.000000  -83.089189   36.858025  -21.256246 -109.968697
  0.027414830    0.000000    0.000000    0.000000    0.000000  -82.481886   58.266014  -21.459775 -117.303215
  0.027615230    0.000000    0.000000    0.000000    0.000000  -88.499813   50.189548  -21.643938 -125.611687
  0.027815631    0.000000    0.000000    0.000000    0.000000  -83.882559   67.759911  -21.873327 -134.023636
  0.028016032    0.000000    0.000000    0.000000    0.000000  -83.530173   48.717907  -22.380195 -140.948990
  0.028216433    0.000000    0.000000    0.000000    0.000000  -84.362770   66.282509  -22.760543 -149.314346
  0.028416834    0.000000    0.000000    0.000000    0.000000  -87.728035   57.088123  -23.370373 -156.376587
  0.028617234    0.000000    0.000000    0.000000    0.000000  -83.139506   54.635365  -23.880482 -164.654999
  0.028817635    0.000000    0.000000    0.000000    0.000000  -86.780946   68.758850  -24.640604 -171.447464
  0.029018036    0.000000    0.000000    0.000000    0.000000  -89.580386   61.017262  -25.277397 -179.380692
  0.029218437    0.000000    0.000000    0.000000    0.000000  -86.578899   65.493202  -25.878766  175.879608
  0.029418838    0.000000    0.000000    0.000000    0.000000  -83.862367   63.354122  -26.703772  170.352585
  0.029619238    0.000000    0.000000    0.000000    0.000000  -84.207161   45.668339  -27.357373  164.719894
  0.029819639    0.000000    0.000000    0.000000    0.000000  -86.194948   38.544849  -28.430526  160.237564
  0.030020040    0.000000    0.000000    0.000000    0.000000  -84.634839   63.697308  -29.251340  156.211700
  0.030220441    0.000000    0.000000    0.000000    0.000000  -89.219901   57.546371  -30.024800  152.188889
  0.030420842    0.000000    0.000000    0.000000    0.000000  -85.515450   53.428684  -30.980138  150.709869
  0.030621242    0.000000    0.000000    0.000000    0.000000  -85.559174   59.427311  -31.771115  148.763626
  0.030821643    0.000000    0.000000    0.000000    0.000000  -85.820366   59.791752  -32.515935  147.093628
  0.031022044    0.000000    0.000000    0.000000    0.000000  -82.064798   52.037205  -32.757074  144.940353
  0.031222445    0.000000    0.000000    0.000000    0.000000  -84.352068   84.665787  -33.464687  145.000854
  0.031422846    0.000000    0.000000    0.000000    0.000000  -86.082987   52.766674  -33.912538  144.249954
  0.031623246    0.000000    0.000000    0.000000    0.000000  -82.132910   53.527477  -34.702188  146.793503
  0.031823647    0.000000    0.000000    0.000000    0.000000  -83.017589   59.949780  -34.676741  147.112991
  0.032024048    0.000000    0.000000    0.000000    0.000000  -85.147575   65.492195  -35.353990  145.699554
  0.032224449    0.000000    0.000000    0.000000    0.000000  -84.030782   64.098808  -35.627642  149.087952
  0.032424850    0.000000    0.000000    0.000000    0.000000  -85.399369   65.229317  -36.177179  150.763474
  0.032625251    0.000000    0.000000    0.000000    0.000000  -85.166682   67.701469  -35.674795  146.675156
  0.032825651    0.000000    0.000000    0.000000    0.000000  -85.614601   54.386734  -35.223198  155.179596
  0.033026052    0.000000    0.000000    0.000000    0.000000  -86.328901   90.330544  -35.353858  149.822220
  0.033226453    0.000000    0.000000    0.000000    0.000000  -83.901106   58.587601  -35.043484  150.887222
  0.033426854    0.000000    0.000000    0.000000    0.000000  -85.214354   50.371281  -35.283706  150.510895
  0.033627255    0.000000    0.000000    0.000000    0.000000  -83.416204   39.750542  -35.316858  149.543488
  0.033827655    0.000000    0.000000    0.000000    0.000000  -84.282281   61.789703  -35.061093  148.556229
  0.034028056    0.000000    0.000000    0.000000    0.000000  -85.621678   68.608086  -35.001603  143.691223
  0.034228457    0.000000    0.000000    0.000000    0.000000  -84.486856   57.015018  -34.635831  152.255951
  0.034428858    0.000000    0.000000    0.000000    0.000000  -83.507558   57.965717  -34.412235  148.047882
  0.034629259    0.000000    0.000000    0.000000    0.000000  -85.934549   70.183868  -34.687606  151.875397
  0.034829659    0.000000    0.000000    0.000000    0.000000  -86.473549   83.621017  -34.244427  145.281082
  0.035030060    0.000000    0.000000    0.000000    0.000000  -87.644939   51.410465  -34.874966  143.836182
  0.035230461    0.000000    0.000000    0.000000    0.000000  -84.469643   57.153549  -34.989451  145.957901
  0.035430862    0.000000    0.000000    0.000000    0.000000  -86.518172   65.994385  -34.276822  139.109085
  0.035631263    0.000000    0.000000    0.000000    0.000000  -86.628603   67.026146  -34.108481  144.119568
  0.035831663    0.000000    0.000000    0.000000    0.000000  -84.512934   65.634850  -34.682901  139.172836
  0.036032064    0.000000    0.000000    0.000000    0.000000  -84.045408   78.967789  -34.119120  136.443817
  0.036232465    0.000000    0.000000    0.000000    0.000000  -82.856105   72.776772  -34.794527  140.551422
  0.036432866    0.000000    0.000000    0.000000    0.000000  -86.976789   96.738380  -34.127619  133.525085
  0.036633267    0.000000    0.000000    0.000000    0.000000  -84.868821   59.700943  -34.069688  137.594086
  0.036833667    0.000000    0.000000    0.000000    0.000000  -85.089422   66.776794  -33.993990  135.341492
  0.037034068    0.000000    0.000000    0.000000    0.000000  -84.399415   77.956223  -33.969814  131.235245
  0.037234469    0.000000    0.000000    0.000000    0.000000  -84.848544   47.084389  -33.956804  133.222321
  0.037434870    0.000000    0.000000    0.000000    0.000000  -87.970711   40.611534  -33.976303  129.163803
  0.037635271    0.000000    0.000000    0.000000    0.000000  -86.079579   61.088528  -33.978009  130.575592
  0.037835671    0.000000    0.000000    0.000000    0.000000  -82.753613   55.406418  -34.005430  132.962097
  0.038036072    0.000000    0.000000    0.000000    0.000000  -86.747945   82.012817  -34.115155  126.352570
  0.038236473    0.000000    0.000000    0.000000    0.000000  -86.449389   57.013721  -33.813727  126.734818
  0.038436874    0.000000    0.000000    0.000000    0.000000  -87.374881   77.507408  -33.868630  129.712799
  0.038637275    0.000000    0.000000    0.000000    0.000000  -84.014311   39.799873  -34.497779  124.512421
  0.038837675    0.000000    0.000000    0.000000    0.000000  -86.085551   72.857941  -34.241987  127.010086
  0.039038076    0.000000    0.000000    0.000000    0.000000  -84.438486   63.765976  -34.386236  124.817291
  0.039238477    0.000000    0.000000    0.000000    0.000000  -83.661434   68.360474  -34.508235  122.800682
  0.039438878    0.000000    0.000000    0.000000    0.000000  -83.733327   59.438595  -34.212474  123.534348
  0.039639279    0.000000    0.000000    0.000000    0.000000  -84.092777   72.063202  -34.471505  120.895538
  0.039839679    0.000000    0.000000    0.000000    0.000000  -84.748091   80.903633  -33.648293  124.824234
  0.040040080    0.000000    0.000000    0.000000    0.000000  -80.433120   69.802452  -33.991400  125.826881
  0.040240481    0.000000    0.000000    0.000000    0.000000  -87.266576   66.519363  -34.369705  121.493645
  0.040440882    0.000000    0.000000    0.000000    0.000000  -89.295536   59.038822  -34.300104  121.073311
  0.040641283    0.000000    0.000000    0.000000    0.000000  -86.518720   69.701767  -34.357349  121.071289
  0.040841683    0.000000    0.000000    0.000000    0.000000  -86.168478   59.383770  -34.228787  121.912033
  0.041042084    0.000000    0.000000    0.000000    0.000000  -84.180294   41.349258  -34.232671  121.668060
  0.041242485    0.000000    0.000000    0.000000    0.000000  -90.121404   82.128098  -34.976092  125.736435
  0.041442886    0.000000    0.000000    0.000000    0.000000  -89.317260   91.818710  -34.153049  124.397568
  0.041643287    0.000000    0.000000    0.000000    0.000000  -84.899396   68.454826  -33.958671  123.063385
  0.041843687    0.000000    0.000000    0.000000    0.000000  -83.034022   85.694298  -33.870387  119.704803
  0.042044088    0.000000    0.000000    0.000000    0.000000  -86.982360   86.611176  -34.354649  122.999962
  0.042244489    0.000000    0.000000    0.000000    0.000000  -87.277618   68.808594  -34.066052  122.001083
  0.042444890    0.000000    0.000000    0.000000    0.000000  -84.354551   76.808731  -34.337314  120.079903
  0.042645291    0.000000    0.000000    0.000000    0.000000  -88.013076   78.042526  -33.708930  123.790268
  0.042845691    0.000000    0.000000    0.000000    0.000000  -83.555228   72.986313  -33.976919  122.470932
  0.043046092    0.000000    0.000000    0.000000    0.000000  -87.263142   61.370041  -33.579931  121.713974
  0.043246493    0.000000    0.000000    0.000000    0.000000  -85.921763   52.292934  -33.786885  121.743599
  0.043446894    0.000000    0.000000    0.000000    0.000000  -86.202827   66.362022  -33.957428  120.981499
  0.043647295    0.000000    0.000000    0.000000    0.000000  -88.009669   68.158669  -33.459850  119.593567
  0.043847695    0.000000    0.000000    0.000000    0.000000  -86.629672   62.934059  -33.508207  123.373146
  0.044048096    0.000000    0.000000    0.000000    0.000000  -86.331688   88.720779  -33.605480  120.934769
  0.044248497    0.000000    0.000000    0.000000    0.000000  -85.883331   87.468849  -33.370735  119.388481
  0.044448898    0.000000    0.000000    0.000000    0.000000  -82.976993   38.478809  -33.423558  122.560722
  0.044649299    0.000000    0.000000    0.000000    0.000000  -83.757179   69.676414  -32.800356  119.644341
  0.044849699    0.000000    0.000000    0.000000    0.000000  -83.180524   65.791039  -32.855930  120.889038
  0.045050100    0.000000    0.000000    0.000000    0.000000  -84.676786   59.304565  -33.395565  118.061142
  0.045250501    0.000000    0.000000    0.000000    0.000000  -85.849601   58.756142  -33.213746  120.590240
  0.045450902    0.000000    0.000000    0.000000    0.000000  -87.054020   84.670319  -32.710409  120.641792
  0.045651303    0.000000    0.000000    0.000000    0.000000  -82.927255   58.112949  -32.436868  119.682373
  0.045851703    0.000000    0.000000    0.000000    0.000000  -85.190659   55.148098  -32.645096  122.608414
  0.046052104    0.000000    0.000000    0.000000    0.000000  -86.358573   56.412891  -32.174461  118.515228
  0.046252505    0.000000    0.000000    0.000000    0.000000  -85.524921   71.079292  -32.365506  116.989571
  0.046452906    0.000000    0.000000    0.000000    0.000000  -89.545030   61.563419  -32.345991  117.907059
  0.046653307    0.000000    0.000000    0.000000    0.000000  -82.855806   43.974926  -31.732678  114.430023
  0.046853707    0.000000    0.000000    0.000000    0.000000  -93.407939   59.719116  -31.898346  117.277985
  0.047054108    0.000000    0.000000    0.000000    0.000000  -88.098664   64.408806  -31.693502  118.027321
  0.047254509    0.000000    0.000000    0.000000    0.000000  -88.079958   30.807268  -31.964698  115.838516
  0.047454910    0.000000    0.000000    0.000000    0.000000  -83.773028   61.235699  -31.467805  117.662453
  0.047655311    0.000000    0.000000    0.000000    0.000000  -86.487716   75.815567  -31.709083  113.571281
  0.047855711    0.000000    0.000000    0.000000    0.000000  -83.922139   62.115303  -31.373319  111.870766
  0.048056112    0.000000    0.000000    0.000000    0.000000  -87.485095   57.216583  -31.355884  113.685074
  0.048256513    0.000000    0.000000    0.000000    0.000000  -84.526673   79.216866  -31.249109  112.800926
  0.048456914    0.000000    0.000000    0.000000    0.000000  -86.456179   59.864017  -31.286037  110.997086
  0.048657315    0.000000    0.000000    0.000000    0.000000  -83.261424   69.817825  -31.034830  112.823990
  0.048857715    0.000000    0.000000    0.000000    0.000000  -87.502814   61.275200  -30.616951  109.959740
  0.049058116    0.000000    0.000000    0.000000    0.000000  -92.195922   69.061638  -30.880093  110.180832
  0.049258517    0.000000    0.000000    0.000000    0.000000  -86.943126   50.236622  -30.689345  107.440857
  0.049458918    0.000000    0.000000    0.000000    0.000000  -86.159600   36.579308  -30.646599  109.232033
  0.049659319    0.000000    0.000000    0.000000    0.000000  -84.669923   59.898376  -30.465551  107.996964
  0.049859719    0.000000    0.000000    0.000000    0.000000  -85.723992   74.872124  -30.350830  107.216080
  0.050060120    0.000000    0.000000    0.000000    0.000000  -86.189210   91.802498  -30.283381  104.738747
  0.050260521    0.000000    0.000000    0.000000    0.000000  -85.394290   63.683796  -30.216920  104.277199
  0.050460922    0.000000    0.000000    0.000000    0.000000  -88.633075   53.997120  -30.114500  103.191849
  0.050661323    0.000000    0.000000    0.000000    0.000000  -83.533688   77.963013  -29.878969  102.944572
  0.050861723    0.000000    0.000000    0.000000    0.000000  -87.485282   63.469402  -30.020987  101.836395
  0.051062124    0.000000    0.000000    0.000000    0.000000  -89.468651   59.757694  -29.833115  104.610535
  0.051262525    0.000000    0.000000    0.000000    0.000000  -86.054931   80.765434  -29.863853  100.654083
  0.051462926    0.000000    0.000000    0.000000    0.000000  -83.833522  101.286903  -30.010328  100.039085
  0.051663327    0.000000    0.000000    0.000000    0.000000  -89.577507   65.566345  -29.928970  100.433350
  0.051863727    0.000000    0.000000    0.000000    0.000000  -85.315422   54.666653  -29.534454   98.900368
  0.052064128    0.000000    0.000000    0.000000    0.000000  -86.587702   82.459175  -29.965900   97.579361
  0.052264529    0.000000    0.000000    0.000000    0.000000  -87.578194   69.136093  -29.648512   96.819832
  0.052464930    0.000000    0.000000    0.000000    0.000000  -85.952837   69.457153  -29.917481   96.498749
  0.052665331    0.000000    0.000000    0.000000    0.000000  -86.654487   94.976555  -29.863562   96.142525
  0.052865731    0.000000    0.000000    0.000000    0.000000  -85.607463   74.079475  -29.625563   93.951889
