! Anritsu VNA Master:                     Model: MS2036C/10/77
! SN:                                  1601066
! /card0/usr/18may12.lna.rl/252b.lna.rl.s2p
! Existing Calibration Information:
! TYPE:                         Current Settings,       Active Cal Settings
! TIME:             	   05/13/2018 10:24:12 AM,    05/13/2018 10:19:50 AM
! INTERNAL TEMP:    	                   46.3 C,                    46.3 C
! # POINTS:         	                      500,                       500
! START FREQ:       	               20.000 MHz,                20.000 MHz
! STOP FREQ:        	              120.000 MHz,               120.000 MHz
! SOURCE POWER:     	                      Low,                       Low
! IFBW:             	                    10 Hz,                     10 Hz
! AVG FACTOR:       	                       1 ,                        1 
! REF PLANE 1:      	                     0 mm,                      0 mm
! REF PLANE 2:      	                     0 mm,                      0 mm
! CAL TYPE:         	                 Full S22,                  Full S22
! CAL METHOD:       	                     SOLT,                      SOLT
! CAL LINE TYPE:    	                     Coax,                      Coax
! DUT PORT 1:       	                K-Conn(M),                 K-Conn(M)
! DUT PORT 2:       	                K-Conn(M),                 K-Conn(M)
! CAL STATUS:       	        OK: Accuracy High,                        --
# GHZ S DB R 50.0
! FREQ.GHZ       S11DB        S11A       S21DB        S21A       S12DB        S12A       S22DB        S22A
  0.020000000    0.000000    0.000000    0.000000    0.000000  -83.511205   70.330368  -19.787525   22.887125
  0.020200401    0.000000    0.000000    0.000000    0.000000  -84.178842   71.381844  -19.805211   21.185461
  0.020400802    0.000000    0.000000    0.000000    0.000000  -84.637458   53.460407  -19.762190   18.794886
  0.020601202    0.000000    0.000000    0.000000    0.000000  -80.553515   66.893501  -19.707780   16.352310
  0.020801603    0.000000    0.000000    0.000000    0.000000  -84.981371   69.079567  -19.643613   14.085112
  0.021002004    0.000000    0.000000    0.000000    0.000000  -84.163420   49.763111  -19.540339   11.830449
  0.021202405    0.000000    0.000000    0.000000    0.000000  -82.912692   46.970356  -19.508090    8.936993
  0.021402806    0.000000    0.000000    0.000000    0.000000  -84.367222   47.219719  -19.426193    7.305828
  0.021603206    0.000000    0.000000    0.000000    0.000000  -82.825466   73.887909  -19.364870    3.821250
  0.021803607    0.000000    0.000000    0.000000    0.000000  -86.635968   62.507008  -19.262386    1.434051
  0.022004008    0.000000    0.000000    0.000000    0.000000  -83.575925   66.787231  -19.271404   -0.700790
  0.022204409    0.000000    0.000000    0.000000    0.000000  -82.550292   54.906734  -19.297351   -3.810990
  0.022404810    0.000000    0.000000    0.000000    0.000000  -83.856326   52.665516  -19.134006   -6.416416
  0.022605210    0.000000    0.000000    0.000000    0.000000  -86.276093   49.775291  -19.132480   -9.593781
  0.022805611    0.000000    0.000000    0.000000    0.000000  -81.883741   54.121723  -19.009724  -12.693738
  0.023006012    0.000000    0.000000    0.000000    0.000000  -79.996605   66.860176  -18.926938  -15.097804
  0.023206413    0.000000    0.000000    0.000000    0.000000  -90.805056   57.599579  -18.976748  -17.876549
  0.023406814    0.000000    0.000000    0.000000    0.000000  -82.935904   70.319855  -18.982346  -21.526358
  0.023607214    0.000000    0.000000    0.000000    0.000000  -84.438003   63.534466  -18.844284  -24.094347
  0.023807615    0.000000    0.000000    0.000000    0.000000  -82.190594   67.813271  -18.865330  -27.525410
  0.024008016    0.000000    0.000000    0.000000    0.000000  -81.200394   56.505932  -18.745002  -30.460844
  0.024208417    0.000000    0.000000    0.000000    0.000000  -87.584469   51.590179  -18.752206  -33.810631
  0.024408818    0.000000    0.000000    0.000000    0.000000  -86.085732   54.764530  -18.748407  -38.250973
  0.024609218    0.000000    0.000000    0.000000    0.000000  -87.415878   67.624001  -18.736352  -41.413475
  0.024809619    0.000000    0.000000    0.000000    0.000000  -84.406850   60.370644  -18.651895  -45.602821
  0.025010020    0.000000    0.000000    0.000000    0.000000  -82.846547   65.033913  -18.630882  -49.853172
  0.025210421    0.000000    0.000000    0.000000    0.000000  -82.962317   61.068817  -18.672055  -53.863811
  0.025410822    0.000000    0.000000    0.000000    0.000000  -84.549171   54.956779  -18.759002  -58.168427
  0.025611222    0.000000    0.000000    0.000000    0.000000  -84.041445   53.026505  -18.806020  -62.540134
  0.025811623    0.000000    0.000000    0.000000    0.000000  -82.766003   57.833015  -18.831344  -67.508553
  0.026012024    0.000000    0.000000    0.000000    0.000000  -84.518918   79.157722  -18.967703  -73.159294
  0.026212425    0.000000    0.000000    0.000000    0.000000  -84.292905   62.291504  -19.178874  -78.176964
  0.026412826    0.000000    0.000000    0.000000    0.000000  -91.535489   60.885857  -19.337136  -84.307472
  0.026613226    0.000000    0.000000    0.000000    0.000000  -85.057555   55.846764  -19.565147  -89.448975
  0.026813627    0.000000    0.000000    0.000000    0.000000  -86.654092   65.497475  -19.885975  -96.130409
  0.027014028    0.000000    0.000000    0.000000    0.000000  -85.627313   86.631660  -20.162071 -102.291199
  0.027214429    0.000000    0.000000    0.000000    0.000000  -84.266176   51.802914  -20.562220 -108.981163
  0.027414830    0.000000    0.000000    0.000000    0.000000  -84.530215   49.880150  -21.158333 -116.677620
  0.027615230    0.000000    0.000000    0.000000    0.000000  -85.477908   81.829536  -21.630730 -122.949471
  0.027815631    0.000000    0.000000    0.000000    0.000000  -87.822371   34.537617  -22.411839 -130.977982
  0.028016032    0.000000    0.000000    0.000000    0.000000  -86.512267   58.638275  -23.318150 -136.088669
  0.028216433    0.000000    0.000000    0.000000    0.000000  -87.358379   51.069740  -24.147164 -144.715057
  0.028416834    0.000000    0.000000    0.000000    0.000000  -85.842795   68.326080  -25.113463 -150.817886
  0.028617234    0.000000    0.000000    0.000000    0.000000  -87.408977   57.751884  -26.265567 -157.573822
  0.028817635    0.000000    0.000000    0.000000    0.000000  -83.415164   65.200729  -27.335443 -164.128860
  0.029018036    0.000000    0.000000    0.000000    0.000000  -83.448097   48.451656  -28.971177 -170.875412
  0.029218437    0.000000    0.000000    0.000000    0.000000  -87.469240   55.180496  -30.179964 -175.206833
  0.029418838    0.000000    0.000000    0.000000    0.000000  -86.922357   59.061642  -31.562710  179.074753
  0.029619238    0.000000    0.000000    0.000000    0.000000  -83.869578   74.729904  -33.443179  171.841553
  0.029819639    0.000000    0.000000    0.000000    0.000000  -85.640617   42.796360  -34.948110  165.493225
  0.030020040    0.000000    0.000000    0.000000    0.000000  -83.710972   69.439163  -36.879672  158.289963
  0.030220441    0.000000    0.000000    0.000000    0.000000  -86.761254   74.684921  -38.898823  154.086578
  0.030420842    0.000000    0.000000    0.000000    0.000000  -86.772362   54.328747  -41.556259  145.839920
  0.030621242    0.000000    0.000000    0.000000    0.000000  -86.323676   71.798416  -44.785418  142.598694
  0.030821643    0.000000    0.000000    0.000000    0.000000  -86.004901   66.339157  -46.420116  125.215485
  0.031022044    0.000000    0.000000    0.000000    0.000000  -85.359114   72.982864  -49.227718  124.183960
  0.031222445    0.000000    0.000000    0.000000    0.000000  -84.509512   62.639748  -49.413875   83.455803
  0.031422846    0.000000    0.000000    0.000000    0.000000  -86.278185   63.282017  -53.185121   59.690567
  0.031623246    0.000000    0.000000    0.000000    0.000000  -83.613828   72.335472  -49.278499   34.376469
  0.031823647    0.000000    0.000000    0.000000    0.000000  -82.884180   52.524078  -52.553949   20.252569
  0.032024048    0.000000    0.000000    0.000000    0.000000  -84.416668   58.884911  -47.100127   24.743277
  0.032224449    0.000000    0.000000    0.000000    0.000000  -83.736027   62.732521  -48.477393   -3.691610
  0.032424850    0.000000    0.000000    0.000000    0.000000  -85.462588   70.601395  -47.470979   17.923342
  0.032625251    0.000000    0.000000    0.000000    0.000000  -84.723562   53.490700  -46.603875   17.524426
  0.032825651    0.000000    0.000000    0.000000    0.000000  -83.373229   61.841953  -48.558016   -6.815827
  0.033026052    0.000000    0.000000    0.000000    0.000000  -83.461840   69.512527  -47.009395   -2.278239
  0.033226453    0.000000    0.000000    0.000000    0.000000  -86.024521   55.506859  -44.426922   -3.818919
  0.033426854    0.000000    0.000000    0.000000    0.000000  -84.019514   78.289124  -46.646079   -2.020818
  0.033627255    0.000000    0.000000    0.000000    0.000000  -84.897735   65.829109  -46.290777   -6.232539
  0.033827655    0.000000    0.000000    0.000000    0.000000  -82.931731   59.453846  -46.089429   -0.887975
  0.034028056    0.000000    0.000000    0.000000    0.000000  -86.859397   65.477188  -47.591344    4.028529
  0.034228457    0.000000    0.000000    0.000000    0.000000  -84.872892   70.469810  -45.268219   14.378402
  0.034428858    0.000000    0.000000    0.000000    0.000000  -87.563780   59.159027  -43.066652    7.737294
  0.034629259    0.000000    0.000000    0.000000    0.000000  -87.322730   49.226471  -44.560503    5.853631
  0.034829659    0.000000    0.000000    0.000000    0.000000  -82.839043   79.560501  -44.284722    2.293185
  0.035030060    0.000000    0.000000    0.000000    0.000000  -88.982803   54.847958  -42.216388   12.630018
  0.035230461    0.000000    0.000000    0.000000    0.000000  -88.666337   49.206306  -42.095296   16.037745
  0.035430862    0.000000    0.000000    0.000000    0.000000  -83.959433   57.292301  -42.054650   10.432245
  0.035631263    0.000000    0.000000    0.000000    0.000000  -83.606641   66.572906  -40.977017    3.920598
  0.035831663    0.000000    0.000000    0.000000    0.000000  -86.146839   73.748024  -42.376296   13.332397
  0.036032064    0.000000    0.000000    0.000000    0.000000  -88.455141   54.127853  -39.720076   17.903133
  0.036232465    0.000000    0.000000    0.000000    0.000000  -89.394992   69.573990  -40.611648   14.808878
  0.036432866    0.000000    0.000000    0.000000    0.000000  -83.428518   62.122837  -40.564583   11.063235
  0.036633267    0.000000    0.000000    0.000000    0.000000  -86.623578   82.925583  -40.367479   14.211684
  0.036833667    0.000000    0.000000    0.000000    0.000000  -84.153624   84.006958  -39.097813   14.542296
  0.037034068    0.000000    0.000000    0.000000    0.000000  -89.244472   95.613052  -38.711498   11.491718
  0.037234469    0.000000    0.000000    0.000000    0.000000  -87.224568   69.391510  -38.585708   17.226719
  0.037434870    0.000000    0.000000    0.000000    0.000000  -82.080844   53.199017  -38.252944    8.948345
  0.037635271    0.000000    0.000000    0.000000    0.000000  -88.296001   76.774010  -38.764332    5.728890
  0.037835671    0.000000    0.000000    0.000000    0.000000  -88.528059   82.309906  -38.986858    9.712753
  0.038036072    0.000000    0.000000    0.000000    0.000000  -89.154781   74.749107  -38.148741    4.727731
  0.038236473    0.000000    0.000000    0.000000    0.000000  -86.585442   68.369568  -37.811043    7.266286
  0.038436874    0.000000    0.000000    0.000000    0.000000  -84.741204   62.306084  -38.110024    3.400900
  0.038637275    0.000000    0.000000    0.000000    0.000000  -83.113596   79.552414  -37.942832    9.878557
  0.038837675    0.000000    0.000000    0.000000    0.000000  -85.059116   58.005470  -37.734259    2.165479
  0.039038076    0.000000    0.000000    0.000000    0.000000  -84.257127   76.602104  -36.934520    0.348499
  0.039238477    0.000000    0.000000    0.000000    0.000000  -83.369920   64.855125  -37.306761    2.395401
  0.039438878    0.000000    0.000000    0.000000    0.000000  -80.125808   68.912781  -36.852448    0.634298
  0.039639279    0.000000    0.000000    0.000000    0.000000  -85.043884   38.940548  -37.251703   -3.126072
  0.039839679    0.000000    0.000000    0.000000    0.000000  -85.305293   80.096939  -37.456835   -2.847665
  0.040040080    0.000000    0.000000    0.000000    0.000000  -86.056070   77.053505  -37.490554   -0.108862
  0.040240481    0.000000    0.000000    0.000000    0.000000  -86.217635  102.571983  -37.290268   -1.976623
  0.040440882    0.000000    0.000000    0.000000    0.000000  -84.076460   59.874332  -38.195577    0.433383
  0.040641283    0.000000    0.000000    0.000000    0.000000  -87.894176   59.275394  -37.599000   -5.389559
  0.040841683    0.000000    0.000000    0.000000    0.000000  -83.795170   53.670879  -37.772173   -4.326757
  0.041042084    0.000000    0.000000    0.000000    0.000000  -88.806307   39.533901  -37.629240   -7.353737
  0.041242485    0.000000    0.000000    0.000000    0.000000  -82.370387   91.808670  -37.026863   -6.925953
  0.041442886    0.000000    0.000000    0.000000    0.000000  -84.570696   80.992310  -36.685355  -12.737555
  0.041643287    0.000000    0.000000    0.000000    0.000000  -85.115339   67.751335  -37.899502   -9.900466
  0.041843687    0.000000    0.000000    0.000000    0.000000  -82.109953   57.890450  -37.488171   -8.652843
  0.042044088    0.000000    0.000000    0.000000    0.000000  -86.684975   60.348450  -37.404395   -9.494766
  0.042244489    0.000000    0.000000    0.000000    0.000000  -84.106586   46.579071  -37.807759  -12.590147
  0.042444890    0.000000    0.000000    0.000000    0.000000  -83.004076   65.522652  -37.170733  -14.104207
  0.042645291    0.000000    0.000000    0.000000    0.000000  -86.122333   61.900093  -37.770421  -13.063620
  0.042845691    0.000000    0.000000    0.000000    0.000000  -86.453943   62.839851  -39.047858   -8.731902
  0.043046092    0.000000    0.000000    0.000000    0.000000  -84.697175   82.921089  -37.772945  -17.379929
  0.043246493    0.000000    0.000000    0.000000    0.000000  -86.000821   73.875412  -37.655872  -17.981291
  0.043446894    0.000000    0.000000    0.000000    0.000000  -82.687659   78.337456  -38.084751  -16.017715
  0.043647295    0.000000    0.000000    0.000000    0.000000  -87.129605   48.649475  -38.967850  -13.974077
  0.043847695    0.000000    0.000000    0.000000    0.000000  -86.028228   52.815868  -39.584187   -9.108042
  0.044048096    0.000000    0.000000    0.000000    0.000000  -89.147502   58.842422  -40.178724   -6.582023
  0.044248497    0.000000    0.000000    0.000000    0.000000  -87.198335   68.526550  -38.503126  -15.135779
  0.044448898    0.000000    0.000000    0.000000    0.000000  -86.072378   68.172470  -39.405396  -10.898388
  0.044649299    0.000000    0.000000    0.000000    0.000000  -86.645682   68.866455  -39.537820  -15.093164
  0.044849699    0.000000    0.000000    0.000000    0.000000  -84.563485   50.675140  -39.652779  -15.613335
  0.045050100    0.000000    0.000000    0.000000    0.000000  -87.779405   78.270248  -39.712944  -14.441895
  0.045250501    0.000000    0.000000    0.000000    0.000000  -86.553535   67.507729  -39.099809  -13.702516
  0.045450902    0.000000    0.000000    0.000000    0.000000  -84.214884   80.132233  -38.917781  -17.829281
  0.045651303    0.000000    0.000000    0.000000    0.000000  -89.667660   72.825417  -39.306274  -16.681561
  0.045851703    0.000000    0.000000    0.000000    0.000000  -86.090601   70.595894  -40.621681  -13.592508
  0.046052104    0.000000    0.000000    0.000000    0.000000  -85.293074   63.675735  -40.110165  -11.279787
  0.046252505    0.000000    0.000000    0.000000    0.000000  -91.641766  100.136803  -40.185235   -8.783783
  0.046452906    0.000000    0.000000    0.000000    0.000000  -85.012836   73.589767  -40.673924   -9.812156
  0.046653307    0.000000    0.000000    0.000000    0.000000  -83.510113   50.842010  -40.972064  -16.604328
  0.046853707    0.000000    0.000000    0.000000    0.000000  -82.847699   64.873604  -40.574002   -2.935056
  0.047054108    0.000000    0.000000    0.000000    0.000000  -86.473097   51.809437  -40.589764   -4.910734
  0.047254509    0.000000    0.000000    0.000000    0.000000  -83.530472   60.510345  -41.277507    2.242806
  0.047454910    0.000000    0.000000    0.000000    0.000000  -86.211303   69.096550  -39.783928   -4.286941
  0.047655311    0.000000    0.000000    0.000000    0.000000  -85.514000   78.938255  -42.766009    2.509506
  0.047855711    0.000000    0.000000    0.000000    0.000000  -85.618089   57.620064  -40.886042    0.150472
  0.048056112    0.000000    0.000000    0.000000    0.000000  -83.920140   65.589996  -41.770614    7.951869
  0.048256513    0.000000    0.000000    0.000000    0.000000  -83.231166   82.670967  -41.805061    7.898145
  0.048456914    0.000000    0.000000    0.000000    0.000000  -88.783970   71.946754  -42.031394   12.088139
  0.048657315    0.000000    0.000000    0.000000    0.000000  -86.199986   58.699432  -41.298408   15.717072
  0.048857715    0.000000    0.000000    0.000000    0.000000  -83.463730   65.539162  -42.845008   18.816608
  0.049058116    0.000000    0.000000    0.000000    0.000000  -88.111351   71.086632  -41.092452   15.595177
  0.049258517    0.000000    0.000000    0.000000    0.000000  -84.359293   53.404320  -41.138268   18.435341
  0.049458918    0.000000    0.000000    0.000000    0.000000  -88.138264   83.298347  -40.631150   19.986618
  0.049659319    0.000000    0.000000    0.000000    0.000000  -83.165198   70.003258  -41.861176   21.430162
  0.049859719    0.000000    0.000000    0.000000    0.000000  -85.351880   72.175949  -41.548437   17.649305
  0.050060120    0.000000    0.000000    0.000000    0.000000  -85.792732   91.140511  -40.117472   28.202648
  0.050260521    0.000000    0.000000    0.000000    0.000000  -86.694859   66.583313  -40.561346   25.030794
  0.050460922    0.000000    0.000000    0.000000    0.000000  -85.702366   62.599461  -40.508639   17.570126
  0.050661323    0.000000    0.000000    0.000000    0.000000  -87.198457   72.293221  -39.887501   29.784840
  0.050861723    0.000000    0.000000    0.000000    0.000000  -83.196908   50.715782  -38.447848   27.494099
  0.051062124    0.000000    0.000000    0.000000    0.000000  -83.401084   63.322678  -39.318671   28.673161
  0.051262525    0.000000    0.000000    0.000000    0.000000  -84.106585   59.307495  -38.839292   30.347811
  0.051462926    0.000000    0.000000    0.000000    0.000000  -86.549779   36.918568  -38.556088   28.293213
  0.051663327    0.000000    0.000000    0.000000    0.000000  -85.640362   73.688011  -38.926364   25.441059
  0.051863727    0.000000    0.000000    0.000000    0.000000  -86.638807   75.167587  -37.896820   25.754347
  0.052064128    0.000000    0.000000    0.000000    0.000000  -84.972886   75.033295  -38.839431   29.620905
  0.052264529    0.000000    0.000000    0.000000    0.000000  -86.283665   58.735008  -37.642563   27.304703
  0.052464930    0.000000    0.000000    0.000000    0.000000  -83.550361   84.211647  -38.199492   33.328640
  0.052665331    0.000000    0.000000    0.000000    0.000000  -85.384336   62.648933  -37.438211   29.555731
  0.052865731    0.000000    0.000000    0.000000    0.000000  -83.572091   60.343456  -37.173781   27.306446
