! Anritsu VNA Master:                     Model: MS2036C/10/77
! SN:                                  1601066
! /card0/usr/18may12.lna.rl/254a.lna.rl..s2p
! Existing Calibration Information:
! TYPE:                         Current Settings,       Active Cal Settings
! TIME:             	   05/12/2018 05:12:56 PM,    05/12/2018 05:07:55 PM
! INTERNAL TEMP:    	                   51.0 C,                    51.5 C
! # POINTS:         	                      500,                       500
! START FREQ:       	               20.000 MHz,                20.000 MHz
! STOP FREQ:        	              120.000 MHz,               120.000 MHz
! SOURCE POWER:     	                      Low,                       Low
! IFBW:             	                    10 Hz,                     10 Hz
! AVG FACTOR:       	                       1 ,                        1 
! REF PLANE 1:      	                     0 mm,                      0 mm
! REF PLANE 2:      	                     0 mm,                      0 mm
! CAL TYPE:         	                 Full S22,                  Full S22
! CAL METHOD:       	                     SOLT,                      SOLT
! CAL LINE TYPE:    	                     Coax,                      Coax
! DUT PORT 1:       	                K-Conn(M),                 K-Conn(M)
! DUT PORT 2:       	                K-Conn(M),                 K-Conn(M)
! CAL STATUS:       	        OK: Accuracy High,                        --
# GHZ S DB R 50.0
! FREQ.GHZ       S11DB        S11A       S21DB        S21A       S12DB        S12A       S22DB        S22A
  0.020000000    0.000000    0.000000    0.000000    0.000000  -85.171815   57.318161  -19.059643   19.238533
  0.020200401    0.000000    0.000000    0.000000    0.000000  -83.548205   37.628731  -18.954459   17.768854
  0.020400802    0.000000    0.000000    0.000000    0.000000  -84.773201   48.700111  -18.769027   16.005196
  0.020601202    0.000000    0.000000    0.000000    0.000000  -84.672188   63.040836  -18.784412   13.919392
  0.020801603    0.000000    0.000000    0.000000    0.000000  -82.710346   57.189522  -18.734481   11.874809
  0.021002004    0.000000    0.000000    0.000000    0.000000  -81.717199   74.191910  -18.666009    9.782162
  0.021202405    0.000000    0.000000    0.000000    0.000000  -83.370628   50.585686  -18.523852    7.271810
  0.021402806    0.000000    0.000000    0.000000    0.000000  -82.491705   56.109978  -18.436527    5.646593
  0.021603206    0.000000    0.000000    0.000000    0.000000  -82.876109   53.232513  -18.464840    4.198844
  0.021803607    0.000000    0.000000    0.000000    0.000000  -83.059328   45.048115  -18.305307    1.214625
  0.022004008    0.000000    0.000000    0.000000    0.000000  -82.718043   67.422203  -18.182186   -1.017918
  0.022204409    0.000000    0.000000    0.000000    0.000000  -81.882526   65.632790  -18.181929   -3.516328
  0.022404810    0.000000    0.000000    0.000000    0.000000  -85.749900   60.497307  -18.092536   -5.209259
  0.022605210    0.000000    0.000000    0.000000    0.000000  -88.136579   55.079460  -18.025157   -7.389088
  0.022805611    0.000000    0.000000    0.000000    0.000000  -82.826027   52.953594  -17.920568  -10.123735
  0.023006012    0.000000    0.000000    0.000000    0.000000  -85.497843   42.596897  -17.973319  -12.035600
  0.023206413    0.000000    0.000000    0.000000    0.000000  -82.260539   44.376972  -17.789587  -14.448806
  0.023406814    0.000000    0.000000    0.000000    0.000000  -83.130729   57.712204  -17.765622  -17.558519
  0.023607214    0.000000    0.000000    0.000000    0.000000  -85.019489   73.219864  -17.720717  -19.801764
  0.023807615    0.000000    0.000000    0.000000    0.000000  -84.851097   63.855904  -17.722536  -22.849840
  0.024008016    0.000000    0.000000    0.000000    0.000000  -84.255429   59.747681  -17.664850  -25.139454
  0.024208417    0.000000    0.000000    0.000000    0.000000  -82.586581   69.227768  -17.658229  -28.126938
  0.024408818    0.000000    0.000000    0.000000    0.000000  -85.382054   63.042126  -17.664246  -31.585831
  0.024609218    0.000000    0.000000    0.000000    0.000000  -82.858921   71.063469  -17.624433  -34.068104
  0.024809619    0.000000    0.000000    0.000000    0.000000  -83.158890   45.093548  -17.623858  -37.760872
  0.025010020    0.000000    0.000000    0.000000    0.000000  -88.447641   73.379219  -17.615656  -41.272655
  0.025210421    0.000000    0.000000    0.000000    0.000000  -82.858809   76.333382  -17.673207  -44.822937
  0.025410822    0.000000    0.000000    0.000000    0.000000  -85.445912   71.795654  -17.680856  -48.364601
  0.025611222    0.000000    0.000000    0.000000    0.000000  -84.567400   61.561466  -17.720451  -52.046951
  0.025811623    0.000000    0.000000    0.000000    0.000000  -83.172406   54.472782  -17.795456  -55.817116
  0.026012024    0.000000    0.000000    0.000000    0.000000  -85.783015   69.907814  -17.900318  -60.769745
  0.026212425    0.000000    0.000000    0.000000    0.000000  -85.613316   59.622871  -18.046086  -65.781624
  0.026412826    0.000000    0.000000    0.000000    0.000000  -82.126236   64.855286  -18.260373  -70.573242
  0.026613226    0.000000    0.000000    0.000000    0.000000  -84.636310   66.452187  -18.524585  -75.269432
  0.026813627    0.000000    0.000000    0.000000    0.000000  -81.973861   50.479370  -18.907533  -81.350693
  0.027014028    0.000000    0.000000    0.000000    0.000000  -84.133880   55.653160  -19.322917  -86.149101
  0.027214429    0.000000    0.000000    0.000000    0.000000  -82.458801   59.148426  -19.884265  -93.058662
  0.027414830    0.000000    0.000000    0.000000    0.000000  -86.922902   47.650974  -20.565718  -98.852463
  0.027615230    0.000000    0.000000    0.000000    0.000000  -83.768936   45.856251  -21.441182 -104.264626
  0.027815631    0.000000    0.000000    0.000000    0.000000  -84.878697   57.826309  -22.482726 -110.091606
  0.028016032    0.000000    0.000000    0.000000    0.000000  -87.571124   71.615387  -23.628670 -116.243767
  0.028216433    0.000000    0.000000    0.000000    0.000000  -82.695785   60.893959  -25.107237 -121.327721
  0.028416834    0.000000    0.000000    0.000000    0.000000  -84.392292   49.427692  -26.863231 -125.623199
  0.028617234    0.000000    0.000000    0.000000    0.000000  -84.774809   53.104130  -28.734004 -128.290726
  0.028817635    0.000000    0.000000    0.000000    0.000000  -84.541717   70.885414  -31.269090 -129.104492
  0.029018036    0.000000    0.000000    0.000000    0.000000  -91.123286   61.114086  -33.695955 -124.223244
  0.029218437    0.000000    0.000000    0.000000    0.000000  -83.765552   71.527229  -37.488704 -117.021965
  0.029418838    0.000000    0.000000    0.000000    0.000000  -88.247994   76.914597  -39.479839  -89.318146
  0.029619238    0.000000    0.000000    0.000000    0.000000  -85.107486   75.640854  -38.570451  -65.053246
  0.029819639    0.000000    0.000000    0.000000    0.000000  -83.364151   66.859032  -37.464618  -45.322006
  0.030020040    0.000000    0.000000    0.000000    0.000000  -85.677014   68.862122  -35.217761  -39.507309
  0.030220441    0.000000    0.000000    0.000000    0.000000  -85.711150   35.749332  -34.149770  -32.713055
  0.030420842    0.000000    0.000000    0.000000    0.000000  -82.807666   54.193317  -32.462278  -32.340305
  0.030621242    0.000000    0.000000    0.000000    0.000000  -87.044628   72.975090  -31.654070  -33.097630
  0.030821643    0.000000    0.000000    0.000000    0.000000  -86.037847   46.733906  -31.219742  -33.797569
  0.031022044    0.000000    0.000000    0.000000    0.000000  -84.911955   72.911041  -30.724840  -36.020367
  0.031222445    0.000000    0.000000    0.000000    0.000000  -81.217356   63.986732  -30.286206  -37.932629
  0.031422846    0.000000    0.000000    0.000000    0.000000  -83.698779   77.197876  -29.901322  -41.374569
  0.031623246    0.000000    0.000000    0.000000    0.000000  -84.313517   53.838394  -29.328778  -41.362312
  0.031823647    0.000000    0.000000    0.000000    0.000000  -84.821566   82.861809  -29.438691  -43.307308
  0.032024048    0.000000    0.000000    0.000000    0.000000  -86.424613   65.795967  -29.213619  -44.460258
  0.032224449    0.000000    0.000000    0.000000    0.000000  -84.554138   52.871674  -29.468840  -45.171738
  0.032424850    0.000000    0.000000    0.000000    0.000000  -84.018055   57.395302  -29.548148  -46.790581
  0.032625251    0.000000    0.000000    0.000000    0.000000  -85.325448   69.332169  -29.654471  -46.846275
  0.032825651    0.000000    0.000000    0.000000    0.000000  -86.129052   75.577477  -29.138167  -48.868340
  0.033026052    0.000000    0.000000    0.000000    0.000000  -85.631493   54.716702  -29.723281  -50.945496
  0.033226453    0.000000    0.000000    0.000000    0.000000  -88.104748   55.093781  -29.708270  -50.596012
  0.033426854    0.000000    0.000000    0.000000    0.000000  -84.841547   50.275486  -29.675254  -51.369141
  0.033627255    0.000000    0.000000    0.000000    0.000000  -84.286540   85.712860  -30.044478  -53.674416
  0.033827655    0.000000    0.000000    0.000000    0.000000  -85.271073   61.713696  -29.994194  -53.244209
  0.034028056    0.000000    0.000000    0.000000    0.000000  -82.124008   84.046707  -30.064692  -54.325092
  0.034228457    0.000000    0.000000    0.000000    0.000000  -85.276804   63.269318  -30.306162  -55.241554
  0.034428858    0.000000    0.000000    0.000000    0.000000  -83.288294   63.921917  -30.488503  -56.093945
  0.034629259    0.000000    0.000000    0.000000    0.000000  -85.019467   62.082691  -30.767903  -57.663101
  0.034829659    0.000000    0.000000    0.000000    0.000000  -84.243283   44.932381  -30.640760  -55.538517
  0.035030060    0.000000    0.000000    0.000000    0.000000  -82.976624   65.954086  -31.041471  -53.990993
  0.035230461    0.000000    0.000000    0.000000    0.000000  -83.862108   64.581947  -31.129870  -54.997414
  0.035430862    0.000000    0.000000    0.000000    0.000000  -82.005757   64.612907  -31.082211  -55.685852
  0.035631263    0.000000    0.000000    0.000000    0.000000  -90.262508   86.364014  -31.468375  -53.651268
  0.035831663    0.000000    0.000000    0.000000    0.000000  -82.857404   85.671082  -31.297665  -54.660465
  0.036032064    0.000000    0.000000    0.000000    0.000000  -81.872273   59.395947  -31.336724  -56.283791
  0.036232465    0.000000    0.000000    0.000000    0.000000  -84.036786   62.154469  -31.949324  -51.654156
  0.036432866    0.000000    0.000000    0.000000    0.000000  -84.293814   59.521118  -31.829632  -52.494602
  0.036633267    0.000000    0.000000    0.000000    0.000000  -88.193545   80.219772  -31.916585  -54.010815
  0.036833667    0.000000    0.000000    0.000000    0.000000  -85.727885   51.082634  -31.861833  -52.964287
  0.037034068    0.000000    0.000000    0.000000    0.000000  -89.485069   89.394669  -31.946133  -51.966976
  0.037234469    0.000000    0.000000    0.000000    0.000000  -83.875759   42.621811  -31.995802  -53.281578
  0.037434870    0.000000    0.000000    0.000000    0.000000  -84.144992   55.037216  -32.277931  -51.997341
  0.037635271    0.000000    0.000000    0.000000    0.000000  -85.423727   65.938347  -31.668786  -50.327034
  0.037835671    0.000000    0.000000    0.000000    0.000000  -83.370612   63.415424  -32.095545  -50.815414
  0.038036072    0.000000    0.000000    0.000000    0.000000  -83.718863   57.921349  -32.066645  -51.834755
  0.038236473    0.000000    0.000000    0.000000    0.000000  -86.309996   43.332668  -31.914095  -50.807144
  0.038436874    0.000000    0.000000    0.000000    0.000000  -85.448447   67.126968  -32.334018  -49.015278
  0.038637275    0.000000    0.000000    0.000000    0.000000  -85.764507   81.269073  -31.906539  -49.228447
  0.038837675    0.000000    0.000000    0.000000    0.000000  -86.438073   59.975746  -32.604960  -52.034050
  0.039038076    0.000000    0.000000    0.000000    0.000000  -84.019310   67.791443  -32.391681  -51.749264
  0.039238477    0.000000    0.000000    0.000000    0.000000  -83.690457   63.701317  -32.029160  -50.776516
  0.039438878    0.000000    0.000000    0.000000    0.000000  -86.709168   70.429596  -32.389700  -47.423298
  0.039639279    0.000000    0.000000    0.000000    0.000000  -85.701135   50.851284  -32.388723  -51.828999
  0.039839679    0.000000    0.000000    0.000000    0.000000  -86.131432   66.938019  -32.370877  -52.701706
  0.040040080    0.000000    0.000000    0.000000    0.000000  -83.904448   75.582794  -31.810221  -50.028416
  0.040240481    0.000000    0.000000    0.000000    0.000000  -87.307324   82.939644  -31.794431  -50.748161
  0.040440882    0.000000    0.000000    0.000000    0.000000  -90.132243   59.050945  -32.126610  -51.305382
  0.040641283    0.000000    0.000000    0.000000    0.000000  -88.188595   74.329041  -31.922590  -51.782661
  0.040841683    0.000000    0.000000    0.000000    0.000000  -85.044229   49.685661  -31.782478  -53.164627
  0.041042084    0.000000    0.000000    0.000000    0.000000  -86.040836   69.794167  -32.576783  -53.037476
  0.041242485    0.000000    0.000000    0.000000    0.000000  -83.294669   61.095161  -32.641344  -52.431858
  0.041442886    0.000000    0.000000    0.000000    0.000000  -86.577456   43.556557  -32.468000  -54.690392
  0.041643287    0.000000    0.000000    0.000000    0.000000  -84.675834   73.254654  -32.380246  -55.582878
  0.041843687    0.000000    0.000000    0.000000    0.000000  -83.175960   68.459747  -32.482194  -55.332981
  0.042044088    0.000000    0.000000    0.000000    0.000000  -83.687324   78.833633  -31.798368  -57.079449
  0.042244489    0.000000    0.000000    0.000000    0.000000  -84.413830   75.508537  -32.077172  -55.567085
  0.042444890    0.000000    0.000000    0.000000    0.000000  -81.943306   84.821915  -32.701071  -56.248413
  0.042645291    0.000000    0.000000    0.000000    0.000000  -84.986142   74.771240  -32.921219  -56.854244
  0.042845691    0.000000    0.000000    0.000000    0.000000  -85.175402   85.307365  -32.898948  -58.141106
  0.043046092    0.000000    0.000000    0.000000    0.000000  -84.900813   25.791910  -33.064048  -59.520023
  0.043246493    0.000000    0.000000    0.000000    0.000000  -89.132095   44.395157  -33.362168  -56.654133
  0.043446894    0.000000    0.000000    0.000000    0.000000  -84.908512   69.987831  -33.023974  -59.296799
  0.043647295    0.000000    0.000000    0.000000    0.000000  -84.917815   56.741329  -33.181379  -59.109653
  0.043847695    0.000000    0.000000    0.000000    0.000000  -87.925799   53.574490  -33.312656  -60.965416
  0.044048096    0.000000    0.000000    0.000000    0.000000  -85.887925   75.265800  -33.591707  -62.967144
  0.044248497    0.000000    0.000000    0.000000    0.000000  -86.101606   41.612755  -33.114104  -60.192108
  0.044448898    0.000000    0.000000    0.000000    0.000000  -88.106636   34.227482  -33.924625  -60.477837
  0.044649299    0.000000    0.000000    0.000000    0.000000  -86.709107   36.488033  -34.388492  -60.022522
  0.044849699    0.000000    0.000000    0.000000    0.000000  -85.534283   77.811874  -34.068760  -64.810745
  0.045050100    0.000000    0.000000    0.000000    0.000000  -87.942246   97.990669  -34.241747  -64.563667
  0.045250501    0.000000    0.000000    0.000000    0.000000  -89.449645   52.262894  -34.850712  -65.442200
  0.045450902    0.000000    0.000000    0.000000    0.000000  -87.447355   52.864624  -34.683609  -63.378296
  0.045651303    0.000000    0.000000    0.000000    0.000000  -85.677801   70.080643  -34.893206  -62.039230
  0.045851703    0.000000    0.000000    0.000000    0.000000  -86.328625   66.716431  -35.021926  -63.358387
  0.046052104    0.000000    0.000000    0.000000    0.000000  -86.874799   85.776085  -35.249767  -64.797226
  0.046252505    0.000000    0.000000    0.000000    0.000000  -84.925025   73.783623  -35.402526  -61.968094
  0.046452906    0.000000    0.000000    0.000000    0.000000  -86.863384   59.102051  -36.476148  -59.599815
  0.046653307    0.000000    0.000000    0.000000    0.000000  -85.102391   88.368614  -36.295314  -61.774620
  0.046853707    0.000000    0.000000    0.000000    0.000000  -85.349452   65.560860  -36.216952  -64.725349
  0.047054108    0.000000    0.000000    0.000000    0.000000  -86.198119   60.807110  -37.213525  -64.159706
  0.047254509    0.000000    0.000000    0.000000    0.000000  -85.933885   59.193554  -36.856985  -61.399761
  0.047454910    0.000000    0.000000    0.000000    0.000000  -84.369048   54.317451  -36.840601  -59.001106
  0.047655311    0.000000    0.000000    0.000000    0.000000  -84.503512   74.480873  -38.555863  -60.811066
  0.047855711    0.000000    0.000000    0.000000    0.000000  -86.505857   68.054245  -38.477853  -59.034924
  0.048056112    0.000000    0.000000    0.000000    0.000000  -86.909075   36.175938  -37.946215  -62.788742
  0.048256513    0.000000    0.000000    0.000000    0.000000  -84.536566   70.821426  -38.559395  -58.065243
  0.048456914    0.000000    0.000000    0.000000    0.000000  -86.239463   49.732803  -38.839056  -57.057884
  0.048657315    0.000000    0.000000    0.000000    0.000000  -85.882855   76.622520  -39.139376  -57.508282
  0.048857715    0.000000    0.000000    0.000000    0.000000  -84.063376   83.927788  -39.893862  -51.444305
  0.049058116    0.000000    0.000000    0.000000    0.000000  -86.789588   76.790573  -39.670677  -51.461174
  0.049258517    0.000000    0.000000    0.000000    0.000000  -88.607154   66.399719  -40.423479  -48.580196
  0.049458918    0.000000    0.000000    0.000000    0.000000  -87.312878   72.253883  -39.886418  -44.433361
  0.049659319    0.000000    0.000000    0.000000    0.000000  -84.950230   62.052235  -41.306038  -47.834721
  0.049859719    0.000000    0.000000    0.000000    0.000000  -88.802617   59.425323  -41.551655  -39.395699
  0.050060120    0.000000    0.000000    0.000000    0.000000  -87.298342   82.555084  -41.292814  -40.033752
  0.050260521    0.000000    0.000000    0.000000    0.000000  -91.122554   59.123974  -41.647429  -32.191685
  0.050460922    0.000000    0.000000    0.000000    0.000000  -85.597267   71.471832  -40.648557  -25.435070
  0.050661323    0.000000    0.000000    0.000000    0.000000  -83.778425   72.502121  -41.407499  -25.299208
  0.050861723    0.000000    0.000000    0.000000    0.000000  -88.332860   81.129539  -40.684480  -23.961281
  0.051062124    0.000000    0.000000    0.000000    0.000000  -84.955950   69.673645  -41.315516  -27.624445
  0.051262525    0.000000    0.000000    0.000000    0.000000  -85.162592   85.775124  -39.944782  -15.929873
  0.051462926    0.000000    0.000000    0.000000    0.000000  -86.999426   52.903358  -39.957582  -13.245873
  0.051663327    0.000000    0.000000    0.000000    0.000000  -86.223447   56.245907  -40.651492  -24.035492
  0.051863727    0.000000    0.000000    0.000000    0.000000  -86.010141   73.149185  -40.281330  -10.571297
  0.052064128    0.000000    0.000000    0.000000    0.000000  -87.077705   69.580070  -39.418552  -14.152537
  0.052264529    0.000000    0.000000    0.000000    0.000000  -84.490370   79.633476  -39.453525   -6.433657
  0.052464930    0.000000    0.000000    0.000000    0.000000  -83.596997   62.760422  -38.474348   -7.366044
  0.052665331    0.000000    0.000000    0.000000    0.000000  -88.773338   53.323673  -39.342595   -4.465527
  0.052865731    0.000000    0.000000    0.000000    0.000000  -86.781925   57.487823  -38.657084   -4.601044
