! Anritsu VNA Master:                     Model: MS2036C/10/77
! SN:                                  1601066
! /card0/usr/18may12.lna.rl/255a.lna.rl.redo.s2p
! Existing Calibration Information:
! TYPE:                         Current Settings,       Active Cal Settings
! TIME:             	   05/13/2018 12:25:13 PM,    05/13/2018 12:19:54 PM
! INTERNAL TEMP:    	                   50.0 C,                    49.5 C
! # POINTS:         	                      500,                       500
! START FREQ:       	               20.000 MHz,                20.000 MHz
! STOP FREQ:        	              120.000 MHz,               120.000 MHz
! SOURCE POWER:     	                      Low,                       Low
! IFBW:             	                    10 Hz,                     10 Hz
! AVG FACTOR:       	                       1 ,                        1 
! REF PLANE 1:      	                     0 mm,                      0 mm
! REF PLANE 2:      	                     0 mm,                      0 mm
! CAL TYPE:         	                 Full S22,                  Full S22
! CAL METHOD:       	                     SOLT,                      SOLT
! CAL LINE TYPE:    	                     Coax,                      Coax
! DUT PORT 1:       	                K-Conn(M),                 K-Conn(M)
! DUT PORT 2:       	                K-Conn(M),                 K-Conn(M)
! CAL STATUS:       	        OK: Accuracy High,                        --
# GHZ S DB R 50.0
! FREQ.GHZ       S11DB        S11A       S21DB        S21A       S12DB        S12A       S22DB        S22A
  0.020000000    0.000000    0.000000    0.000000    0.000000  -83.228780   66.400421  -20.547141   26.770540
  0.020200401    0.000000    0.000000    0.000000    0.000000  -81.937109   67.413795  -20.497650   23.862522
  0.020400802    0.000000    0.000000    0.000000    0.000000  -83.710003   46.156734  -20.428669   21.258907
  0.020601202    0.000000    0.000000    0.000000    0.000000  -86.263310   67.127708  -20.343447   18.973705
  0.020801603    0.000000    0.000000    0.000000    0.000000  -82.750729   53.936893  -20.279026   16.803926
  0.021002004    0.000000    0.000000    0.000000    0.000000  -84.288611   69.995651  -20.291759   14.061033
  0.021202405    0.000000    0.000000    0.000000    0.000000  -86.251285   51.738922  -20.227724   11.294084
  0.021402806    0.000000    0.000000    0.000000    0.000000  -82.701714   50.043530  -20.137506    9.415594
  0.021603206    0.000000    0.000000    0.000000    0.000000  -84.038823   67.584297  -20.141212    5.975476
  0.021803607    0.000000    0.000000    0.000000    0.000000  -86.766960   51.442616  -20.114806    3.039630
  0.022004008    0.000000    0.000000    0.000000    0.000000  -83.487741   57.766468  -19.963818    0.165803
  0.022204409    0.000000    0.000000    0.000000    0.000000  -85.038270   49.468216  -20.002143   -1.755580
  0.022404810    0.000000    0.000000    0.000000    0.000000  -82.826130   63.742249  -19.967335   -5.408526
  0.022605210    0.000000    0.000000    0.000000    0.000000  -84.069121   61.885456  -19.859364   -7.911323
  0.022805611    0.000000    0.000000    0.000000    0.000000  -85.986686   58.367012  -19.879326  -10.436790
  0.023006012    0.000000    0.000000    0.000000    0.000000  -85.102638   70.009186  -19.829462  -14.061343
  0.023206413    0.000000    0.000000    0.000000    0.000000  -83.580243   73.187729  -19.799578  -16.627106
  0.023406814    0.000000    0.000000    0.000000    0.000000  -83.484348   53.317131  -19.745055  -20.498167
  0.023607214    0.000000    0.000000    0.000000    0.000000  -85.531482   62.531780  -19.673109  -23.617214
  0.023807615    0.000000    0.000000    0.000000    0.000000  -83.936573   84.830070  -19.584003  -26.463711
  0.024008016    0.000000    0.000000    0.000000    0.000000  -84.399623   68.621902  -19.627748  -30.310604
  0.024208417    0.000000    0.000000    0.000000    0.000000  -82.472365   52.029972  -19.650324  -33.595936
  0.024408818    0.000000    0.000000    0.000000    0.000000  -81.956315   50.325706  -19.574703  -37.034725
  0.024609218    0.000000    0.000000    0.000000    0.000000  -84.183762   83.971855  -19.492956  -41.417126
  0.024809619    0.000000    0.000000    0.000000    0.000000  -84.026770   46.853691  -19.510588  -45.752548
  0.025010020    0.000000    0.000000    0.000000    0.000000  -86.363192   54.776005  -19.495079  -49.081238
  0.025210421    0.000000    0.000000    0.000000    0.000000  -85.811251   71.305687  -19.449151  -53.909176
  0.025410822    0.000000    0.000000    0.000000    0.000000  -86.042326   60.515003  -19.343677  -58.328594
  0.025611222    0.000000    0.000000    0.000000    0.000000  -85.153336   68.966087  -19.581411  -63.342087
  0.025811623    0.000000    0.000000    0.000000    0.000000  -83.846956   58.468979  -19.511931  -68.547134
  0.026012024    0.000000    0.000000    0.000000    0.000000  -84.162554   63.973156  -19.584709  -74.077850
  0.026212425    0.000000    0.000000    0.000000    0.000000  -85.516729   55.036152  -19.606415  -79.261063
  0.026412826    0.000000    0.000000    0.000000    0.000000  -85.673511   33.143509  -19.726243  -85.572807
  0.026613226    0.000000    0.000000    0.000000    0.000000  -85.552067   55.210468  -19.882441  -91.385918
  0.026813627    0.000000    0.000000    0.000000    0.000000  -86.290931   60.095516  -20.082365  -97.932037
  0.027014028    0.000000    0.000000    0.000000    0.000000  -85.254857   63.385303  -20.388326 -105.068077
  0.027214429    0.000000    0.000000    0.000000    0.000000  -84.817785   22.867571  -20.679454 -111.826378
  0.027414830    0.000000    0.000000    0.000000    0.000000  -83.604296   67.816727  -21.094722 -119.148605
  0.027615230    0.000000    0.000000    0.000000    0.000000  -86.062331   59.542076  -21.505242 -126.472290
  0.027815631    0.000000    0.000000    0.000000    0.000000  -87.443335   59.999420  -22.086770 -133.641541
  0.028016032    0.000000    0.000000    0.000000    0.000000  -89.069704   58.077248  -22.834932 -141.629654
  0.028216433    0.000000    0.000000    0.000000    0.000000  -84.465445   69.631363  -23.422225 -149.373306
  0.028416834    0.000000    0.000000    0.000000    0.000000  -84.126200   71.001518  -24.193076 -156.993744
  0.028617234    0.000000    0.000000    0.000000    0.000000  -85.353110   60.677673  -25.202014 -164.972763
  0.028817635    0.000000    0.000000    0.000000    0.000000  -85.814735   67.296463  -26.168230 -172.097260
  0.029018036    0.000000    0.000000    0.000000    0.000000  -86.045514   62.803146  -27.397850 -178.030197
  0.029218437    0.000000    0.000000    0.000000    0.000000  -85.452021   51.360928  -28.453925  174.608841
  0.029418838    0.000000    0.000000    0.000000    0.000000  -86.662126   47.551380  -29.902372  167.423599
  0.029619238    0.000000    0.000000    0.000000    0.000000  -86.311675   54.242928  -31.103985  160.071915
  0.029819639    0.000000    0.000000    0.000000    0.000000  -86.381128   42.751282  -32.347615  154.533173
  0.030020040    0.000000    0.000000    0.000000    0.000000  -87.798149   41.330334  -33.884135  149.816208
  0.030220441    0.000000    0.000000    0.000000    0.000000  -84.172848   64.452484  -35.553683  142.752975
  0.030420842    0.000000    0.000000    0.000000    0.000000  -84.675731   57.137436  -37.088009  135.143631
  0.030621242    0.000000    0.000000    0.000000    0.000000  -85.042782   48.729931  -39.024319  130.088486
  0.030821643    0.000000    0.000000    0.000000    0.000000  -84.643403   52.028080  -40.275802  126.421600
  0.031022044    0.000000    0.000000    0.000000    0.000000  -84.495234   83.017639  -42.286658  109.969971
  0.031222445    0.000000    0.000000    0.000000    0.000000  -86.353929   93.956062  -45.875307  101.069885
  0.031422846    0.000000    0.000000    0.000000    0.000000  -90.019689   60.770550  -45.930144  105.042358
  0.031623246    0.000000    0.000000    0.000000    0.000000  -82.618384   67.918747  -49.050675   88.117500
  0.031823647    0.000000    0.000000    0.000000    0.000000  -92.065098   63.107704  -55.007433   80.574333
  0.032024048    0.000000    0.000000    0.000000    0.000000  -87.831875   48.093410  -60.997856   40.498302
  0.032224449    0.000000    0.000000    0.000000    0.000000  -84.243959   53.767139  -62.247821   25.826550
  0.032424850    0.000000    0.000000    0.000000    0.000000  -84.144133   64.445862  -54.370527   -6.378964
  0.032625251    0.000000    0.000000    0.000000    0.000000  -84.283077   69.871101  -65.472083   14.904426
  0.032825651    0.000000    0.000000    0.000000    0.000000  -85.582620   53.347866  -51.772028  -11.631757
  0.033026052    0.000000    0.000000    0.000000    0.000000  -85.753029   42.476208  -58.189938  -21.225492
  0.033226453    0.000000    0.000000    0.000000    0.000000  -83.993695   68.464844  -55.824844  -62.798870
  0.033426854    0.000000    0.000000    0.000000    0.000000  -83.474702   70.666534  -61.872961  -11.077708
  0.033627255    0.000000    0.000000    0.000000    0.000000  -87.098769   81.942368  -52.474621  -47.603653
  0.033827655    0.000000    0.000000    0.000000    0.000000  -82.797273   70.249565  -61.827977    2.455007
  0.034028056    0.000000    0.000000    0.000000    0.000000  -87.475923   74.087784  -61.642320    0.630482
  0.034228457    0.000000    0.000000    0.000000    0.000000  -86.857954   69.252205  -61.331564  -73.108437
  0.034428858    0.000000    0.000000    0.000000    0.000000  -86.506796   80.127434  -75.990522  111.483490
  0.034629259    0.000000    0.000000    0.000000    0.000000  -84.600807   67.525673  -66.182955   -6.998981
  0.034829659    0.000000    0.000000    0.000000    0.000000  -88.126004   52.248875  -66.168939  129.246109
  0.035030060    0.000000    0.000000    0.000000    0.000000  -85.018831   91.327034  -61.877832   84.504616
  0.035230461    0.000000    0.000000    0.000000    0.000000  -86.650411   78.661919  -60.394640   40.035282
  0.035430862    0.000000    0.000000    0.000000    0.000000  -84.129384   63.675797  -65.181464   44.224068
  0.035631263    0.000000    0.000000    0.000000    0.000000  -84.597951   44.390541  -63.869466  139.516327
  0.035831663    0.000000    0.000000    0.000000    0.000000  -85.441955   63.660381  -61.105791  104.429367
  0.036032064    0.000000    0.000000    0.000000    0.000000  -84.838110   69.734924  -55.199698   94.455254
  0.036232465    0.000000    0.000000    0.000000    0.000000  -84.656306   79.996712  -54.757133   63.565403
  0.036432866    0.000000    0.000000    0.000000    0.000000  -85.186550   68.630791  -54.877520   56.111156
  0.036633267    0.000000    0.000000    0.000000    0.000000  -81.293184   63.701931  -54.079736   33.796410
  0.036833667    0.000000    0.000000    0.000000    0.000000  -85.612717   47.319122  -49.048777   63.276848
  0.037034068    0.000000    0.000000    0.000000    0.000000  -84.804419   55.859924  -50.855842   51.152115
  0.037234469    0.000000    0.000000    0.000000    0.000000  -87.899390   47.926674  -52.298845   49.794819
  0.037434870    0.000000    0.000000    0.000000    0.000000  -85.910303   30.806950  -49.055083   55.445374
  0.037635271    0.000000    0.000000    0.000000    0.000000  -82.944676   66.987152  -50.018624   58.315964
  0.037835671    0.000000    0.000000    0.000000    0.000000  -85.343877   59.781086  -49.227979   52.642612
  0.038036072    0.000000    0.000000    0.000000    0.000000  -82.602667   69.230484  -49.621930   49.067032
  0.038236473    0.000000    0.000000    0.000000    0.000000  -84.027298   74.312645  -48.742440   36.025417
  0.038436874    0.000000    0.000000    0.000000    0.000000  -84.022659   49.928646  -48.526266   42.426331
  0.038637275    0.000000    0.000000    0.000000    0.000000  -84.384779   69.343445  -49.910193   59.640961
  0.038837675    0.000000    0.000000    0.000000    0.000000  -86.128235   61.571812  -48.346341   46.392712
  0.039038076    0.000000    0.000000    0.000000    0.000000  -87.311095   61.755089  -49.748354   40.476955
  0.039238477    0.000000    0.000000    0.000000    0.000000  -85.753194   56.402355  -47.932547   38.861004
  0.039438878    0.000000    0.000000    0.000000    0.000000  -82.767721   60.523762  -52.223541   40.390797
  0.039639279    0.000000    0.000000    0.000000    0.000000  -84.861523   65.631813  -49.066088   23.447649
  0.039839679    0.000000    0.000000    0.000000    0.000000  -84.621944   82.567589  -48.325497   47.520641
  0.040040080    0.000000    0.000000    0.000000    0.000000  -81.831286   62.454041  -49.028561   47.527802
  0.040240481    0.000000    0.000000    0.000000    0.000000  -94.170678   25.223246  -46.648794   46.900822
  0.040440882    0.000000    0.000000    0.000000    0.000000  -84.486738   64.824646  -51.267358   40.965336
  0.040641283    0.000000    0.000000    0.000000    0.000000  -83.757836   52.491657  -48.054192   25.712051
  0.040841683    0.000000    0.000000    0.000000    0.000000  -82.765441   63.448086  -48.191440   40.447632
  0.041042084    0.000000    0.000000    0.000000    0.000000  -85.345515   90.529427  -47.148832   47.382946
  0.041242485    0.000000    0.000000    0.000000    0.000000  -86.497217   71.022064  -45.846448   36.160149
  0.041442886    0.000000    0.000000    0.000000    0.000000  -84.446670   72.074905  -47.005418   31.360411
  0.041643287    0.000000    0.000000    0.000000    0.000000  -85.250929   65.597183  -49.869409   59.480114
  0.041843687    0.000000    0.000000    0.000000    0.000000  -85.584515   67.513390  -47.725766   52.604687
  0.042044088    0.000000    0.000000    0.000000    0.000000  -85.830197   48.350418  -48.664586   37.529621
  0.042244489    0.000000    0.000000    0.000000    0.000000  -87.251298   59.237751  -48.493665   59.367676
  0.042444890    0.000000    0.000000    0.000000    0.000000  -86.107114   74.610817  -48.983948   38.077152
  0.042645291    0.000000    0.000000    0.000000    0.000000  -88.029841   34.353455  -47.733536   68.727272
  0.042845691    0.000000    0.000000    0.000000    0.000000  -84.470376   84.119553  -47.379321   55.027012
  0.043046092    0.000000    0.000000    0.000000    0.000000  -86.484540   90.912949  -49.142566   46.820351
  0.043246493    0.000000    0.000000    0.000000    0.000000  -85.082895   68.821503  -48.161713   50.976349
  0.043446894    0.000000    0.000000    0.000000    0.000000  -85.383071   65.167923  -49.316463   42.160625
  0.043647295    0.000000    0.000000    0.000000    0.000000  -84.559404   47.825146  -48.626793   83.041901
  0.043847695    0.000000    0.000000    0.000000    0.000000  -84.285854   74.220222  -48.534968   69.318054
  0.044048096    0.000000    0.000000    0.000000    0.000000  -82.637057   63.205318  -48.721330   59.288994
  0.044248497    0.000000    0.000000    0.000000    0.000000  -83.429363   57.489834  -48.643066   62.899109
  0.044448898    0.000000    0.000000    0.000000    0.000000  -83.756800   87.994324  -46.020071   74.363129
  0.044649299    0.000000    0.000000    0.000000    0.000000  -87.879164   65.596687  -46.930261   70.527542
  0.044849699    0.000000    0.000000    0.000000    0.000000  -89.082818   80.411980  -49.935292   74.072159
  0.045050100    0.000000    0.000000    0.000000    0.000000  -84.263632   76.354744  -45.897283   88.446938
  0.045250501    0.000000    0.000000    0.000000    0.000000  -84.160335   55.672195  -46.347792   91.153816
  0.045450902    0.000000    0.000000    0.000000    0.000000  -86.468240   62.648605  -45.451721   83.549637
  0.045651303    0.000000    0.000000    0.000000    0.000000  -85.020062   61.535324  -45.054168   74.917389
  0.045851703    0.000000    0.000000    0.000000    0.000000  -85.877161   63.008091  -44.177814   95.190567
  0.046052104    0.000000    0.000000    0.000000    0.000000  -86.469804   63.949806  -45.412624   97.079094
  0.046252505    0.000000    0.000000    0.000000    0.000000  -88.169184   60.256210  -44.169315   89.331207
  0.046452906    0.000000    0.000000    0.000000    0.000000  -86.048502   85.299278  -44.558639   89.645241
  0.046653307    0.000000    0.000000    0.000000    0.000000  -83.589580   95.327606  -43.883304   93.420967
  0.046853707    0.000000    0.000000    0.000000    0.000000  -85.751459   73.633759  -42.688607   84.310852
  0.047054108    0.000000    0.000000    0.000000    0.000000  -86.103113   77.006775  -42.263729   92.146240
  0.047254509    0.000000    0.000000    0.000000    0.000000  -83.087249   78.196426  -43.392970   83.751762
  0.047454910    0.000000    0.000000    0.000000    0.000000  -85.263128   73.706116  -40.078399   98.404884
  0.047655311    0.000000    0.000000    0.000000    0.000000  -82.793552   60.401905  -41.920731   89.362999
  0.047855711    0.000000    0.000000    0.000000    0.000000  -84.097517   61.342476  -41.048978   89.247765
  0.048056112    0.000000    0.000000    0.000000    0.000000  -87.014785   67.100792  -41.350851   80.212013
  0.048256513    0.000000    0.000000    0.000000    0.000000  -85.388874   57.100487  -39.483142   81.761909
  0.048456914    0.000000    0.000000    0.000000    0.000000  -85.150935   62.175316  -39.046228   80.307068
  0.048657315    0.000000    0.000000    0.000000    0.000000  -83.185428   63.139847  -39.338689   88.480141
  0.048857715    0.000000    0.000000    0.000000    0.000000  -84.599528   61.109913  -38.766911   86.544174
  0.049058116    0.000000    0.000000    0.000000    0.000000  -88.155226   55.398144  -39.412204   87.750122
  0.049258517    0.000000    0.000000    0.000000    0.000000  -89.956073   79.733109  -39.451728   85.122681
  0.049458918    0.000000    0.000000    0.000000    0.000000  -86.128876   92.374016  -39.004199   80.909393
  0.049659319    0.000000    0.000000    0.000000    0.000000  -85.843750   68.090187  -38.425299   80.017708
  0.049859719    0.000000    0.000000    0.000000    0.000000  -85.128106   62.270432  -38.679309   82.150452
  0.050060120    0.000000    0.000000    0.000000    0.000000  -86.190330   56.894020  -38.964893   80.761627
  0.050260521    0.000000    0.000000    0.000000    0.000000  -86.741807   71.534416  -37.741623   79.201286
  0.050460922    0.000000    0.000000    0.000000    0.000000  -86.396525   81.315636  -37.691957   76.336510
  0.050661323    0.000000    0.000000    0.000000    0.000000  -85.408615   85.819557  -37.388198   77.751823
  0.050861723    0.000000    0.000000    0.000000    0.000000  -86.683576   71.132515  -37.348583   75.474861
  0.051062124    0.000000    0.000000    0.000000    0.000000  -85.216391   59.141365  -36.883147   74.103615
  0.051262525    0.000000    0.000000    0.000000    0.000000  -83.706274   79.813377  -36.631844   73.973610
  0.051462926    0.000000    0.000000    0.000000    0.000000  -85.780938   90.861870  -36.277898   71.047058
  0.051663327    0.000000    0.000000    0.000000    0.000000  -84.011884   67.555779  -36.655259   74.413445
  0.051863727    0.000000    0.000000    0.000000    0.000000  -84.076432   54.535526  -36.483808   70.259201
  0.052064128    0.000000    0.000000    0.000000    0.000000  -87.274369   97.382156  -36.065665   70.532288
  0.052264529    0.000000    0.000000    0.000000    0.000000  -83.335239   64.793625  -37.346985   70.381050
  0.052464930    0.000000    0.000000    0.000000    0.000000  -86.365328   33.150642  -35.585594   71.800201
  0.052665331    0.000000    0.000000    0.000000    0.000000  -85.609557   77.076843  -35.943425   68.123055
  0.052865731    0.000000    0.000000    0.000000    0.000000  -83.538858   66.197189  -36.047331   63.207630
