! Anritsu VNA Master:                     Model: MS2036C/10/77
! SN:                                  1601066
! /card0/usr/18may12.lna.rl/256a.lna.rl.s2p
! Existing Calibration Information:
! TYPE:                         Current Settings,       Active Cal Settings
! TIME:             	   05/12/2018 06:28:31 PM,    05/12/2018 06:23:31 PM
! INTERNAL TEMP:    	                   45.8 C,                    46.3 C
! # POINTS:         	                      500,                       500
! START FREQ:       	               20.000 MHz,                20.000 MHz
! STOP FREQ:        	              120.000 MHz,               120.000 MHz
! SOURCE POWER:     	                      Low,                       Low
! IFBW:             	                    10 Hz,                     10 Hz
! AVG FACTOR:       	                       1 ,                        1 
! REF PLANE 1:      	                     0 mm,                      0 mm
! REF PLANE 2:      	                     0 mm,                      0 mm
! CAL TYPE:         	                 Full S22,                  Full S22
! CAL METHOD:       	                     SOLT,                      SOLT
! CAL LINE TYPE:    	                     Coax,                      Coax
! DUT PORT 1:       	                K-Conn(M),                 K-Conn(M)
! DUT PORT 2:       	                K-Conn(M),                 K-Conn(M)
! CAL STATUS:       	        OK: Accuracy High,                        --
# GHZ S DB R 50.0
! FREQ.GHZ       S11DB        S11A       S21DB        S21A       S12DB        S12A       S22DB        S22A
  0.020000000    0.000000    0.000000    0.000000    0.000000  -87.103343   71.719063  -20.302841   27.752733
  0.020200401    0.000000    0.000000    0.000000    0.000000  -82.102747   66.533981  -20.093195   25.421833
  0.020400802    0.000000    0.000000    0.000000    0.000000  -84.619327   61.453098  -20.051753   22.128851
  0.020601202    0.000000    0.000000    0.000000    0.000000  -81.156584   54.513069  -20.051789   21.229689
  0.020801603    0.000000    0.000000    0.000000    0.000000  -84.008114   76.191574  -19.957794   17.865206
  0.021002004    0.000000    0.000000    0.000000    0.000000  -81.683498   65.538811  -19.923871   15.222466
  0.021202405    0.000000    0.000000    0.000000    0.000000  -82.187425   54.830139  -19.898352   13.004239
  0.021402806    0.000000    0.000000    0.000000    0.000000  -83.305237   50.309422  -19.765906   10.095962
  0.021603206    0.000000    0.000000    0.000000    0.000000  -83.544348   67.909363  -19.803927    7.905403
  0.021803607    0.000000    0.000000    0.000000    0.000000  -82.508722   55.828938  -19.767956    5.326532
  0.022004008    0.000000    0.000000    0.000000    0.000000  -82.564991   51.419022  -19.709854    2.724194
  0.022204409    0.000000    0.000000    0.000000    0.000000  -85.239863   72.308197  -19.630481    0.253970
  0.022404810    0.000000    0.000000    0.000000    0.000000  -81.169113   62.666950  -19.543656   -2.597801
  0.022605210    0.000000    0.000000    0.000000    0.000000  -83.184103   66.285767  -19.565127   -5.723445
  0.022805611    0.000000    0.000000    0.000000    0.000000  -81.932789   69.746735  -19.507764   -7.987539
  0.023006012    0.000000    0.000000    0.000000    0.000000  -82.011437   69.286766  -19.390932  -11.125612
  0.023206413    0.000000    0.000000    0.000000    0.000000  -83.301531   51.409573  -19.313675  -14.136170
  0.023406814    0.000000    0.000000    0.000000    0.000000  -81.890546   52.678402  -19.299575  -17.013594
  0.023607214    0.000000    0.000000    0.000000    0.000000  -83.767793   66.893959  -19.279686  -20.689119
  0.023807615    0.000000    0.000000    0.000000    0.000000  -82.703352   67.086792  -19.191698  -23.774458
  0.024008016    0.000000    0.000000    0.000000    0.000000  -83.608800   51.983315  -19.227617  -27.553375
  0.024208417    0.000000    0.000000    0.000000    0.000000  -84.346589   73.831459  -19.211955  -31.087927
  0.024408818    0.000000    0.000000    0.000000    0.000000  -83.838773   72.700668  -19.246030  -34.482506
  0.024609218    0.000000    0.000000    0.000000    0.000000  -85.879514   64.424965  -19.149317  -38.348328
  0.024809619    0.000000    0.000000    0.000000    0.000000  -83.681455   63.794369  -19.027223  -42.752193
  0.025010020    0.000000    0.000000    0.000000    0.000000  -83.858948   47.744358  -19.120843  -46.773399
  0.025210421    0.000000    0.000000    0.000000    0.000000  -84.624540   67.242157  -19.136542  -50.973885
  0.025410822    0.000000    0.000000    0.000000    0.000000  -87.089319   47.936989  -19.143150  -55.787647
  0.025611222    0.000000    0.000000    0.000000    0.000000  -84.402363   52.770725  -19.176085  -60.756672
  0.025811623    0.000000    0.000000    0.000000    0.000000  -88.659303   76.646774  -19.248194  -66.141312
  0.026012024    0.000000    0.000000    0.000000    0.000000  -84.297043   59.770164  -19.366889  -71.368149
  0.026212425    0.000000    0.000000    0.000000    0.000000  -84.615359   48.327492  -19.549770  -77.271690
  0.026412826    0.000000    0.000000    0.000000    0.000000  -84.825319   58.837791  -19.639658  -83.404572
  0.026613226    0.000000    0.000000    0.000000    0.000000  -85.521097   72.588661  -19.955282  -90.102959
  0.026813627    0.000000    0.000000    0.000000    0.000000  -85.668185   64.680389  -20.315336  -97.041649
  0.027014028    0.000000    0.000000    0.000000    0.000000  -84.550082   42.859676  -20.763414 -104.357681
  0.027214429    0.000000    0.000000    0.000000    0.000000  -85.836973   41.619381  -21.271501 -111.553947
  0.027414830    0.000000    0.000000    0.000000    0.000000  -84.501689   59.450932  -21.840872 -119.652458
  0.027615230    0.000000    0.000000    0.000000    0.000000  -85.399214   57.452183  -22.509919 -127.046310
  0.027815631    0.000000    0.000000    0.000000    0.000000  -83.103833   63.056751  -23.550248 -135.847763
  0.028016032    0.000000    0.000000    0.000000    0.000000  -85.632652   57.243637  -24.576913 -143.069855
  0.028216433    0.000000    0.000000    0.000000    0.000000  -86.280284   67.877098  -25.709987 -150.742569
  0.028416834    0.000000    0.000000    0.000000    0.000000  -86.228003   68.705559  -27.151540 -158.163010
  0.028617234    0.000000    0.000000    0.000000    0.000000  -85.557913   77.450340  -28.638136 -166.668259
  0.028817635    0.000000    0.000000    0.000000    0.000000  -84.566211   59.297150  -30.741556 -173.580963
  0.029018036    0.000000    0.000000    0.000000    0.000000  -83.644359   72.938744  -32.096698  177.925980
  0.029218437    0.000000    0.000000    0.000000    0.000000  -83.599399   68.821625  -34.293838  172.200836
  0.029418838    0.000000    0.000000    0.000000    0.000000  -84.605951   55.713726  -37.594925  158.229507
  0.029619238    0.000000    0.000000    0.000000    0.000000  -86.890077   56.436501  -40.242433  155.086929
  0.029819639    0.000000    0.000000    0.000000    0.000000  -84.025349   67.954422  -45.007233  133.872849
  0.030020040    0.000000    0.000000    0.000000    0.000000  -85.467490   68.274521  -51.233135   99.518059
  0.030220441    0.000000    0.000000    0.000000    0.000000  -83.419384   73.084702  -54.341711   44.915306
  0.030420842    0.000000    0.000000    0.000000    0.000000  -86.987825   72.717148  -47.568875   -8.430672
  0.030621242    0.000000    0.000000    0.000000    0.000000  -84.320805   70.485283  -46.638493  -16.562950
  0.030821643    0.000000    0.000000    0.000000    0.000000  -85.463195   52.510342  -43.567286  -26.053377
  0.031022044    0.000000    0.000000    0.000000    0.000000  -86.464457   59.575985  -40.993986  -37.018848
  0.031222445    0.000000    0.000000    0.000000    0.000000  -87.265653   45.255489  -40.368664  -40.384403
  0.031422846    0.000000    0.000000    0.000000    0.000000  -83.139626   84.792427  -39.167132  -46.473038
  0.031623246    0.000000    0.000000    0.000000    0.000000  -84.528383   47.784389  -38.728026  -51.502701
  0.031823647    0.000000    0.000000    0.000000    0.000000  -86.001830   80.147194  -38.564423  -51.908360
  0.032024048    0.000000    0.000000    0.000000    0.000000  -86.503490   57.463631  -37.926459  -57.376343
  0.032224449    0.000000    0.000000    0.000000    0.000000  -84.153872   71.193604  -37.917031  -57.292717
  0.032424850    0.000000    0.000000    0.000000    0.000000  -86.152063   69.425011  -37.250385  -66.687759
  0.032625251    0.000000    0.000000    0.000000    0.000000  -83.400877   48.955349  -37.535997  -63.348740
  0.032825651    0.000000    0.000000    0.000000    0.000000  -83.854141   52.296570  -37.941675  -73.993408
  0.033026052    0.000000    0.000000    0.000000    0.000000  -85.357737   54.051693  -37.766152  -70.296768
  0.033226453    0.000000    0.000000    0.000000    0.000000  -86.628065   67.788231  -38.247326  -75.741409
  0.033426854    0.000000    0.000000    0.000000    0.000000  -83.828450   79.283455  -38.658374  -80.850571
  0.033627255    0.000000    0.000000    0.000000    0.000000  -83.301120   48.265663  -38.536277  -84.607140
  0.033827655    0.000000    0.000000    0.000000    0.000000  -88.828652   48.139088  -39.111621  -88.142891
  0.034028056    0.000000    0.000000    0.000000    0.000000  -87.439223   61.214211  -40.237479  -91.841690
  0.034228457    0.000000    0.000000    0.000000    0.000000  -83.642596   60.466190  -39.767161  -93.981544
  0.034428858    0.000000    0.000000    0.000000    0.000000  -87.383169   64.931190  -40.139941  -90.136864
  0.034629259    0.000000    0.000000    0.000000    0.000000  -84.596104   52.153133  -41.099242  -99.559166
  0.034829659    0.000000    0.000000    0.000000    0.000000  -82.173826   66.401337  -42.014910 -101.472717
  0.035030060    0.000000    0.000000    0.000000    0.000000  -87.955993   72.136467  -42.446435 -109.335800
  0.035230461    0.000000    0.000000    0.000000    0.000000  -87.647631   66.631828  -42.390732 -103.938232
  0.035430862    0.000000    0.000000    0.000000    0.000000  -82.574030   77.833923  -45.260725  -98.527779
  0.035631263    0.000000    0.000000    0.000000    0.000000  -82.594745   91.557121  -44.590684 -113.542732
  0.035831663    0.000000    0.000000    0.000000    0.000000  -83.267167   44.856537  -44.460617 -116.293900
  0.036032064    0.000000    0.000000    0.000000    0.000000  -87.592315   72.149345  -45.824019 -105.454689
  0.036232465    0.000000    0.000000    0.000000    0.000000  -84.161644   60.291943  -46.434799 -126.648193
  0.036432866    0.000000    0.000000    0.000000    0.000000  -86.604551   73.982498  -46.837098 -111.942650
  0.036633267    0.000000    0.000000    0.000000    0.000000  -90.511844   83.895592  -49.900616 -106.657967
  0.036833667    0.000000    0.000000    0.000000    0.000000  -88.241895   78.260071  -46.465579 -127.419022
  0.037034068    0.000000    0.000000    0.000000    0.000000  -84.952644   78.810242  -54.789785 -153.448639
  0.037234469    0.000000    0.000000    0.000000    0.000000  -85.666626   52.730434  -50.946379 -127.569626
  0.037434870    0.000000    0.000000    0.000000    0.000000  -84.478754   64.030273  -55.635192 -120.592522
  0.037635271    0.000000    0.000000    0.000000    0.000000  -85.670827   54.236782  -55.953961 -117.396935
  0.037835671    0.000000    0.000000    0.000000    0.000000  -83.459633   59.135593  -56.409840 -175.211273
  0.038036072    0.000000    0.000000    0.000000    0.000000  -84.182537   69.607056  -60.750314  -76.360687
  0.038236473    0.000000    0.000000    0.000000    0.000000  -84.936763   62.727905  -70.154394 -127.737579
  0.038436874    0.000000    0.000000    0.000000    0.000000  -82.800620   56.608673  -62.292374  -30.056978
  0.038637275    0.000000    0.000000    0.000000    0.000000  -85.465765   38.585968  -57.652298  145.517105
  0.038837675    0.000000    0.000000    0.000000    0.000000  -85.577343   79.702530  -57.042337  105.075760
  0.039038076    0.000000    0.000000    0.000000    0.000000  -84.333440   62.452156  -52.128752   96.497536
  0.039238477    0.000000    0.000000    0.000000    0.000000  -83.785708   60.697575  -53.874086   43.448402
  0.039438878    0.000000    0.000000    0.000000    0.000000  -87.015609   49.861835  -52.921083   72.474403
  0.039639279    0.000000    0.000000    0.000000    0.000000  -85.698512   61.206001  -54.920719   60.734425
  0.039839679    0.000000    0.000000    0.000000    0.000000  -87.132321   56.907902  -57.796700   66.960129
  0.040040080    0.000000    0.000000    0.000000    0.000000  -83.541038   61.830368  -52.528217   54.163658
  0.040240481    0.000000    0.000000    0.000000    0.000000  -84.427156   78.742767  -50.884609   63.600475
  0.040440882    0.000000    0.000000    0.000000    0.000000  -83.978602   69.779129  -50.672166   63.373226
  0.040641283    0.000000    0.000000    0.000000    0.000000  -89.157617   78.548790  -50.767341   63.374229
  0.040841683    0.000000    0.000000    0.000000    0.000000  -82.792950   74.089401  -49.240334   43.255577
  0.041042084    0.000000    0.000000    0.000000    0.000000  -86.047790   49.179676  -47.462476   35.237774
  0.041242485    0.000000    0.000000    0.000000    0.000000  -86.484160   51.222416  -48.927436   56.184196
  0.041442886    0.000000    0.000000    0.000000    0.000000  -85.007746   67.988007  -50.258358   51.273117
  0.041643287    0.000000    0.000000    0.000000    0.000000  -84.953453   71.889435  -50.181732   44.882648
  0.041843687    0.000000    0.000000    0.000000    0.000000  -86.650378   90.913696  -46.595815   34.929462
  0.042044088    0.000000    0.000000    0.000000    0.000000  -86.026673   63.211201  -48.904327   23.323956
  0.042244489    0.000000    0.000000    0.000000    0.000000  -82.886937   57.256783  -48.013676   41.958584
  0.042444890    0.000000    0.000000    0.000000    0.000000  -86.841006   72.662575  -45.305610   54.888790
  0.042645291    0.000000    0.000000    0.000000    0.000000  -87.098520   81.252029  -46.906251   54.682362
  0.042845691    0.000000    0.000000    0.000000    0.000000  -84.717370   62.689346  -47.415064   41.905418
  0.043046092    0.000000    0.000000    0.000000    0.000000  -82.968960   63.917068  -45.630264   44.945156
  0.043246493    0.000000    0.000000    0.000000    0.000000  -83.860189   70.823639  -46.860447   48.071735
  0.043446894    0.000000    0.000000    0.000000    0.000000  -87.421176   52.888287  -48.044442   48.653278
  0.043647295    0.000000    0.000000    0.000000    0.000000  -83.888138   83.517227  -46.232051   49.204933
  0.043847695    0.000000    0.000000    0.000000    0.000000  -83.835788   42.136410  -46.368626   46.803677
  0.044048096    0.000000    0.000000    0.000000    0.000000  -85.926658   49.617542  -45.493710   63.272747
  0.044248497    0.000000    0.000000    0.000000    0.000000  -83.684513   72.062569  -44.810953   51.864601
  0.044448898    0.000000    0.000000    0.000000    0.000000  -84.342859   68.837234  -48.021669   62.616306
  0.044649299    0.000000    0.000000    0.000000    0.000000  -84.785529   45.296547  -47.794290   69.181015
  0.044849699    0.000000    0.000000    0.000000    0.000000  -82.627835   61.478287  -45.992838   52.844627
  0.045050100    0.000000    0.000000    0.000000    0.000000  -84.552535   68.955421  -43.943964   56.688992
  0.045250501    0.000000    0.000000    0.000000    0.000000  -85.420157   69.637001  -47.010264   58.231503
  0.045450902    0.000000    0.000000    0.000000    0.000000  -85.272074   75.120155  -45.719123   65.213921
  0.045651303    0.000000    0.000000    0.000000    0.000000  -85.512261   77.443573  -44.708885   60.095753
  0.045851703    0.000000    0.000000    0.000000    0.000000  -84.988387   72.214645  -43.290738   60.719044
  0.046052104    0.000000    0.000000    0.000000    0.000000  -85.182492   66.280502  -45.094384   54.998089
  0.046252505    0.000000    0.000000    0.000000    0.000000  -82.829212   56.042999  -44.417647   59.527573
  0.046452906    0.000000    0.000000    0.000000    0.000000  -86.294962   61.618248  -45.349500   60.404907
  0.046653307    0.000000    0.000000    0.000000    0.000000  -85.218600   77.786659  -43.012484   68.828766
  0.046853707    0.000000    0.000000    0.000000    0.000000  -85.407975   47.663380  -43.412694   60.161652
  0.047054108    0.000000    0.000000    0.000000    0.000000  -89.031233   52.339760  -42.471483   65.100555
  0.047254509    0.000000    0.000000    0.000000    0.000000  -84.166660   68.960304  -41.980346   68.288895
  0.047454910    0.000000    0.000000    0.000000    0.000000  -89.598587   81.503265  -43.511440   65.620209
  0.047655311    0.000000    0.000000    0.000000    0.000000  -83.543245   68.493271  -42.042931   70.356743
  0.047855711    0.000000    0.000000    0.000000    0.000000  -85.681556   89.336502  -43.392093   62.316254
  0.048056112    0.000000    0.000000    0.000000    0.000000  -85.929582   67.274750  -40.700290   61.984779
  0.048256513    0.000000    0.000000    0.000000    0.000000  -83.663259   78.812302  -42.327729   70.995178
  0.048456914    0.000000    0.000000    0.000000    0.000000  -85.214795   61.368958  -41.122036   62.254101
  0.048657315    0.000000    0.000000    0.000000    0.000000  -85.789499   67.627960  -40.653550   65.395241
  0.048857715    0.000000    0.000000    0.000000    0.000000  -88.438511   78.431259  -41.097685   67.951447
  0.049058116    0.000000    0.000000    0.000000    0.000000  -84.635325   56.101608  -41.066012   72.658005
  0.049258517    0.000000    0.000000    0.000000    0.000000  -87.703096   67.432938  -40.195548   65.026123
  0.049458918    0.000000    0.000000    0.000000    0.000000  -86.112191   66.314133  -40.582833   71.690544
  0.049659319    0.000000    0.000000    0.000000    0.000000  -87.087265   53.540051  -40.054514   61.946201
  0.049859719    0.000000    0.000000    0.000000    0.000000  -81.866008   59.530201  -39.472460   65.470268
  0.050060120    0.000000    0.000000    0.000000    0.000000  -92.679813   63.541401  -39.948442   63.301399
  0.050260521    0.000000    0.000000    0.000000    0.000000  -85.505749   90.277077  -38.633644   63.498745
  0.050460922    0.000000    0.000000    0.000000    0.000000  -85.819919   67.473450  -39.176296   56.933849
  0.050661323    0.000000    0.000000    0.000000    0.000000  -85.410564   80.049797  -38.999029   58.530991
  0.050861723    0.000000    0.000000    0.000000    0.000000  -88.171841   65.258797  -38.954415   55.848846
  0.051062124    0.000000    0.000000    0.000000    0.000000  -86.228985   44.618961  -37.763544   56.487049
  0.051262525    0.000000    0.000000    0.000000    0.000000  -85.796126   59.492859  -38.616084   60.511219
  0.051462926    0.000000    0.000000    0.000000    0.000000  -86.630652   71.752808  -38.550039   53.081722
  0.051663327    0.000000    0.000000    0.000000    0.000000  -84.944347   75.091606  -37.645054   54.514225
  0.051863727    0.000000    0.000000    0.000000    0.000000  -85.980632   78.539490  -38.545553   53.161186
  0.052064128    0.000000    0.000000    0.000000    0.000000  -83.953111   72.074905  -37.883241   48.789684
  0.052264529    0.000000    0.000000    0.000000    0.000000  -84.845834   95.973816  -37.154914   54.022758
  0.052464930    0.000000    0.000000    0.000000    0.000000  -89.171285   55.111641  -37.200846   51.317337
  0.052665331    0.000000    0.000000    0.000000    0.000000  -81.236261   76.119408  -37.046251   49.459976
  0.052865731    0.000000    0.000000    0.000000    0.000000  -89.486856   77.585754  -38.199222   53.279285
