! Anritsu VNA Master:                     Model: MS2036C/10/77
! SN:                                  1601066
! /card0/usr/18may12.lna.rl/256a.redo.lna.rl.s2p
! Existing Calibration Information:
! TYPE:                         Current Settings,       Active Cal Settings
! TIME:             	   05/13/2018 01:36:15 PM,    05/13/2018 01:31:14 PM
! INTERNAL TEMP:    	                   50.5 C,                    49.8 C
! # POINTS:         	                      500,                       500
! START FREQ:       	               20.000 MHz,                20.000 MHz
! STOP FREQ:        	              120.000 MHz,               120.000 MHz
! SOURCE POWER:     	                      Low,                       Low
! IFBW:             	                    10 Hz,                     10 Hz
! AVG FACTOR:       	                       1 ,                        1 
! REF PLANE 1:      	                     0 mm,                      0 mm
! REF PLANE 2:      	                     0 mm,                      0 mm
! CAL TYPE:         	                 Full S22,                  Full S22
! CAL METHOD:       	                     SOLT,                      SOLT
! CAL LINE TYPE:    	                     Coax,                      Coax
! DUT PORT 1:       	                K-Conn(M),                 K-Conn(M)
! DUT PORT 2:       	                K-Conn(M),                 K-Conn(M)
! CAL STATUS:       	        OK: Accuracy High,                        --
# GHZ S DB R 50.0
! FREQ.GHZ       S11DB        S11A       S21DB        S21A       S12DB        S12A       S22DB        S22A
  0.020000000    0.000000    0.000000    0.000000    0.000000  -83.069115   56.712090  -20.006688   26.299541
  0.020200401    0.000000    0.000000    0.000000    0.000000  -83.561737   46.324440  -19.913015   24.119812
  0.020400802    0.000000    0.000000    0.000000    0.000000  -82.596555   50.849998  -19.894835   21.690271
  0.020601202    0.000000    0.000000    0.000000    0.000000  -82.142926   71.209297  -19.931770   19.557041
  0.020801603    0.000000    0.000000    0.000000    0.000000  -82.770617   63.401321  -19.691193   16.549110
  0.021002004    0.000000    0.000000    0.000000    0.000000  -87.325800   61.354488  -19.732809   14.731641
  0.021202405    0.000000    0.000000    0.000000    0.000000  -82.721777   53.690319  -19.702953   12.554019
  0.021402806    0.000000    0.000000    0.000000    0.000000  -83.248051   64.654701  -19.632489   10.320773
  0.021603206    0.000000    0.000000    0.000000    0.000000  -84.095996   65.860909  -19.648381    7.231168
  0.021803607    0.000000    0.000000    0.000000    0.000000  -88.230982   58.825279  -19.594856    4.270405
  0.022004008    0.000000    0.000000    0.000000    0.000000  -83.317611   54.486088  -19.506654    1.730278
  0.022204409    0.000000    0.000000    0.000000    0.000000  -82.392890   56.362408  -19.374510   -0.484271
  0.022404810    0.000000    0.000000    0.000000    0.000000  -85.333337   64.562668  -19.369883   -3.289047
  0.022605210    0.000000    0.000000    0.000000    0.000000  -83.440676   61.692890  -19.294346   -6.080796
  0.022805611    0.000000    0.000000    0.000000    0.000000  -84.214993   57.774384  -19.238074   -8.672669
  0.023006012    0.000000    0.000000    0.000000    0.000000  -82.063239   50.027073  -19.130137  -11.957254
  0.023206413    0.000000    0.000000    0.000000    0.000000  -80.688810   70.649536  -19.185808  -15.056041
  0.023406814    0.000000    0.000000    0.000000    0.000000  -80.961354   61.929211  -19.131309  -17.382830
  0.023607214    0.000000    0.000000    0.000000    0.000000  -81.549651   80.994171  -19.134107  -20.746138
  0.023807615    0.000000    0.000000    0.000000    0.000000  -83.827578   47.996464  -18.999228  -24.420353
  0.024008016    0.000000    0.000000    0.000000    0.000000  -84.299557   68.206268  -18.988224  -27.658026
  0.024208417    0.000000    0.000000    0.000000    0.000000  -89.125258   58.020176  -18.991152  -30.640133
  0.024408818    0.000000    0.000000    0.000000    0.000000  -83.175932   53.261551  -19.022332  -34.164444
  0.024609218    0.000000    0.000000    0.000000    0.000000  -84.080478   75.636002  -18.912995  -38.608837
  0.024809619    0.000000    0.000000    0.000000    0.000000  -81.643103   53.243538  -18.945309  -42.243690
  0.025010020    0.000000    0.000000    0.000000    0.000000  -85.999257   52.979645  -18.900930  -46.021221
  0.025210421    0.000000    0.000000    0.000000    0.000000  -84.919142   66.819519  -18.962853  -50.933453
  0.025410822    0.000000    0.000000    0.000000    0.000000  -84.168479   75.725327  -19.080570  -55.055431
  0.025611222    0.000000    0.000000    0.000000    0.000000  -85.961055   74.433891  -19.072213  -60.079548
  0.025811623    0.000000    0.000000    0.000000    0.000000  -84.215383   78.521255  -19.182952  -65.552505
  0.026012024    0.000000    0.000000    0.000000    0.000000  -85.449351   65.728043  -19.207438  -70.387321
  0.026212425    0.000000    0.000000    0.000000    0.000000  -87.015813   61.931694  -19.339022  -76.512863
  0.026412826    0.000000    0.000000    0.000000    0.000000  -84.881160   46.574467  -19.559300  -82.340538
  0.026613226    0.000000    0.000000    0.000000    0.000000  -84.246301   58.925491  -19.855397  -88.685677
  0.026813627    0.000000    0.000000    0.000000    0.000000  -84.943668   55.305210  -20.195805  -95.525116
  0.027014028    0.000000    0.000000    0.000000    0.000000  -83.541951   70.826180  -20.677822 -102.552444
  0.027214429    0.000000    0.000000    0.000000    0.000000  -83.423352   72.064789  -21.228915 -109.582062
  0.027414830    0.000000    0.000000    0.000000    0.000000  -85.632964   64.571571  -21.818723 -117.553513
  0.027615230    0.000000    0.000000    0.000000    0.000000  -82.201839   66.215858  -22.706118 -125.125038
  0.027815631    0.000000    0.000000    0.000000    0.000000  -83.716475   55.321945  -23.562918 -133.322525
  0.028016032    0.000000    0.000000    0.000000    0.000000  -84.086557   50.142807  -24.805262 -140.732422
  0.028216433    0.000000    0.000000    0.000000    0.000000  -83.672172   56.123840  -26.121396 -148.789993
  0.028416834    0.000000    0.000000    0.000000    0.000000  -85.278111   57.996059  -27.685612 -156.232086
  0.028617234    0.000000    0.000000    0.000000    0.000000  -84.542791   58.889645  -29.294055 -162.438843
  0.028817635    0.000000    0.000000    0.000000    0.000000  -86.487712   64.210831  -31.176266 -169.442215
  0.029018036    0.000000    0.000000    0.000000    0.000000  -85.609107   69.433807  -33.288920 -178.225082
  0.029218437    0.000000    0.000000    0.000000    0.000000  -85.342747   72.605164  -35.898937  177.066177
  0.029418838    0.000000    0.000000    0.000000    0.000000  -87.025907   62.145420  -39.408227  169.383377
  0.029619238    0.000000    0.000000    0.000000    0.000000  -84.577280   66.096481  -44.559168  160.739029
  0.029819639    0.000000    0.000000    0.000000    0.000000  -84.340587   54.296715  -50.694159  131.644135
  0.030020040    0.000000    0.000000    0.000000    0.000000  -86.683880   72.522293  -51.880159    9.298336
  0.030220441    0.000000    0.000000    0.000000    0.000000  -84.591464   60.717617  -46.259122  -11.037469
  0.030420842    0.000000    0.000000    0.000000    0.000000  -86.133143   56.988068  -42.477048  -19.898052
  0.030621242    0.000000    0.000000    0.000000    0.000000  -85.013590   77.731598  -41.496788  -26.727764
  0.030821643    0.000000    0.000000    0.000000    0.000000  -84.559666   53.607738  -39.579753  -33.980354
  0.031022044    0.000000    0.000000    0.000000    0.000000  -83.429587   63.100216  -38.656881  -37.565250
  0.031222445    0.000000    0.000000    0.000000    0.000000  -82.818334   56.507595  -37.335125  -39.264553
  0.031422846    0.000000    0.000000    0.000000    0.000000  -83.109362   58.840858  -36.414459  -45.800903
  0.031623246    0.000000    0.000000    0.000000    0.000000  -81.439649   59.993900  -36.645817  -48.038490
  0.031823647    0.000000    0.000000    0.000000    0.000000  -86.628523   65.223045  -37.103677  -53.366661
  0.032024048    0.000000    0.000000    0.000000    0.000000  -84.018182   45.834721  -36.258441  -51.573139
  0.032224449    0.000000    0.000000    0.000000    0.000000  -83.400973   59.697876  -35.633066  -57.493355
  0.032424850    0.000000    0.000000    0.000000    0.000000  -85.908777   71.360497  -36.309068  -59.292995
  0.032625251    0.000000    0.000000    0.000000    0.000000  -87.416577   52.820587  -36.174168  -65.953918
  0.032825651    0.000000    0.000000    0.000000    0.000000  -82.669117   58.140816  -36.694506  -67.198982
  0.033026052    0.000000    0.000000    0.000000    0.000000  -87.137498   57.868469  -37.162255  -65.481430
  0.033226453    0.000000    0.000000    0.000000    0.000000  -89.350520   38.058468  -36.507855  -67.826569
  0.033426854    0.000000    0.000000    0.000000    0.000000  -81.960080   67.161095  -36.802173  -73.445717
  0.033627255    0.000000    0.000000    0.000000    0.000000  -84.976528   53.699284  -36.805465  -71.720963
  0.033827655    0.000000    0.000000    0.000000    0.000000  -83.501789   61.144585  -37.547999  -73.921989
  0.034028056    0.000000    0.000000    0.000000    0.000000  -86.482713   82.091682  -38.569929  -78.516129
  0.034228457    0.000000    0.000000    0.000000    0.000000  -85.870921   55.134518  -37.766034  -79.541252
  0.034428858    0.000000    0.000000    0.000000    0.000000  -84.178875   59.276474  -38.559270  -82.495827
  0.034629259    0.000000    0.000000    0.000000    0.000000  -85.561425   63.344341  -39.038736  -84.001648
  0.034829659    0.000000    0.000000    0.000000    0.000000  -84.731176   69.949715  -39.926992  -84.128288
  0.035030060    0.000000    0.000000    0.000000    0.000000  -86.363506   67.717369  -40.183403  -86.551102
  0.035230461    0.000000    0.000000    0.000000    0.000000  -86.321169   63.775486  -41.374476  -91.580734
  0.035430862    0.000000    0.000000    0.000000    0.000000  -85.503665   64.069679  -41.141834  -96.120384
  0.035631263    0.000000    0.000000    0.000000    0.000000  -87.539886   63.231247  -42.327308  -88.492775
  0.035831663    0.000000    0.000000    0.000000    0.000000  -86.219058   79.331520  -42.699820  -95.632881
  0.036032064    0.000000    0.000000    0.000000    0.000000  -84.767052   70.032303  -42.920033  -99.818184
  0.036232465    0.000000    0.000000    0.000000    0.000000  -84.609082   52.878139  -45.979072  -93.398003
  0.036432866    0.000000    0.000000    0.000000    0.000000  -85.039215   71.667068  -44.847884  -88.003708
  0.036633267    0.000000    0.000000    0.000000    0.000000  -85.168642   44.377869  -45.277489  -90.480003
  0.036833667    0.000000    0.000000    0.000000    0.000000  -84.410294   65.736267  -46.007769  -83.992271
  0.037034068    0.000000    0.000000    0.000000    0.000000  -84.542729   76.150131  -49.064961  -74.255051
  0.037234469    0.000000    0.000000    0.000000    0.000000  -84.333675   57.229126  -49.212415  -75.513229
  0.037434870    0.000000    0.000000    0.000000    0.000000  -83.104151   60.544697  -49.581006  -54.375576
  0.037635271    0.000000    0.000000    0.000000    0.000000  -86.313097   63.515247  -50.571435  -59.519669
  0.037835671    0.000000    0.000000    0.000000    0.000000  -92.338068   61.485554  -50.627865  -70.026947
  0.038036072    0.000000    0.000000    0.000000    0.000000  -84.099457   79.743889  -48.217703  -47.021370
  0.038236473    0.000000    0.000000    0.000000    0.000000  -85.915646   87.079582  -50.189557  -41.628078
  0.038436874    0.000000    0.000000    0.000000    0.000000  -82.353218   82.285202  -53.305351  -23.299862
  0.038637275    0.000000    0.000000    0.000000    0.000000  -85.307832   58.718971  -51.756875  -29.242851
  0.038837675    0.000000    0.000000    0.000000    0.000000  -88.877149   64.548836  -49.164071  -37.126747
  0.039038076    0.000000    0.000000    0.000000    0.000000  -85.423062   73.101158  -48.171229   -6.044307
  0.039238477    0.000000    0.000000    0.000000    0.000000  -85.264222   59.479446  -48.352547  -11.011549
  0.039438878    0.000000    0.000000    0.000000    0.000000  -85.285161   86.636818  -48.626412    5.252212
  0.039639279    0.000000    0.000000    0.000000    0.000000  -86.575093   59.062286  -46.229824   -3.724618
  0.039839679    0.000000    0.000000    0.000000    0.000000  -85.145446   70.736061  -45.880224   -1.327250
  0.040040080    0.000000    0.000000    0.000000    0.000000  -82.497032   89.518478  -49.042428  -17.391556
  0.040240481    0.000000    0.000000    0.000000    0.000000  -86.450523   59.850849  -46.582671   -8.088385
  0.040440882    0.000000    0.000000    0.000000    0.000000  -84.085644   63.345627  -44.719682   -3.152117
  0.040641283    0.000000    0.000000    0.000000    0.000000  -85.861774   41.438896  -47.068060    7.327243
  0.040841683    0.000000    0.000000    0.000000    0.000000  -85.967153   80.729340  -47.873947    8.657858
  0.041042084    0.000000    0.000000    0.000000    0.000000  -81.610843   53.714020  -45.369614    0.973690
  0.041242485    0.000000    0.000000    0.000000    0.000000  -85.389285   58.097050  -45.183069    0.773437
  0.041442886    0.000000    0.000000    0.000000    0.000000  -85.025996   77.761475  -45.842542    7.963488
  0.041643287    0.000000    0.000000    0.000000    0.000000  -84.104565   71.686356  -45.717857    0.939315
  0.041843687    0.000000    0.000000    0.000000    0.000000  -83.473485   78.999382  -44.492731    0.718170
  0.042044088    0.000000    0.000000    0.000000    0.000000  -85.057636   67.498497  -45.686816    9.414271
  0.042244489    0.000000    0.000000    0.000000    0.000000  -85.248322   57.116676  -46.356182  -13.022997
  0.042444890    0.000000    0.000000    0.000000    0.000000  -82.188158   81.720184  -44.451946   -0.091915
  0.042645291    0.000000    0.000000    0.000000    0.000000  -83.298027   62.330368  -44.322826    4.104455
  0.042845691    0.000000    0.000000    0.000000    0.000000  -88.901757   56.904446  -45.917654    5.617982
  0.043046092    0.000000    0.000000    0.000000    0.000000  -88.351631   69.744705  -44.689713   -4.977750
  0.043246493    0.000000    0.000000    0.000000    0.000000  -83.611255   81.760605  -44.007118    6.360327
  0.043446894    0.000000    0.000000    0.000000    0.000000  -84.055517   68.898376  -46.029237    7.501558
  0.043647295    0.000000    0.000000    0.000000    0.000000  -85.748481   79.182716  -44.562235    3.186516
  0.043847695    0.000000    0.000000    0.000000    0.000000  -84.642076   41.182877  -45.742577   18.817598
  0.044048096    0.000000    0.000000    0.000000    0.000000  -84.415409   59.719425  -45.294085    2.650048
  0.044248497    0.000000    0.000000    0.000000    0.000000  -84.975383   63.615467  -44.277364   -0.923870
  0.044448898    0.000000    0.000000    0.000000    0.000000  -84.856806   71.846451  -45.921516   15.916357
  0.044649299    0.000000    0.000000    0.000000    0.000000  -83.330091   78.266937  -45.487025    6.557209
  0.044849699    0.000000    0.000000    0.000000    0.000000  -84.989300   61.623005  -45.064852    9.726542
  0.045050100    0.000000    0.000000    0.000000    0.000000  -84.486874   85.868942  -43.008269   13.081440
  0.045250501    0.000000    0.000000    0.000000    0.000000  -84.796187   72.426422  -44.102226   -1.667245
  0.045450902    0.000000    0.000000    0.000000    0.000000  -87.508448   48.949860  -44.422117   19.741074
  0.045651303    0.000000    0.000000    0.000000    0.000000  -83.749298   51.425591  -45.098354   12.708703
  0.045851703    0.000000    0.000000    0.000000    0.000000  -84.579296   97.415672  -46.592138   12.097502
  0.046052104    0.000000    0.000000    0.000000    0.000000  -88.573711   75.302780  -45.510131   30.647070
  0.046252505    0.000000    0.000000    0.000000    0.000000  -87.138435   53.151031  -45.486574   11.582150
  0.046452906    0.000000    0.000000    0.000000    0.000000  -87.641358   62.356438  -44.553222   31.474983
  0.046653307    0.000000    0.000000    0.000000    0.000000  -84.011230   65.128609  -43.686372   23.689611
  0.046853707    0.000000    0.000000    0.000000    0.000000  -85.476774   57.983135  -44.506255   31.514162
  0.047054108    0.000000    0.000000    0.000000    0.000000  -85.255672   85.123100  -42.572792   30.560131
  0.047254509    0.000000    0.000000    0.000000    0.000000  -87.212292   44.664188  -44.152971   34.504223
  0.047454910    0.000000    0.000000    0.000000    0.000000  -86.669736   76.080742  -43.056475   37.727985
  0.047655311    0.000000    0.000000    0.000000    0.000000  -81.975955   60.055813  -43.828881   37.950882
  0.047855711    0.000000    0.000000    0.000000    0.000000  -84.722436   79.991524  -43.587035   37.901047
  0.048056112    0.000000    0.000000    0.000000    0.000000  -83.513750   74.421539  -42.050516   29.458271
  0.048256513    0.000000    0.000000    0.000000    0.000000  -84.837444   74.903191  -43.331804   32.084183
  0.048456914    0.000000    0.000000    0.000000    0.000000  -85.786483   68.301102  -42.296448   35.536922
  0.048657315    0.000000    0.000000    0.000000    0.000000  -84.859003   72.381882  -42.941774   34.257950
  0.048857715    0.000000    0.000000    0.000000    0.000000  -84.523944   95.065895  -41.142499   36.303589
  0.049058116    0.000000    0.000000    0.000000    0.000000  -84.978457   64.649261  -41.513162   35.686623
  0.049258517    0.000000    0.000000    0.000000    0.000000  -86.068835   77.774094  -41.690407   35.686825
  0.049458918    0.000000    0.000000    0.000000    0.000000  -89.116400   72.979889  -41.813899   44.022606
  0.049659319    0.000000    0.000000    0.000000    0.000000  -84.890202   45.169884  -41.257708   41.142502
  0.049859719    0.000000    0.000000    0.000000    0.000000  -85.224411   51.606415  -39.442935   38.485828
  0.050060120    0.000000    0.000000    0.000000    0.000000  -88.504112   66.725807  -40.683638   35.681797
  0.050260521    0.000000    0.000000    0.000000    0.000000  -85.537302   82.523209  -40.883139   38.126148
  0.050460922    0.000000    0.000000    0.000000    0.000000  -86.390491   78.473495  -40.252761   39.790184
  0.050661323    0.000000    0.000000    0.000000    0.000000  -85.912433   74.180138  -39.564921   38.644794
  0.050861723    0.000000    0.000000    0.000000    0.000000  -84.115102   82.051300  -40.392815   35.980579
  0.051062124    0.000000    0.000000    0.000000    0.000000  -84.920221   70.933334  -39.627590   35.675072
  0.051262525    0.000000    0.000000    0.000000    0.000000  -85.122510   87.203209  -38.263032   35.101891
  0.051462926    0.000000    0.000000    0.000000    0.000000  -83.526852   62.001068  -39.891126   38.269970
  0.051663327    0.000000    0.000000    0.000000    0.000000  -85.431486   63.686302  -38.488607   35.536221
  0.051863727    0.000000    0.000000    0.000000    0.000000  -87.752824   64.826233  -38.871221   35.511829
  0.052064128    0.000000    0.000000    0.000000    0.000000  -85.473565   69.291061  -38.836757   34.073410
  0.052264529    0.000000    0.000000    0.000000    0.000000  -87.352821   47.679585  -38.366119   31.807137
  0.052464930    0.000000    0.000000    0.000000    0.000000  -87.035044   27.944311  -37.413364   38.221462
  0.052665331    0.000000    0.000000    0.000000    0.000000  -84.260142   62.649410  -39.295454   32.567024
  0.052865731    0.000000    0.000000    0.000000    0.000000  -85.776917   67.888382  -38.575700   31.167212
