! Anritsu VNA Master:                     Model: MS2036C/10/77
! SN:                                  1601066
! /bd0/18may09/b255.ew.m3.s2p
! Existing Calibration Information:
! TYPE:                         Current Settings,       Active Cal Settings
! TIME:             	   05/09/2018 08:12:48 PM,    05/09/2018 08:05:48 PM
! INTERNAL TEMP:    	                   54.3 C,                    54.5 C
! # POINTS:         	                      494,                       494
! START FREQ:       	               20.000 MHz,                20.000 MHz
! STOP FREQ:        	          118.797 594 MHz,           118.797 594 MHz
! SOURCE POWER:     	                     High,                      High
! IFBW:             	                    50 Hz,                     50 Hz
! AVG FACTOR:       	                       1 ,                        1 
! REF PLANE 1:      	                     0 mm,                      0 mm
! REF PLANE 2:      	                     0 mm,                      0 mm
! CAL TYPE:         	                 Full S22,                  Full S22
! CAL METHOD:       	                     SOLT,                      SOLT
! CAL LINE TYPE:    	                     Coax,                      Coax
! DUT PORT 1:       	                K-Conn(M),                 K-Conn(M)
! DUT PORT 2:       	                K-Conn(M),                 K-Conn(M)
! CAL STATUS:       	        OK: Accuracy High,                        --
# GHZ S DB R 50.0
! FREQ.GHZ       S11DB        S11A       S21DB        S21A       S12DB        S12A       S22DB        S22A
  0.020000000    0.000000    0.000000    0.000000    0.000000  -89.283306   35.745018   -0.902198 -125.590897
  0.020200401    0.000000    0.000000    0.000000    0.000000  -90.036280   34.339478   -0.909502 -127.032928
  0.020400802    0.000000    0.000000    0.000000    0.000000  -89.823064   32.011143   -0.918138 -128.492630
  0.020601202    0.000000    0.000000    0.000000    0.000000  -90.705445   33.803436   -0.928019 -129.955872
  0.020801603    0.000000    0.000000    0.000000    0.000000  -90.712160   36.138161   -0.938178 -131.452637
  0.021002004    0.000000    0.000000    0.000000    0.000000  -90.505302   35.057217   -0.946851 -132.963196
  0.021202405    0.000000    0.000000    0.000000    0.000000  -91.104582   32.805904   -0.955239 -134.469284
  0.021402806    0.000000    0.000000    0.000000    0.000000  -91.220087   37.492771   -0.964493 -135.963852
  0.021603206    0.000000    0.000000    0.000000    0.000000  -91.481733   39.763889   -0.973454 -137.472656
  0.021803607    0.000000    0.000000    0.000000    0.000000  -91.665269   34.413303   -0.983702 -138.966965
  0.022004008    0.000000    0.000000    0.000000    0.000000  -92.066175   43.224472   -0.994861 -140.451416
  0.022204409    0.000000    0.000000    0.000000    0.000000  -92.052700   40.724556   -1.006740 -141.969650
  0.022404810    0.000000    0.000000    0.000000    0.000000  -91.844112   42.300137   -1.017896 -143.528854
  0.022605210    0.000000    0.000000    0.000000    0.000000  -91.646360   44.333950   -1.025612 -145.090668
  0.022805611    0.000000    0.000000    0.000000    0.000000  -91.200804   41.849335   -1.035670 -146.649918
  0.023006012    0.000000    0.000000    0.000000    0.000000  -91.518388   39.619236   -1.046522 -148.207535
  0.023206413    0.000000    0.000000    0.000000    0.000000  -91.402965   40.038795   -1.055435 -149.756271
  0.023406814    0.000000    0.000000    0.000000    0.000000  -91.157520   39.875706   -1.065886 -151.313095
  0.023607214    0.000000    0.000000    0.000000    0.000000  -91.747900   39.454098   -1.078557 -152.891357
  0.023807615    0.000000    0.000000    0.000000    0.000000  -91.637794   37.542099   -1.090738 -154.473587
  0.024008016    0.000000    0.000000    0.000000    0.000000  -91.581401   40.161419   -1.104234 -156.084457
  0.024208417    0.000000    0.000000    0.000000    0.000000  -91.524133   35.106441   -1.115826 -157.714066
  0.024408818    0.000000    0.000000    0.000000    0.000000  -91.551718   32.243523   -1.127274 -159.355804
  0.024609218    0.000000    0.000000    0.000000    0.000000  -91.283043   34.084141   -1.138239 -160.990845
  0.024809619    0.000000    0.000000    0.000000    0.000000  -91.247810   33.078697   -1.151671 -162.629807
  0.025010020    0.000000    0.000000    0.000000    0.000000  -92.070979   28.016361   -1.167890 -164.286728
  0.025210421    0.000000    0.000000    0.000000    0.000000  -91.771267   27.478981   -1.181578 -165.936493
  0.025410822    0.000000    0.000000    0.000000    0.000000  -91.424171   24.580500   -1.197339 -167.607468
  0.025611222    0.000000    0.000000    0.000000    0.000000  -92.584590   27.917601   -1.213552 -169.288040
  0.025811623    0.000000    0.000000    0.000000    0.000000  -92.409628   27.793398   -1.229563 -170.990433
  0.026012024    0.000000    0.000000    0.000000    0.000000  -92.510197   19.520454   -1.245926 -172.694199
  0.026212425    0.000000    0.000000    0.000000    0.000000  -93.039855   24.907465   -1.262310 -174.413025
  0.026412826    0.000000    0.000000    0.000000    0.000000  -93.367016   24.373798   -1.279632 -176.132736
  0.026613226    0.000000    0.000000    0.000000    0.000000  -93.424222   27.100075   -1.298615 -177.869751
  0.026813627    0.000000    0.000000    0.000000    0.000000  -93.735616   26.615627   -1.318647 -179.615768
  0.027014028    0.000000    0.000000    0.000000    0.000000  -94.079684   27.647575   -1.340109  178.643845
  0.027214429    0.000000    0.000000    0.000000    0.000000  -94.508537   28.561003   -1.361639  176.892105
  0.027414830    0.000000    0.000000    0.000000    0.000000  -94.075368   28.688915   -1.382513  175.136734
  0.027615230    0.000000    0.000000    0.000000    0.000000  -94.251067   30.789629   -1.404107  173.352325
  0.027815631    0.000000    0.000000    0.000000    0.000000  -94.838837   31.258743   -1.427317  171.573547
  0.028016032    0.000000    0.000000    0.000000    0.000000  -94.831307   31.793165   -1.451189  169.770203
  0.028216433    0.000000    0.000000    0.000000    0.000000  -94.317054   32.599041   -1.476597  167.966385
  0.028416834    0.000000    0.000000    0.000000    0.000000  -94.057871   31.983751   -1.502441  166.147568
  0.028617234    0.000000    0.000000    0.000000    0.000000  -94.513959   35.993103   -1.528979  164.334320
  0.028817635    0.000000    0.000000    0.000000    0.000000  -94.390948   34.338318   -1.555392  162.510345
  0.029018036    0.000000    0.000000    0.000000    0.000000  -94.689572   33.667904   -1.583833  160.697296
  0.029218437    0.000000    0.000000    0.000000    0.000000  -94.213256   33.183998   -1.613168  158.852066
  0.029418838    0.000000    0.000000    0.000000    0.000000  -94.412447   34.957287   -1.643188  156.988647
  0.029619238    0.000000    0.000000    0.000000    0.000000  -94.006063   28.031370   -1.673800  155.119247
  0.029819639    0.000000    0.000000    0.000000    0.000000  -94.530324   27.238016   -1.704179  153.245316
  0.030020040    0.000000    0.000000    0.000000    0.000000  -94.181782   27.427809   -1.737078  151.370209
  0.030220441    0.000000    0.000000    0.000000    0.000000  -94.749157   26.396225   -1.767431  149.476563
  0.030420842    0.000000    0.000000    0.000000    0.000000  -94.571460   27.069651   -1.798384  147.589188
  0.030621242    0.000000    0.000000    0.000000    0.000000  -94.517932   27.396255   -1.834351  145.706970
  0.030821643    0.000000    0.000000    0.000000    0.000000  -94.554189   26.314747   -1.869528  143.816193
  0.031022044    0.000000    0.000000    0.000000    0.000000  -94.454403   21.050913   -1.905684  141.891754
  0.031222445    0.000000    0.000000    0.000000    0.000000  -94.058453   23.335110   -1.934016  139.990540
  0.031422846    0.000000    0.000000    0.000000    0.000000  -94.667341   21.080544   -1.971397  138.025589
  0.031623246    0.000000    0.000000    0.000000    0.000000  -94.297755   18.961786   -2.008028  136.076126
  0.031823647    0.000000    0.000000    0.000000    0.000000  -95.531916   18.926056   -2.045901  134.115891
  0.032024048    0.000000    0.000000    0.000000    0.000000  -95.663307   16.606075   -2.086446  132.160904
  0.032224449    0.000000    0.000000    0.000000    0.000000  -95.944791   21.736471   -2.126759  130.207825
  0.032424850    0.000000    0.000000    0.000000    0.000000  -96.858608   23.663691   -2.166771  128.229050
  0.032625250    0.000000    0.000000    0.000000    0.000000  -95.291661   14.567259   -2.208145  126.226082
  0.032825651    0.000000    0.000000    0.000000    0.000000  -95.788678   19.902889   -2.250692  124.208832
  0.033026052    0.000000    0.000000    0.000000    0.000000  -95.744997   15.984396   -2.289602  122.215645
  0.033226453    0.000000    0.000000    0.000000    0.000000  -96.076906   22.745852   -2.330531  120.175583
  0.033426854    0.000000    0.000000    0.000000    0.000000  -96.618780   26.601267   -2.371679  118.193840
  0.033627254    0.000000    0.000000    0.000000    0.000000  -96.033683   22.416710   -2.417851  116.163582
  0.033827655    0.000000    0.000000    0.000000    0.000000  -96.754009   21.383764   -2.461378  114.141991
  0.034028056    0.000000    0.000000    0.000000    0.000000  -96.271996   28.345697   -2.504487  112.150856
  0.034228457    0.000000    0.000000    0.000000    0.000000  -96.486118   23.793831   -2.549779  110.095276
  0.034428858    0.000000    0.000000    0.000000    0.000000  -96.402942   25.191763   -2.597722  108.061874
  0.034629258    0.000000    0.000000    0.000000    0.000000  -97.607531   29.110540   -2.642880  105.993492
  0.034829659    0.000000    0.000000    0.000000    0.000000  -96.429459   18.419153   -2.691300  103.922981
  0.035030060    0.000000    0.000000    0.000000    0.000000  -97.167370   28.133080   -2.740384  101.861908
  0.035230461    0.000000    0.000000    0.000000    0.000000  -95.348216   22.589624   -2.788510   99.807365
  0.035430862    0.000000    0.000000    0.000000    0.000000  -96.549590   30.767626   -2.837760   97.746559
  0.035631262    0.000000    0.000000    0.000000    0.000000  -96.250588   26.497490   -2.885604   95.686760
  0.035831663    0.000000    0.000000    0.000000    0.000000  -96.464007   22.780508   -2.933861   93.612022
  0.036032064    0.000000    0.000000    0.000000    0.000000  -95.805397   26.797287   -2.983574   91.529869
  0.036232465    0.000000    0.000000    0.000000    0.000000  -97.067706   19.976639   -3.031128   89.452232
  0.036432866    0.000000    0.000000    0.000000    0.000000  -96.840551   26.183058   -3.080171   87.342247
  0.036633266    0.000000    0.000000    0.000000    0.000000  -96.359461   25.974535   -3.122594   85.264336
  0.036833667    0.000000    0.000000    0.000000    0.000000  -96.715846   24.856302   -3.168871   83.164047
  0.037034068    0.000000    0.000000    0.000000    0.000000  -97.295801   18.504253   -3.212749   81.048828
  0.037234469    0.000000    0.000000    0.000000    0.000000  -97.214618   25.351789   -3.251807   78.934013
  0.037434870    0.000000    0.000000    0.000000    0.000000  -95.275724   19.949759   -3.287396   76.775902
  0.037635270    0.000000    0.000000    0.000000    0.000000  -97.027991   16.429832   -3.320384   74.567009
  0.037835671    0.000000    0.000000    0.000000    0.000000  -96.934359   21.694622   -3.361854   72.264771
  0.038036072    0.000000    0.000000    0.000000    0.000000  -96.854353   19.910730   -3.412588   69.882195
  0.038236473    0.000000    0.000000    0.000000    0.000000  -98.577590   19.525957   -3.484219   67.545403
  0.038436874    0.000000    0.000000    0.000000    0.000000  -98.043514   20.787714   -3.566924   65.286057
  0.038637274    0.000000    0.000000    0.000000    0.000000  -97.250814   23.260237   -3.646120   63.115707
  0.038837675    0.000000    0.000000    0.000000    0.000000  -97.302431   25.482235   -3.717898   60.991669
  0.039038076    0.000000    0.000000    0.000000    0.000000  -98.120104   27.905577   -3.783109   58.917900
  0.039238477    0.000000    0.000000    0.000000    0.000000  -99.254646   24.986973   -3.847001   56.821709
  0.039438878    0.000000    0.000000    0.000000    0.000000  -98.105696   22.767889   -3.906524   54.739559
  0.039639278    0.000000    0.000000    0.000000    0.000000  -98.305406   25.972094   -3.964092   52.653461
  0.039839679    0.000000    0.000000    0.000000    0.000000  -98.125434   23.248337   -4.020957   50.533504
  0.040040080    0.000000    0.000000    0.000000    0.000000  -99.757327   32.288467   -4.075990   48.442398
  0.040240481    0.000000    0.000000    0.000000    0.000000  -97.825055   29.566582   -4.128110   46.342060
  0.040440882    0.000000    0.000000    0.000000    0.000000  -97.783848   30.403593   -4.179998   44.247402
  0.040641283    0.000000    0.000000    0.000000    0.000000  -97.316014   38.571354   -4.232263   42.143997
  0.040841683    0.000000    0.000000    0.000000    0.000000  -97.217797   28.096624   -4.285228   40.067566
  0.041042084    0.000000    0.000000    0.000000    0.000000  -97.274634   28.201679   -4.337929   37.998890
  0.041242485    0.000000    0.000000    0.000000    0.000000  -98.495865   19.151287   -4.389544   35.903767
  0.041442886    0.000000    0.000000    0.000000    0.000000  -98.410544   19.355034   -4.440411   33.802494
  0.041643287    0.000000    0.000000    0.000000    0.000000  -97.411011   29.285109   -4.488938   31.715870
  0.041843687    0.000000    0.000000    0.000000    0.000000  -97.208668   35.240257   -4.537069   29.609499
  0.042044088    0.000000    0.000000    0.000000    0.000000  -97.535183   33.230907   -4.585123   27.533646
  0.042244489    0.000000    0.000000    0.000000    0.000000  -99.307353   31.329029   -4.632718   25.453304
  0.042444890    0.000000    0.000000    0.000000    0.000000  -98.625149   28.878460   -4.680541   23.381964
  0.042645291    0.000000    0.000000    0.000000    0.000000  -99.017958   28.077003   -4.726368   21.325670
  0.042845691    0.000000    0.000000    0.000000    0.000000  -98.364133   24.517267   -4.775071   19.259628
  0.043046092    0.000000    0.000000    0.000000    0.000000  -99.444823   33.669617   -4.819948   17.198759
  0.043246493    0.000000    0.000000    0.000000    0.000000  -97.974133   28.674002   -4.864480   15.147487
  0.043446894    0.000000    0.000000    0.000000    0.000000  -97.372372   29.632828   -4.905013   13.111292
  0.043647295    0.000000    0.000000    0.000000    0.000000  -98.476810   19.180113   -4.945958   11.068659
  0.043847695    0.000000    0.000000    0.000000    0.000000  -99.421198   21.008833   -4.986167    9.023517
  0.044048096    0.000000    0.000000    0.000000    0.000000  -98.784805   24.213074   -5.026061    7.022224
  0.044248497    0.000000    0.000000    0.000000    0.000000  -98.327139   31.309916   -5.064095    5.008053
  0.044448898    0.000000    0.000000    0.000000    0.000000  -99.619048   29.112356   -5.105067    3.017100
  0.044649299    0.000000    0.000000    0.000000    0.000000  -98.548617   35.563770   -5.140247    1.018195
  0.044849699    0.000000    0.000000    0.000000    0.000000  -99.049303   33.396152   -5.176015   -0.954226
  0.045050100    0.000000    0.000000    0.000000    0.000000  -98.064663   27.154226   -5.208281   -2.945268
  0.045250501    0.000000    0.000000    0.000000    0.000000 -100.436030   28.797270   -5.241144   -4.908499
  0.045450902    0.000000    0.000000    0.000000    0.000000  -98.239564   28.705975   -5.276307   -6.857766
  0.045651303    0.000000    0.000000    0.000000    0.000000 -100.722023   28.908789   -5.308154   -8.790116
  0.045851703    0.000000    0.000000    0.000000    0.000000  -98.439432   28.608648   -5.338728  -10.737551
  0.046052104    0.000000    0.000000    0.000000    0.000000  -98.398934   36.052319   -5.368296  -12.656295
  0.046252505    0.000000    0.000000    0.000000    0.000000  -99.199055   40.625370   -5.395040  -14.554433
  0.046452906    0.000000    0.000000    0.000000    0.000000  -97.832411   28.637136   -5.426512  -16.464685
  0.046653307    0.000000    0.000000    0.000000    0.000000  -99.183165   33.268970   -5.451715  -18.358347
  0.046853707    0.000000    0.000000    0.000000    0.000000  -99.093933   28.661633   -5.479436  -20.254280
  0.047054108    0.000000    0.000000    0.000000    0.000000  -99.630266   18.509960   -5.506171  -22.142817
  0.047254509    0.000000    0.000000    0.000000    0.000000  -99.164670   24.728210   -5.527490  -24.021709
  0.047454910    0.000000    0.000000    0.000000    0.000000  -97.456968   30.873425   -5.551479  -25.898314
  0.047655311    0.000000    0.000000    0.000000    0.000000  -99.204661   35.738705   -5.574688  -27.729078
  0.047855711    0.000000    0.000000    0.000000    0.000000  -99.809707   27.398726   -5.599771  -29.551651
  0.048056112    0.000000    0.000000    0.000000    0.000000 -100.366195   39.002541   -5.624042  -31.387949
  0.048256513    0.000000    0.000000    0.000000    0.000000  -98.156598   30.262283   -5.645416  -33.195591
  0.048456914    0.000000    0.000000    0.000000    0.000000  -98.431048   27.247889   -5.665823  -35.013344
  0.048657315    0.000000    0.000000    0.000000    0.000000  -99.192220   35.886810   -5.685048  -36.815300
  0.048857715    0.000000    0.000000    0.000000    0.000000  -98.619608   30.477200   -5.705976  -38.608322
  0.049058116    0.000000    0.000000    0.000000    0.000000 -100.059766   30.448786   -5.717956  -40.387909
  0.049258517    0.000000    0.000000    0.000000    0.000000 -100.343325   28.310658   -5.736977  -42.153713
  0.049458918    0.000000    0.000000    0.000000    0.000000  -99.611549   30.187721   -5.752505  -43.912663
  0.049659319    0.000000    0.000000    0.000000    0.000000  -99.010282   22.196592   -5.770973  -45.646965
  0.049859719    0.000000    0.000000    0.000000    0.000000  -99.407590   35.477657   -5.785496  -47.366615
  0.050060120    0.000000    0.000000    0.000000    0.000000  -99.892586   28.069994   -5.801451  -49.079475
  0.050260521    0.000000    0.000000    0.000000    0.000000  -99.241966   33.483128   -5.813475  -50.799992
  0.050460922    0.000000    0.000000    0.000000    0.000000 -100.017336   19.773672   -5.824364  -52.511116
  0.050661323    0.000000    0.000000    0.000000    0.000000  -99.734673   36.108994   -5.833796  -54.181217
  0.050861723    0.000000    0.000000    0.000000    0.000000  -99.890490   35.648186   -5.842435  -55.839485
  0.051062124    0.000000    0.000000    0.000000    0.000000  -98.537607   35.483055   -5.856341  -57.517944
  0.051262525    0.000000    0.000000    0.000000    0.000000  -98.863372   32.908489   -5.865331  -59.147205
  0.051462926    0.000000    0.000000    0.000000    0.000000  -97.978723   30.552492   -5.874314  -60.766281
  0.051663327    0.000000    0.000000    0.000000    0.000000  -99.143553   27.083691   -5.881900  -62.402386
  0.051863727    0.000000    0.000000    0.000000    0.000000  -98.998356   29.404375   -5.890270  -64.000778
  0.052064128    0.000000    0.000000    0.000000    0.000000  -97.670046   35.412640   -5.897984  -65.613853
  0.052264529    0.000000    0.000000    0.000000    0.000000  -98.145114   34.644661   -5.898724  -67.200081
  0.052464930    0.000000    0.000000    0.000000    0.000000  -98.635951   38.278778   -5.904572  -68.785667
  0.052665331    0.000000    0.000000    0.000000    0.000000  -98.372638   31.038101   -5.913321  -70.323715
  0.052865731    0.000000    0.000000    0.000000    0.000000  -98.503961   37.636089   -5.921129  -71.873100
