! Anritsu VNA Master:                     Model: MS2036C/10/77
! SN:                                  1601066
! /card0/usr/18may27.balun/5b.r20.s2p
! Existing Calibration Information:
! TYPE:                         Current Settings,       Active Cal Settings
! TIME:             	   05/27/2018 03:33:33 PM,    05/27/2018 03:21:57 PM
! INTERNAL TEMP:    	                   53.0 C,                    52.3 C
! # POINTS:         	                      500,                       500
! START FREQ:       	               20.000 MHz,                20.000 MHz
! STOP FREQ:        	              120.000 MHz,               120.000 MHz
! SOURCE POWER:     	                     High,                      High
! IFBW:             	                    50 Hz,                     50 Hz
! AVG FACTOR:       	                       1 ,                        1 
! REF PLANE 1:      	                     0 mm,                      0 mm
! REF PLANE 2:      	                     0 mm,                      0 mm
! CAL TYPE:         	                 Full S11,                  Full S11
! CAL METHOD:       	                     SOLT,                      SOLT
! CAL LINE TYPE:    	                     Coax,                      Coax
! DUT PORT 1:       	                K-Conn(M),                 K-Conn(M)
! DUT PORT 2:       	                K-Conn(M),                 K-Conn(M)
! CAL STATUS:       	        OK: Accuracy High,                        --
# GHZ S DB R 50.0
! FREQ.GHZ       S11DB        S11A       S21DB        S21A       S12DB        S12A       S22DB        S22A
  0.020000000   -7.350894  155.132019  -92.104113   37.682377    0.000000    0.000000    0.000000    0.000000
  0.020200401   -7.356799  154.829147  -92.348089   32.994347    0.000000    0.000000    0.000000    0.000000
  0.020400802   -7.358833  154.527802  -91.966372   32.816280    0.000000    0.000000    0.000000    0.000000
  0.020601202   -7.354690  154.191650  -91.969449   34.288971    0.000000    0.000000    0.000000    0.000000
  0.020801603   -7.348927  153.880783  -92.276985   34.895443    0.000000    0.000000    0.000000    0.000000
  0.021002004   -7.344989  153.556229  -92.789875   35.100384    0.000000    0.000000    0.000000    0.000000
  0.021202405   -7.336898  153.254440  -91.940408   38.242222    0.000000    0.000000    0.000000    0.000000
  0.021402806   -7.331271  152.987503  -92.036947   36.321953    0.000000    0.000000    0.000000    0.000000
  0.021603206   -7.323536  152.729431  -92.202787   33.075443    0.000000    0.000000    0.000000    0.000000
  0.021803607   -7.319550  152.476501  -91.747909   33.522057    0.000000    0.000000    0.000000    0.000000
  0.022004008   -7.311217  152.236816  -92.187707   36.432911    0.000000    0.000000    0.000000    0.000000
  0.022204409   -7.302805  152.058426  -92.265628   31.941889    0.000000    0.000000    0.000000    0.000000
  0.022404810   -7.291918  151.872147  -92.479416   27.972595    0.000000    0.000000    0.000000    0.000000
  0.022605210   -7.286945  151.670303  -92.370681   30.235516    0.000000    0.000000    0.000000    0.000000
  0.022805611   -7.281500  151.503632  -92.542768   31.264406    0.000000    0.000000    0.000000    0.000000
  0.023006012   -7.274855  151.321335  -92.463313   30.777748    0.000000    0.000000    0.000000    0.000000
  0.023206413   -7.273040  151.155914  -92.965326   24.350077    0.000000    0.000000    0.000000    0.000000
  0.023406814   -7.274113  150.972000  -91.970039   25.690763    0.000000    0.000000    0.000000    0.000000
  0.023607214   -7.278911  150.788544  -92.812057   26.577484    0.000000    0.000000    0.000000    0.000000
  0.023807615   -7.284793  150.599167  -93.102619   30.009758    0.000000    0.000000    0.000000    0.000000
  0.024008016   -7.291548  150.393570  -94.062950   23.963722    0.000000    0.000000    0.000000    0.000000
  0.024208417   -7.298026  150.218582  -94.344148   24.030409    0.000000    0.000000    0.000000    0.000000
  0.024408818   -7.311001  149.982864  -94.124203   21.850985    0.000000    0.000000    0.000000    0.000000
  0.024609218   -7.322013  149.767700  -94.559715   24.194231    0.000000    0.000000    0.000000    0.000000
  0.024809619   -7.333144  149.521713  -94.845912   20.504290    0.000000    0.000000    0.000000    0.000000
  0.025010020   -7.343167  149.248749  -94.913730   21.769747    0.000000    0.000000    0.000000    0.000000
  0.025210421   -7.354221  148.949905  -94.660494   24.106798    0.000000    0.000000    0.000000    0.000000
  0.025410822   -7.362223  148.608887  -94.711387   21.355215    0.000000    0.000000    0.000000    0.000000
  0.025611222   -7.364462  148.274918  -95.433901   23.148815    0.000000    0.000000    0.000000    0.000000
  0.025811623   -7.361845  147.920944  -95.063515   22.774572    0.000000    0.000000    0.000000    0.000000
  0.026012024   -7.353221  147.563614  -94.872037   24.802267    0.000000    0.000000    0.000000    0.000000
  0.026212425   -7.346900  147.232971  -95.390873   25.592327    0.000000    0.000000    0.000000    0.000000
  0.026412826   -7.340035  146.896774  -94.767602   26.227211    0.000000    0.000000    0.000000    0.000000
  0.026613226   -7.327114  146.622269  -94.680113   25.016172    0.000000    0.000000    0.000000    0.000000
  0.026813627   -7.315626  146.364822  -94.195423   19.157780    0.000000    0.000000    0.000000    0.000000
  0.027014028   -7.309362  146.179138  -95.924087   27.616039    0.000000    0.000000    0.000000    0.000000
  0.027214429   -7.299209  145.992371  -95.175817   24.159252    0.000000    0.000000    0.000000    0.000000
  0.027414830   -7.284159  145.822510  -96.083470   22.390694    0.000000    0.000000    0.000000    0.000000
  0.027615230   -7.280655  145.663818  -96.372263   16.520445    0.000000    0.000000    0.000000    0.000000
  0.027815631   -7.278806  145.486206  -95.898135   16.246916    0.000000    0.000000    0.000000    0.000000
  0.028016032   -7.276227  145.306488  -96.566314   16.312719    0.000000    0.000000    0.000000    0.000000
  0.028216433   -7.272820  145.145279  -95.479022   14.898541    0.000000    0.000000    0.000000    0.000000
  0.028416834   -7.273268  144.947800  -95.806903   12.678236    0.000000    0.000000    0.000000    0.000000
  0.028617234   -7.272920  144.797775  -96.374224   16.685760    0.000000    0.000000    0.000000    0.000000
  0.028817635   -7.276744  144.618698  -96.190680   16.290567    0.000000    0.000000    0.000000    0.000000
  0.029018036   -7.281950  144.414932  -96.523784   15.660920    0.000000    0.000000    0.000000    0.000000
  0.029218437   -7.288262  144.223175  -96.371496   24.435257    0.000000    0.000000    0.000000    0.000000
  0.029418838   -7.294399  144.054779  -95.762936   18.386324    0.000000    0.000000    0.000000    0.000000
  0.029619238   -7.300705  143.874817  -96.903091   10.697855    0.000000    0.000000    0.000000    0.000000
  0.029819639   -7.311412  143.702728  -97.431540   15.987057    0.000000    0.000000    0.000000    0.000000
  0.030020040   -7.322927  143.495483  -98.250847   12.591824    0.000000    0.000000    0.000000    0.000000
  0.030220441   -7.335473  143.262665  -97.219418   21.508595    0.000000    0.000000    0.000000    0.000000
  0.030420842   -7.351883  142.995987  -97.515521   15.177445    0.000000    0.000000    0.000000    0.000000
  0.030621242   -7.371553  142.648361  -97.082614   18.439558    0.000000    0.000000    0.000000    0.000000
  0.030821643   -7.380789  142.289246  -97.376199   19.348118    0.000000    0.000000    0.000000    0.000000
  0.031022044   -7.385172  141.898056  -97.732374   15.475108    0.000000    0.000000    0.000000    0.000000
  0.031222445   -7.380895  141.525467  -97.226186   20.475664    0.000000    0.000000    0.000000    0.000000
  0.031422846   -7.375877  141.130310  -97.480061   10.905092    0.000000    0.000000    0.000000    0.000000
  0.031623246   -7.370316  140.770752  -96.920006   13.355824    0.000000    0.000000    0.000000    0.000000
  0.031823647   -7.356884  140.427933  -98.178794   16.591246    0.000000    0.000000    0.000000    0.000000
  0.032024048   -7.341114  140.124100  -97.701961   10.645226    0.000000    0.000000    0.000000    0.000000
  0.032224449   -7.323743  139.831192  -98.739910   11.423841    0.000000    0.000000    0.000000    0.000000
  0.032424850   -7.300535  139.597534  -97.841398   12.176425    0.000000    0.000000    0.000000    0.000000
  0.032625251   -7.283201  139.399323  -98.303463    7.280396    0.000000    0.000000    0.000000    0.000000
  0.032825651   -7.269717  139.199875  -98.346047   12.254646    0.000000    0.000000    0.000000    0.000000
  0.033026052   -7.258715  139.069092  -97.465591   11.831772    0.000000    0.000000    0.000000    0.000000
  0.033226453   -7.250056  138.923065  -98.157704   14.215148    0.000000    0.000000    0.000000    0.000000
  0.033426854   -7.245548  138.785538  -97.902994   11.349387    0.000000    0.000000    0.000000    0.000000
  0.033627255   -7.243008  138.606384  -97.938228    8.290650    0.000000    0.000000    0.000000    0.000000
  0.033827655   -7.244333  138.471207  -98.244519   14.926247    0.000000    0.000000    0.000000    0.000000
  0.034028056   -7.249659  138.324951  -98.904812    9.716330    0.000000    0.000000    0.000000    0.000000
  0.034228457   -7.255916  138.186340  -99.218096   11.137100    0.000000    0.000000    0.000000    0.000000
  0.034428858   -7.266376  138.011658  -98.618301    9.663112    0.000000    0.000000    0.000000    0.000000
  0.034629259   -7.273991  137.852249  -98.242475    2.852851    0.000000    0.000000    0.000000    0.000000
  0.034829659   -7.284625  137.683380  -98.445113   11.361135    0.000000    0.000000    0.000000    0.000000
  0.035030060   -7.290865  137.462906  -99.012769    8.435357    0.000000    0.000000    0.000000    0.000000
  0.035230461   -7.296006  137.231049  -99.832964   12.402372    0.000000    0.000000    0.000000    0.000000
  0.035430862   -7.304757  136.984955  -98.415224    6.639465    0.000000    0.000000    0.000000    0.000000
  0.035631263   -7.314061  136.783096  -99.877016    7.409730    0.000000    0.000000    0.000000    0.000000
  0.035831663   -7.327715  136.547882  -99.528020   14.980111    0.000000    0.000000    0.000000    0.000000
  0.036032064   -7.343700  136.249908  -99.446983    7.858643    0.000000    0.000000    0.000000    0.000000
  0.036232465   -7.359397  135.920486  -98.295622   15.851126    0.000000    0.000000    0.000000    0.000000
  0.036432866   -7.374305  135.558807  -98.919638    6.187705    0.000000    0.000000    0.000000    0.000000
  0.036633267   -7.380019  135.179184  -98.511217    7.766623    0.000000    0.000000    0.000000    0.000000
  0.036833667   -7.385352  134.772644  -99.247572    3.122754    0.000000    0.000000    0.000000    0.000000
  0.037034068   -7.381373  134.404739  -99.462419    7.645180    0.000000    0.000000    0.000000    0.000000
  0.037234469   -7.375806  134.026718  -98.267145    0.852361    0.000000    0.000000    0.000000    0.000000
  0.037434870   -7.358997  133.678772 -100.071424    9.839656    0.000000    0.000000    0.000000    0.000000
  0.037635271   -7.341059  133.368576  -99.272854   11.518890    0.000000    0.000000    0.000000    0.000000
  0.037835671   -7.319304  133.087036  -98.668505    2.119798    0.000000    0.000000    0.000000    0.000000
  0.038036072   -7.297824  132.856766  -99.718609    3.022545    0.000000    0.000000    0.000000    0.000000
  0.038236473   -7.280237  132.684967  -99.812878   12.339057    0.000000    0.000000    0.000000    0.000000
  0.038436874   -7.270705  132.525864  -99.110954    6.368944    0.000000    0.000000    0.000000    0.000000
  0.038637275   -7.263187  132.364883 -101.177861    2.574610    0.000000    0.000000    0.000000    0.000000
  0.038837675   -7.255946  132.240646  -99.740156   -1.204450    0.000000    0.000000    0.000000    0.000000
  0.039038076   -7.256222  132.057510 -100.084838    5.270159    0.000000    0.000000    0.000000    0.000000
  0.039238477   -7.255978  131.925430  -98.878199    9.119673    0.000000    0.000000    0.000000    0.000000
  0.039438878   -7.261503  131.771439 -101.639302   -1.059945    0.000000    0.000000    0.000000    0.000000
  0.039639279   -7.263559  131.623459 -100.727560    2.761201    0.000000    0.000000    0.000000    0.000000
  0.039839679   -7.267315  131.467484 -100.895677    4.306675    0.000000    0.000000    0.000000    0.000000
  0.040040080   -7.271645  131.315399 -101.556172    3.858884    0.000000    0.000000    0.000000    0.000000
  0.040240481   -7.275777  131.132843 -101.402604   14.520238    0.000000    0.000000    0.000000    0.000000
  0.040440882   -7.282782  130.920731  -99.411688   10.183812    0.000000    0.000000    0.000000    0.000000
  0.040641283   -7.287731  130.698135 -100.307031    5.375522    0.000000    0.000000    0.000000    0.000000
  0.040841683   -7.291352  130.497665 -101.743363    3.418697    0.000000    0.000000    0.000000    0.000000
  0.041042084   -7.305447  130.297882 -101.430178   14.766918    0.000000    0.000000    0.000000    0.000000
  0.041242485   -7.321613  130.070633 -100.252510   17.352751    0.000000    0.000000    0.000000    0.000000
  0.041442886   -7.338330  129.813995 -100.612063    9.700860    0.000000    0.000000    0.000000    0.000000
  0.041643287   -7.353636  129.524551 -101.994248    1.069462    0.000000    0.000000    0.000000    0.000000
  0.041843687   -7.365267  129.168228  -99.459720    1.998430    0.000000    0.000000    0.000000    0.000000
  0.042044088   -7.379207  128.799667 -101.112996    5.481266    0.000000    0.000000    0.000000    0.000000
  0.042244489   -7.382561  128.433121 -100.023542    7.647449    0.000000    0.000000    0.000000    0.000000
  0.042444890   -7.384458  128.062302 -100.329176    1.385227    0.000000    0.000000    0.000000    0.000000
  0.042645291   -7.377658  127.672615 -101.193474    4.305100    0.000000    0.000000    0.000000    0.000000
  0.042845691   -7.369349  127.335159 -102.002677    3.553232    0.000000    0.000000    0.000000    0.000000
  0.043046092   -7.351163  126.960800 -101.082438    4.863042    0.000000    0.000000    0.000000    0.000000
  0.043246493   -7.331477  126.682594 -101.508964   -1.222277    0.000000    0.000000    0.000000    0.000000
  0.043446894   -7.316192  126.391296 -103.116211   -9.657724    0.000000    0.000000    0.000000    0.000000
  0.043647295   -7.300250  126.163269 -100.130454   -5.429722    0.000000    0.000000    0.000000    0.000000
  0.043847695   -7.293240  125.963425 -101.592769   -4.329519    0.000000    0.000000    0.000000    0.000000
  0.044048096   -7.284572  125.809448 -102.276517   -9.752713    0.000000    0.000000    0.000000    0.000000
  0.044248497   -7.280387  125.621986 -102.138046   14.405548    0.000000    0.000000    0.000000    0.000000
  0.044448898   -7.275755  125.432083 -101.092312    6.578422    0.000000    0.000000    0.000000    0.000000
  0.044649299   -7.269466  125.244125 -101.893611   -5.886665    0.000000    0.000000    0.000000    0.000000
  0.044849699   -7.270092  125.102974 -104.022663    7.007780    0.000000    0.000000    0.000000    0.000000
  0.045050100   -7.270873  124.922890 -101.496139    9.814427    0.000000    0.000000    0.000000    0.000000
  0.045250501   -7.267310  124.757256 -101.577239    3.869652    0.000000    0.000000    0.000000    0.000000
  0.045450902   -7.267548  124.579170 -101.494434    6.157664    0.000000    0.000000    0.000000    0.000000
  0.045651303   -7.262982  124.360878 -101.408122    5.653752    0.000000    0.000000    0.000000    0.000000
  0.045851703   -7.264971  124.126831 -101.378181    7.365974    0.000000    0.000000    0.000000    0.000000
  0.046052104   -7.265467  123.942650 -100.277783    8.941924    0.000000    0.000000    0.000000    0.000000
  0.046252505   -7.271134  123.767479 -101.321325   -0.596022    0.000000    0.000000    0.000000    0.000000
  0.046452906   -7.277220  123.576622 -101.092370    7.722744    0.000000    0.000000    0.000000    0.000000
  0.046653307   -7.286361  123.398529 -102.609340    6.423969    0.000000    0.000000    0.000000    0.000000
  0.046853707   -7.300829  123.159798 -101.780927   12.919310    0.000000    0.000000    0.000000    0.000000
  0.047054108   -7.311706  122.894867 -100.111402   -8.041700    0.000000    0.000000    0.000000    0.000000
  0.047254509   -7.321435  122.620567  -99.688674   12.880937    0.000000    0.000000    0.000000    0.000000
  0.047454910   -7.331664  122.293350 -101.817322    0.039948    0.000000    0.000000    0.000000    0.000000
  0.047655311   -7.331254  121.968437 -101.642900   14.360186    0.000000    0.000000    0.000000    0.000000
  0.047855711   -7.331801  121.644051 -102.728414    2.526895    0.000000    0.000000    0.000000    0.000000
  0.048056112   -7.326769  121.311455 -101.866195   -9.486518    0.000000    0.000000    0.000000    0.000000
  0.048256513   -7.319052  120.983116 -102.057205    4.213579    0.000000    0.000000    0.000000    0.000000
  0.048456914   -7.306764  120.691887 -102.849803    1.088909    0.000000    0.000000    0.000000    0.000000
  0.048657315   -7.294705  120.398712 -101.500542    2.480938    0.000000    0.000000    0.000000    0.000000
  0.048857715   -7.286054  120.145485 -103.575785   -1.350455    0.000000    0.000000    0.000000    0.000000
  0.049058116   -7.274868  119.942574 -103.468394    3.798089    0.000000    0.000000    0.000000    0.000000
  0.049258517   -7.269806  119.740921 -103.147753   13.983214    0.000000    0.000000    0.000000    0.000000
  0.049458918   -7.266031  119.525719 -102.974893    6.171776    0.000000    0.000000    0.000000    0.000000
  0.049659319   -7.262681  119.329391 -103.944568    1.080370    0.000000    0.000000    0.000000    0.000000
  0.049859719   -7.257223  119.148842 -103.762711   -5.241120    0.000000    0.000000    0.000000    0.000000
  0.050060120   -7.255412  118.949684 -102.254010    8.584388    0.000000    0.000000    0.000000    0.000000
  0.050260521   -7.256120  118.775925 -103.327265   -6.006001    0.000000    0.000000    0.000000    0.000000
  0.050460922   -7.257320  118.567032 -105.344301   10.994092    0.000000    0.000000    0.000000    0.000000
  0.050661323   -7.253635  118.362709 -104.260615   12.631582    0.000000    0.000000    0.000000    0.000000
  0.050861723   -7.255044  118.130516 -103.991712   13.485476    0.000000    0.000000    0.000000    0.000000
  0.051062124   -7.253247  117.921150 -105.070280    7.317164    0.000000    0.000000    0.000000    0.000000
  0.051262525   -7.251902  117.710732 -102.014029   13.345729    0.000000    0.000000    0.000000    0.000000
  0.051462926   -7.250451  117.499664 -102.261813   -5.743007    0.000000    0.000000    0.000000    0.000000
  0.051663327   -7.254473  117.340424 -102.445822    5.909624    0.000000    0.000000    0.000000    0.000000
  0.051863727   -7.256361  117.134369 -102.542365    7.770619    0.000000    0.000000    0.000000    0.000000
  0.052064128   -7.263383  116.908302 -102.807854    0.371338    0.000000    0.000000    0.000000    0.000000
  0.052264529   -7.271339  116.713547 -103.813521   -9.411795    0.000000    0.000000    0.000000    0.000000
  0.052464930   -7.278038  116.455124 -101.515067    1.449970    0.000000    0.000000    0.000000    0.000000
  0.052665331   -7.285223  116.178497 -102.898810   -0.117423    0.000000    0.000000    0.000000    0.000000
  0.052865731   -7.293736  115.904976 -102.204823    3.542246    0.000000    0.000000    0.000000    0.000000
