! Anritsu VNA Master:                     Model: MS2036C/10/77
! SN:                                  1601066
! /card0/usr/uu.s11.19p46.s2p
! Existing Calibration Information:
! TYPE:                         Current Settings,       Active Cal Settings
! TIME:             	   05/23/2018 11:42:00 AM,    05/23/2018 11:36:58 AM
! INTERNAL TEMP:    	                   48.5 C,                    48.8 C
! # POINTS:         	                      500,                       500
! START FREQ:       	               20.000 MHz,                20.000 MHz
! STOP FREQ:        	              120.000 MHz,               120.000 MHz
! SOURCE POWER:     	                     High,                      High
! IFBW:             	                    50 Hz,                     50 Hz
! AVG FACTOR:       	                       1 ,                        1 
! REF PLANE 1:      	                     0 mm,                      0 mm
! REF PLANE 2:      	                     0 mm,                      0 mm
! CAL TYPE:         	                 Full S11,                  Full S11
! CAL METHOD:       	                     SOLT,                      SOLT
! CAL LINE TYPE:    	                     Coax,                      Coax
! DUT PORT 1:       	                K-Conn(M),                 K-Conn(M)
! DUT PORT 2:       	                K-Conn(M),                 K-Conn(M)
! CAL STATUS:       	        OK: Accuracy High,                        --
# GHZ S DB R 50.0
! FREQ.GHZ       S11DB        S11A       S21DB        S21A       S12DB        S12A       S22DB        S22A
  0.020000000   -7.260646  155.743454  -91.174516  -62.282970    0.000000    0.000000    0.000000    0.000000
  0.020200401   -7.261289  155.503967  -90.314530  -60.709602    0.000000    0.000000    0.000000    0.000000
  0.020400802   -7.262405  155.280029  -90.812897  -66.305870    0.000000    0.000000    0.000000    0.000000
  0.020601202   -7.264817  155.032104  -91.282382  -66.370750    0.000000    0.000000    0.000000    0.000000
  0.020801603   -7.263686  154.791321  -91.317104  -67.914139    0.000000    0.000000    0.000000    0.000000
  0.021002004   -7.262459  154.549561  -91.089363  -68.341805    0.000000    0.000000    0.000000    0.000000
  0.021202405   -7.262324  154.315506  -91.525623  -72.965378    0.000000    0.000000    0.000000    0.000000
  0.021402806   -7.265778  154.099472  -91.453569  -73.617332    0.000000    0.000000    0.000000    0.000000
  0.021603206   -7.264583  153.850647  -90.959372  -73.822174    0.000000    0.000000    0.000000    0.000000
  0.021803607   -7.264469  153.604141  -92.077757  -76.961746    0.000000    0.000000    0.000000    0.000000
  0.022004008   -7.265776  153.381714  -92.035708  -77.619743    0.000000    0.000000    0.000000    0.000000
  0.022204409   -7.267292  153.123840  -91.702206  -80.316322    0.000000    0.000000    0.000000    0.000000
  0.022404810   -7.266959  152.886108  -91.895586  -81.670998    0.000000    0.000000    0.000000    0.000000
  0.022605210   -7.267776  152.647675  -92.231992  -80.642540    0.000000    0.000000    0.000000    0.000000
  0.022805611   -7.268015  152.410690  -92.176615  -84.643936    0.000000    0.000000    0.000000    0.000000
  0.023006012   -7.271242  152.180573  -92.607692  -83.941032    0.000000    0.000000    0.000000    0.000000
  0.023206413   -7.270442  151.943253  -92.272478  -87.061302    0.000000    0.000000    0.000000    0.000000
  0.023406814   -7.273713  151.704086  -93.302372  -87.663040    0.000000    0.000000    0.000000    0.000000
  0.023607214   -7.272250  151.463989  -92.421896  -92.024338    0.000000    0.000000    0.000000    0.000000
  0.023807615   -7.272333  151.224335  -92.601445  -92.805313    0.000000    0.000000    0.000000    0.000000
  0.024008016   -7.271364  150.987061  -92.757196  -88.848450    0.000000    0.000000    0.000000    0.000000
  0.024208417   -7.271134  150.744583  -93.148932  -98.213356    0.000000    0.000000    0.000000    0.000000
  0.024408818   -7.269672  150.507050  -92.903830  -98.663124    0.000000    0.000000    0.000000    0.000000
  0.024609218   -7.274853  150.259720  -93.486045 -100.218498    0.000000    0.000000    0.000000    0.000000
  0.024809619   -7.273463  150.025177  -93.677012 -100.033806    0.000000    0.000000    0.000000    0.000000
  0.025010020   -7.275001  149.791321  -93.786234 -101.683083    0.000000    0.000000    0.000000    0.000000
  0.025210421   -7.274710  149.556244  -94.014565 -100.230530    0.000000    0.000000    0.000000    0.000000
  0.025410822   -7.277984  149.310028  -94.151994 -105.008293    0.000000    0.000000    0.000000    0.000000
  0.025611222   -7.279485  149.087631  -93.565635 -104.246452    0.000000    0.000000    0.000000    0.000000
  0.025811623   -7.278276  148.833176  -93.750089 -106.977615    0.000000    0.000000    0.000000    0.000000
  0.026012024   -7.275770  148.613129  -93.810961 -108.539497    0.000000    0.000000    0.000000    0.000000
  0.026212425   -7.277861  148.373871  -95.169044 -111.289558    0.000000    0.000000    0.000000    0.000000
  0.026412826   -7.277977  148.127945  -94.642736 -113.114281    0.000000    0.000000    0.000000    0.000000
  0.026613226   -7.279561  147.886688  -94.189565 -111.114769    0.000000    0.000000    0.000000    0.000000
  0.026813627   -7.278333  147.639679  -94.200364 -115.927185    0.000000    0.000000    0.000000    0.000000
  0.027014028   -7.280180  147.406448  -94.321975 -112.680847    0.000000    0.000000    0.000000    0.000000
  0.027214429   -7.278889  147.161591  -95.395340 -113.729553    0.000000    0.000000    0.000000    0.000000
  0.027414830   -7.280476  146.919876  -95.167639 -118.302452    0.000000    0.000000    0.000000    0.000000
  0.027615230   -7.279056  146.690460  -95.630756 -119.679283    0.000000    0.000000    0.000000    0.000000
  0.027815631   -7.279653  146.455505  -95.958045 -123.075172    0.000000    0.000000    0.000000    0.000000
  0.028016032   -7.279130  146.220184  -95.526681 -117.611763    0.000000    0.000000    0.000000    0.000000
  0.028216433   -7.281037  145.981903  -96.997400 -126.487587    0.000000    0.000000    0.000000    0.000000
  0.028416834   -7.280689  145.750900  -96.120436 -120.048920    0.000000    0.000000    0.000000    0.000000
  0.028617234   -7.280232  145.506912  -95.234989 -124.574142    0.000000    0.000000    0.000000    0.000000
  0.028817635   -7.279655  145.274231  -95.981797 -122.514076    0.000000    0.000000    0.000000    0.000000
  0.029018036   -7.278007  145.042297  -96.804681 -126.071136    0.000000    0.000000    0.000000    0.000000
  0.029218437   -7.279284  144.804459  -96.642542 -127.667999    0.000000    0.000000    0.000000    0.000000
  0.029418838   -7.278881  144.572922  -96.781313 -129.974518    0.000000    0.000000    0.000000    0.000000
  0.029619238   -7.278133  144.339767  -96.536440 -132.329666    0.000000    0.000000    0.000000    0.000000
  0.029819639   -7.278254  144.099869  -97.733687 -135.365005    0.000000    0.000000    0.000000    0.000000
  0.030020040   -7.275856  143.869553  -97.533674 -130.097473    0.000000    0.000000    0.000000    0.000000
  0.030220441   -7.275700  143.620071  -97.094671 -137.518677    0.000000    0.000000    0.000000    0.000000
  0.030420842   -7.275861  143.393967  -97.362607 -135.009460    0.000000    0.000000    0.000000    0.000000
  0.030621242   -7.273969  143.149216  -97.351693 -143.291687    0.000000    0.000000    0.000000    0.000000
  0.030821643   -7.273584  142.908569  -97.050337 -144.946915    0.000000    0.000000    0.000000    0.000000
  0.031022044   -7.273942  142.673080  -96.872976 -138.014099    0.000000    0.000000    0.000000    0.000000
  0.031222445   -7.258686  142.511429  -98.173646 -146.405807    0.000000    0.000000    0.000000    0.000000
  0.031422846   -7.256717  142.263565  -98.811733 -136.510880    0.000000    0.000000    0.000000    0.000000
  0.031623246   -7.258385  142.036987  -97.178516 -147.181793    0.000000    0.000000    0.000000    0.000000
  0.031823647   -7.258232  141.783585  -97.245638 -143.160004    0.000000    0.000000    0.000000    0.000000
  0.032024048   -7.259041  141.543839  -98.022178 -152.705963    0.000000    0.000000    0.000000    0.000000
  0.032224449   -7.258666  141.306976  -96.973893 -148.455002    0.000000    0.000000    0.000000    0.000000
  0.032424850   -7.255635  141.081604  -98.235195 -148.821442    0.000000    0.000000    0.000000    0.000000
  0.032625251   -7.257814  140.831284  -98.821565 -149.806900    0.000000    0.000000    0.000000    0.000000
  0.032825651   -7.257809  140.566299  -99.468996 -153.692917    0.000000    0.000000    0.000000    0.000000
  0.033026052   -7.260052  140.346558  -98.873302 -147.086273    0.000000    0.000000    0.000000    0.000000
  0.033226453   -7.259339  140.096146  -98.039606 -155.752411    0.000000    0.000000    0.000000    0.000000
  0.033426854   -7.257637  139.857773  -99.234124 -162.559479    0.000000    0.000000    0.000000    0.000000
  0.033627255   -7.258206  139.617874  -99.318468 -165.111084    0.000000    0.000000    0.000000    0.000000
  0.033827655   -7.258789  139.385727  -99.219598 -157.164246    0.000000    0.000000    0.000000    0.000000
  0.034028056   -7.258097  139.146744  -99.261431 -165.801224    0.000000    0.000000    0.000000    0.000000
  0.034228457   -7.259816  138.894806 -100.039473 -161.358704    0.000000    0.000000    0.000000    0.000000
  0.034428858   -7.259406  138.657669  -99.772678 -154.592590    0.000000    0.000000    0.000000    0.000000
  0.034629259   -7.258728  138.394409 -100.287501 -169.970917    0.000000    0.000000    0.000000    0.000000
  0.034829659   -7.260578  138.154922  -98.998409 -164.875214    0.000000    0.000000    0.000000    0.000000
  0.035030060   -7.259710  137.929901 -100.725889 -173.479706    0.000000    0.000000    0.000000    0.000000
  0.035230461   -7.259537  137.682098  -99.792856 -176.352203    0.000000    0.000000    0.000000    0.000000
  0.035430862   -7.258363  137.449966 -100.832806 -166.587860    0.000000    0.000000    0.000000    0.000000
  0.035631263   -7.260364  137.213120  -99.320707 -169.494583    0.000000    0.000000    0.000000    0.000000
  0.035831663   -7.262655  136.957199 -101.357469  178.168503    0.000000    0.000000    0.000000    0.000000
  0.036032064   -7.261890  136.727417 -100.777070 -179.723007    0.000000    0.000000    0.000000    0.000000
  0.036232465   -7.259754  136.490097  -99.970471 -173.721420    0.000000    0.000000    0.000000    0.000000
  0.036432866   -7.259972  136.241653 -101.174358  166.148346    0.000000    0.000000    0.000000    0.000000
  0.036633267   -7.260529  136.017197 -101.529305 -178.466690    0.000000    0.000000    0.000000    0.000000
  0.036833667   -7.259853  135.770279 -102.257189  177.506714    0.000000    0.000000    0.000000    0.000000
  0.037034068   -7.262480  135.536880  -99.697186  175.008026    0.000000    0.000000    0.000000    0.000000
  0.037234469   -7.262156  135.289307 -100.499494  177.629532    0.000000    0.000000    0.000000    0.000000
  0.037434870   -7.259441  135.067093 -101.385221  176.245758    0.000000    0.000000    0.000000    0.000000
  0.037635271   -7.259292  134.822449  -99.932216  173.130814    0.000000    0.000000    0.000000    0.000000
  0.037835671   -7.258183  134.583557 -100.536832  169.512863    0.000000    0.000000    0.000000    0.000000
  0.038036072   -7.259598  134.351044 -100.736645  173.953201    0.000000    0.000000    0.000000    0.000000
  0.038236473   -7.260218  134.118011 -104.444097  156.690308    0.000000    0.000000    0.000000    0.000000
  0.038436874   -7.258721  133.889084 -100.947559  161.770233    0.000000    0.000000    0.000000    0.000000
  0.038637275   -7.259198  133.640488 -104.462806  174.294724    0.000000    0.000000    0.000000    0.000000
  0.038837675   -7.259164  133.423737 -102.846998  168.653412    0.000000    0.000000    0.000000    0.000000
  0.039038076   -7.261044  133.179871 -101.634640  167.244507    0.000000    0.000000    0.000000    0.000000
  0.039238477   -7.259476  132.932892 -101.731883  152.833740    0.000000    0.000000    0.000000    0.000000
  0.039438878   -7.258181  132.708420 -102.338839  155.591690    0.000000    0.000000    0.000000    0.000000
  0.039639279   -7.258573  132.461502 -100.981785  159.673920    0.000000    0.000000    0.000000    0.000000
  0.039839679   -7.256792  132.224487 -100.760036  153.485031    0.000000    0.000000    0.000000    0.000000
  0.040040080   -7.257764  131.999268 -101.392708  153.179001    0.000000    0.000000    0.000000    0.000000
  0.040240481   -7.256164  131.769409 -101.120668  146.881638    0.000000    0.000000    0.000000    0.000000
  0.040440882   -7.256902  131.514206 -101.245387  145.296677    0.000000    0.000000    0.000000    0.000000
  0.040641283   -7.256507  131.296829 -101.778534  153.003815    0.000000    0.000000    0.000000    0.000000
  0.040841683   -7.257021  131.052139 -102.358699  151.927612    0.000000    0.000000    0.000000    0.000000
  0.041042084   -7.254961  130.825073 -104.016370  140.940231    0.000000    0.000000    0.000000    0.000000
  0.041242485   -7.255494  130.595978 -105.317230  149.461349    0.000000    0.000000    0.000000    0.000000
  0.041442886   -7.256498  130.363358 -105.257295  140.948059    0.000000    0.000000    0.000000    0.000000
  0.041643287   -7.254321  130.130875 -103.971455  164.682892    0.000000    0.000000    0.000000    0.000000
  0.041843687   -7.254282  129.893707 -107.234281  153.383774    0.000000    0.000000    0.000000    0.000000
  0.042044088   -7.253467  129.654510 -105.219687  151.695847    0.000000    0.000000    0.000000    0.000000
  0.042244489   -7.255950  129.409927 -102.130317  145.368561    0.000000    0.000000    0.000000    0.000000
  0.042444890   -7.253793  129.199585 -104.130553  141.612244    0.000000    0.000000    0.000000    0.000000
  0.042645291   -7.253087  128.947601 -104.327729  136.220276    0.000000    0.000000    0.000000    0.000000
  0.042845691   -7.253604  128.721817 -105.148573  138.355392    0.000000    0.000000    0.000000    0.000000
  0.043046092   -7.252421  128.489471 -106.068289  157.526077    0.000000    0.000000    0.000000    0.000000
  0.043246493   -7.251974  128.246628 -102.788567  130.702316    0.000000    0.000000    0.000000    0.000000
  0.043446894   -7.251807  128.019638 -104.097406  114.979691    0.000000    0.000000    0.000000    0.000000
  0.043647295   -7.251961  127.771103 -103.502815  113.950554    0.000000    0.000000    0.000000    0.000000
  0.043847695   -7.250759  127.543007 -101.157988  123.751526    0.000000    0.000000    0.000000    0.000000
  0.044048096   -7.253018  127.297539 -106.766349  119.740921    0.000000    0.000000    0.000000    0.000000
  0.044248497   -7.250107  127.065712 -105.441767  129.273132    0.000000    0.000000    0.000000    0.000000
  0.044448898   -7.252221  126.830353 -104.172186  125.354843    0.000000    0.000000    0.000000    0.000000
  0.044649299   -7.250524  126.598663 -107.678479  128.960617    0.000000    0.000000    0.000000    0.000000
  0.044849699   -7.250423  126.346817 -105.030220  130.409164    0.000000    0.000000    0.000000    0.000000
  0.045050100   -7.249480  126.127533 -104.357408  136.435455    0.000000    0.000000    0.000000    0.000000
  0.045250501   -7.248746  125.886749 -103.153686  128.789581    0.000000    0.000000    0.000000    0.000000
  0.045450902   -7.245670  125.659363 -105.281678  115.056641    0.000000    0.000000    0.000000    0.000000
  0.045651303   -7.249438  125.428635 -107.144027  105.796066    0.000000    0.000000    0.000000    0.000000
  0.045851703   -7.248541  125.182793 -104.230843  105.549675    0.000000    0.000000    0.000000    0.000000
  0.046052104   -7.245410  124.943214 -104.512649  121.035721    0.000000    0.000000    0.000000    0.000000
  0.046252505   -7.246933  124.713898 -108.024320  139.426132    0.000000    0.000000    0.000000    0.000000
  0.046452906   -7.245722  124.467468 -104.697722  114.761688    0.000000    0.000000    0.000000    0.000000
  0.046653307   -7.247377  124.243149 -102.454315  116.174194    0.000000    0.000000    0.000000    0.000000
  0.046853707   -7.245111  123.995377 -105.138060  112.887199    0.000000    0.000000    0.000000    0.000000
  0.047054108   -7.244519  123.760246 -103.403266  114.919617    0.000000    0.000000    0.000000    0.000000
  0.047254509   -7.242719  123.524010 -104.711485  115.795219    0.000000    0.000000    0.000000    0.000000
  0.047454910   -7.242796  123.281967 -107.571853  106.646004    0.000000    0.000000    0.000000    0.000000
  0.047655311   -7.242489  123.052635 -107.017456   98.641602    0.000000    0.000000    0.000000    0.000000
  0.047855711   -7.243169  122.808182 -106.428387  105.166008    0.000000    0.000000    0.000000    0.000000
  0.048056112   -7.240629  122.560493 -106.273595  124.552254    0.000000    0.000000    0.000000    0.000000
  0.048256513   -7.236794  122.322571 -106.214798   92.690765    0.000000    0.000000    0.000000    0.000000
  0.048456914   -7.236813  122.099564 -105.459304   88.098763    0.000000    0.000000    0.000000    0.000000
  0.048657315   -7.236052  121.855728 -105.871612   86.110764    0.000000    0.000000    0.000000    0.000000
  0.048857715   -7.235240  121.625366 -104.828925  125.221230    0.000000    0.000000    0.000000    0.000000
  0.049058116   -7.234818  121.380997 -109.469304  141.480637    0.000000    0.000000    0.000000    0.000000
  0.049258517   -7.236174  121.164688 -106.241547   87.911995    0.000000    0.000000    0.000000    0.000000
  0.049458918   -7.234344  120.922531 -106.753586  104.253395    0.000000    0.000000    0.000000    0.000000
  0.049659319   -7.233643  120.675247 -105.500052  112.508820    0.000000    0.000000    0.000000    0.000000
  0.049859719   -7.229576  120.455917 -109.841138   78.434036    0.000000    0.000000    0.000000    0.000000
  0.050060120   -7.232266  120.224541 -109.702372   97.287247    0.000000    0.000000    0.000000    0.000000
  0.050260521   -7.228883  119.993103 -107.837402   71.535484    0.000000    0.000000    0.000000    0.000000
  0.050460922   -7.229081  119.754196 -104.259701   83.531441    0.000000    0.000000    0.000000    0.000000
  0.050661323   -7.230681  119.508667 -107.398121   99.314560    0.000000    0.000000    0.000000    0.000000
  0.050861723   -7.228468  119.281548 -103.919223   91.487152    0.000000    0.000000    0.000000    0.000000
  0.051062124   -7.228412  119.048203 -104.419616   74.883751    0.000000    0.000000    0.000000    0.000000
  0.051262525   -7.229500  118.807045 -106.571550  101.418854    0.000000    0.000000    0.000000    0.000000
  0.051462926   -7.224449  118.581070 -108.571165   79.166527    0.000000    0.000000    0.000000    0.000000
  0.051663327   -7.225891  118.362503 -105.664417   81.268181    0.000000    0.000000    0.000000    0.000000
  0.051863727   -7.222398  118.111084 -105.763293   85.213264    0.000000    0.000000    0.000000    0.000000
  0.052064128   -7.225165  117.866966 -108.515490   65.544556    0.000000    0.000000    0.000000    0.000000
  0.052264529   -7.223814  117.643913 -107.100001   72.397087    0.000000    0.000000    0.000000    0.000000
  0.052464930   -7.221593  117.404640 -106.458240   88.652222    0.000000    0.000000    0.000000    0.000000
  0.052665331   -7.220855  117.175598 -109.403728  101.352516    0.000000    0.000000    0.000000    0.000000
  0.052865731   -7.218454  116.945480 -109.672523   74.700478    0.000000    0.000000    0.000000    0.000000
