! Anritsu VNA Master:                     Model: MS2036C/10/77
! SN:                                  1601066
! /card0/usr/uu.s11.66pf.s2p
! Existing Calibration Information:
! TYPE:                         Current Settings,       Active Cal Settings
! TIME:             	   05/23/2018 12:00:37 PM,    05/23/2018 11:36:58 AM
! INTERNAL TEMP:    	                   48.5 C,                    48.8 C
! # POINTS:         	                      500,                       500
! START FREQ:       	               20.000 MHz,                20.000 MHz
! STOP FREQ:        	              120.000 MHz,               120.000 MHz
! SOURCE POWER:     	                     High,                      High
! IFBW:             	                    50 Hz,                     50 Hz
! AVG FACTOR:       	                       1 ,                        1 
! REF PLANE 1:      	                     0 mm,                      0 mm
! REF PLANE 2:      	                     0 mm,                      0 mm
! CAL TYPE:         	                 Full S11,                  Full S11
! CAL METHOD:       	                     SOLT,                      SOLT
! CAL LINE TYPE:    	                     Coax,                      Coax
! DUT PORT 1:       	                K-Conn(M),                 K-Conn(M)
! DUT PORT 2:       	                K-Conn(M),                 K-Conn(M)
! CAL STATUS:       	        OK: Accuracy High,                        --
# GHZ S DB R 50.0
! FREQ.GHZ       S11DB        S11A       S21DB        S21A       S12DB        S12A       S22DB        S22A
  0.020000000   -0.036823  -67.121536  -94.777792  -61.493530    0.000000    0.000000    0.000000    0.000000
  0.020200401   -0.037529  -67.762131  -94.707707  -56.202442    0.000000    0.000000    0.000000    0.000000
  0.020400802   -0.038114  -68.380852  -94.775460  -55.720905    0.000000    0.000000    0.000000    0.000000
  0.020601202   -0.038980  -69.016533  -95.047608  -57.225014    0.000000    0.000000    0.000000    0.000000
  0.020801603   -0.040799  -69.656593  -94.994975  -58.144962    0.000000    0.000000    0.000000    0.000000
  0.021002004   -0.040929  -70.286583  -95.763239  -55.813980    0.000000    0.000000    0.000000    0.000000
  0.021202405   -0.041200  -70.915443  -96.077682  -53.331467    0.000000    0.000000    0.000000    0.000000
  0.021402806   -0.041722  -71.535522  -95.969793  -60.134331    0.000000    0.000000    0.000000    0.000000
  0.021603206   -0.043209  -72.159988  -95.947587  -58.733044    0.000000    0.000000    0.000000    0.000000
  0.021803607   -0.044475  -72.786484  -96.019130  -56.688046    0.000000    0.000000    0.000000    0.000000
  0.022004008   -0.045392  -73.412399  -96.854654  -62.676876    0.000000    0.000000    0.000000    0.000000
  0.022204409   -0.045858  -74.039536  -95.090278  -58.752968    0.000000    0.000000    0.000000    0.000000
  0.022404810   -0.045571  -74.670753  -96.901637  -66.035164    0.000000    0.000000    0.000000    0.000000
  0.022605210   -0.046313  -75.286156  -96.394859  -63.338509    0.000000    0.000000    0.000000    0.000000
  0.022805611   -0.045415  -75.912506  -97.823008  -63.457165    0.000000    0.000000    0.000000    0.000000
  0.023006012   -0.045886  -76.535675  -95.962485  -60.822399    0.000000    0.000000    0.000000    0.000000
  0.023206413   -0.048294  -77.159355  -95.586797  -67.441467    0.000000    0.000000    0.000000    0.000000
  0.023406814   -0.048428  -77.769928  -95.443404  -60.696266    0.000000    0.000000    0.000000    0.000000
  0.023607214   -0.049019  -78.394363  -96.346226  -76.710930    0.000000    0.000000    0.000000    0.000000
  0.023807615   -0.046985  -79.021576  -96.068583  -71.293152    0.000000    0.000000    0.000000    0.000000
  0.024008016   -0.047928  -79.640877  -95.883801  -68.675644    0.000000    0.000000    0.000000    0.000000
  0.024208417   -0.047799  -80.260063  -96.932043  -74.162392    0.000000    0.000000    0.000000    0.000000
  0.024408818   -0.049907  -80.869240  -97.228927  -69.548958    0.000000    0.000000    0.000000    0.000000
  0.024609218   -0.049905  -81.483780  -96.993366  -71.973854    0.000000    0.000000    0.000000    0.000000
  0.024809619   -0.051551  -82.112930  -96.376987  -73.065231    0.000000    0.000000    0.000000    0.000000
  0.025010020   -0.050856  -82.723694  -97.490149  -65.616196    0.000000    0.000000    0.000000    0.000000
  0.025210421   -0.050950  -83.335243  -95.790835  -76.384949    0.000000    0.000000    0.000000    0.000000
  0.025410822   -0.052192  -83.952835  -96.531524  -80.311020    0.000000    0.000000    0.000000    0.000000
  0.025611222   -0.050153  -84.564537  -97.305134  -72.601273    0.000000    0.000000    0.000000    0.000000
  0.025811623   -0.052548  -85.179031  -97.148107  -81.338867    0.000000    0.000000    0.000000    0.000000
  0.026012024   -0.053323  -85.793961  -97.305151  -75.261192    0.000000    0.000000    0.000000    0.000000
  0.026212425   -0.052824  -86.404991  -95.405578  -72.394333    0.000000    0.000000    0.000000    0.000000
  0.026412826   -0.054769  -87.029366  -97.020919  -75.376251    0.000000    0.000000    0.000000    0.000000
  0.026613226   -0.054456  -87.625641  -96.798716  -79.386246    0.000000    0.000000    0.000000    0.000000
  0.026813627   -0.056947  -88.235405  -96.869503  -77.702843    0.000000    0.000000    0.000000    0.000000
  0.027014028   -0.056322  -88.845657  -96.467776  -86.296135    0.000000    0.000000    0.000000    0.000000
  0.027214429   -0.057849  -89.460846  -97.178515  -86.275307    0.000000    0.000000    0.000000    0.000000
  0.027414830   -0.061124  -90.062737  -98.279116  -81.214554    0.000000    0.000000    0.000000    0.000000
  0.027615230   -0.061191  -90.674812  -97.746536  -82.051315    0.000000    0.000000    0.000000    0.000000
  0.027815631   -0.063962  -91.273590  -97.832188  -83.111679    0.000000    0.000000    0.000000    0.000000
  0.028016032   -0.065508  -91.896286  -97.106835  -81.110420    0.000000    0.000000    0.000000    0.000000
  0.028216433   -0.066812  -92.482796  -97.192504  -87.868332    0.000000    0.000000    0.000000    0.000000
  0.028416834   -0.068370  -93.085762  -95.702437  -93.371872    0.000000    0.000000    0.000000    0.000000
  0.028617234   -0.070397  -93.681610  -97.022725  -85.325165    0.000000    0.000000    0.000000    0.000000
  0.028817635   -0.072867  -94.281105  -97.039055  -85.950615    0.000000    0.000000    0.000000    0.000000
  0.029018036   -0.074988  -94.880020  -97.324186  -87.364929    0.000000    0.000000    0.000000    0.000000
  0.029218437   -0.076991  -95.473450  -96.721793  -85.785889    0.000000    0.000000    0.000000    0.000000
  0.029418838   -0.079779  -96.058975  -96.871766  -88.333588    0.000000    0.000000    0.000000    0.000000
  0.029619238   -0.080219  -96.648460  -96.468245  -98.211403    0.000000    0.000000    0.000000    0.000000
  0.029819639   -0.082541  -97.231491  -97.795018  -92.277969    0.000000    0.000000    0.000000    0.000000
  0.030020040   -0.085142  -97.820282  -97.606603  -95.809273    0.000000    0.000000    0.000000    0.000000
  0.030220441   -0.088307  -98.396706  -97.547879  -93.019310    0.000000    0.000000    0.000000    0.000000
  0.030420842   -0.089691  -98.981453  -96.430530 -105.379585    0.000000    0.000000    0.000000    0.000000
  0.030621242   -0.092008  -99.563377  -97.778023  -99.274490    0.000000    0.000000    0.000000    0.000000
  0.030821643   -0.093719 -100.129257  -97.502933 -100.567894    0.000000    0.000000    0.000000    0.000000
  0.031022044   -0.095815 -100.697838  -96.596941 -101.075760    0.000000    0.000000    0.000000    0.000000
  0.031222445   -0.093902 -101.288589  -97.492189 -103.257469    0.000000    0.000000    0.000000    0.000000
  0.031422846   -0.095602 -101.848495  -99.477898 -104.119492    0.000000    0.000000    0.000000    0.000000
  0.031623246   -0.098457 -102.411034  -97.451261 -106.570786    0.000000    0.000000    0.000000    0.000000
  0.031823647   -0.099094 -102.972923  -97.354152 -104.271622    0.000000    0.000000    0.000000    0.000000
  0.032024048   -0.102599 -103.524979  -98.168491 -113.533791    0.000000    0.000000    0.000000    0.000000
  0.032224449   -0.103439 -104.081520  -99.251414 -111.970078    0.000000    0.000000    0.000000    0.000000
  0.032424850   -0.104326 -104.646515  -98.475172 -110.479904    0.000000    0.000000    0.000000    0.000000
  0.032625251   -0.107332 -105.192711  -98.502020 -115.593399    0.000000    0.000000    0.000000    0.000000
  0.032825651   -0.108072 -105.736374  -98.369814 -124.746902    0.000000    0.000000    0.000000    0.000000
  0.033026052   -0.110461 -106.286034  -96.322304 -119.504051    0.000000    0.000000    0.000000    0.000000
  0.033226453   -0.110948 -106.851326  -98.731570 -122.238922    0.000000    0.000000    0.000000    0.000000
  0.033426854   -0.113037 -107.399490  -98.933262 -122.908424    0.000000    0.000000    0.000000    0.000000
  0.033627255   -0.114920 -107.946442  -98.080435 -119.863907    0.000000    0.000000    0.000000    0.000000
  0.033827655   -0.115159 -108.505966  -97.757750 -121.228683    0.000000    0.000000    0.000000    0.000000
  0.034028056   -0.116331 -109.054611  -97.786663 -121.814850    0.000000    0.000000    0.000000    0.000000
  0.034228457   -0.118096 -109.592140  -99.035674 -126.126427    0.000000    0.000000    0.000000    0.000000
  0.034428858   -0.120284 -110.149162  -97.420795 -125.189827    0.000000    0.000000    0.000000    0.000000
  0.034629259   -0.121091 -110.682472  -98.461396 -134.653702    0.000000    0.000000    0.000000    0.000000
  0.034829659   -0.121572 -111.234261  -98.367091 -119.652924    0.000000    0.000000    0.000000    0.000000
  0.035030060   -0.121311 -111.789726  -98.434117 -137.185135    0.000000    0.000000    0.000000    0.000000
  0.035230461   -0.125284 -112.334351  -99.299380 -134.199921    0.000000    0.000000    0.000000    0.000000
  0.035430862   -0.124503 -112.874947  -97.416544 -136.011078    0.000000    0.000000    0.000000    0.000000
  0.035631263   -0.125660 -113.425301  -97.859022 -137.527969    0.000000    0.000000    0.000000    0.000000
  0.035831663   -0.126052 -113.949577  -97.894118 -133.790619    0.000000    0.000000    0.000000    0.000000
  0.036032064   -0.126176 -114.499191  -98.695652 -129.104874    0.000000    0.000000    0.000000    0.000000
  0.036232465   -0.128102 -115.039650  -98.327804 -138.120300    0.000000    0.000000    0.000000    0.000000
  0.036432866   -0.127796 -115.580734  -97.938384 -135.949203    0.000000    0.000000    0.000000    0.000000
  0.036633267   -0.128017 -116.113228  -98.254636 -146.509277    0.000000    0.000000    0.000000    0.000000
  0.036833667   -0.128408 -116.661842  -98.079388 -149.207367    0.000000    0.000000    0.000000    0.000000
  0.037034068   -0.129191 -117.186691  -98.013367 -138.820023    0.000000    0.000000    0.000000    0.000000
  0.037234469   -0.129764 -117.726204  -98.635672 -142.623276    0.000000    0.000000    0.000000    0.000000
  0.037434870   -0.129658 -118.254181  -99.070978 -153.017166    0.000000    0.000000    0.000000    0.000000
  0.037635271   -0.131210 -118.780624  -98.874947 -150.403275    0.000000    0.000000    0.000000    0.000000
  0.037835671   -0.130884 -119.325058  -98.592138 -159.075653    0.000000    0.000000    0.000000    0.000000
  0.038036072   -0.132051 -119.851654  -97.941474 -155.561310    0.000000    0.000000    0.000000    0.000000
  0.038236473   -0.130320 -120.371880  -99.372638 -154.248825    0.000000    0.000000    0.000000    0.000000
  0.038436874   -0.131612 -120.901039  -99.255885 -162.564270    0.000000    0.000000    0.000000    0.000000
  0.038637275   -0.132198 -121.425026  -98.878325 -152.513916    0.000000    0.000000    0.000000    0.000000
  0.038837675   -0.132686 -121.957016  -99.379421 -160.613083    0.000000    0.000000    0.000000    0.000000
  0.039038076   -0.133242 -122.470810 -100.041506 -169.579712    0.000000    0.000000    0.000000    0.000000
  0.039238477   -0.131648 -122.987831  -99.673637 -164.989365    0.000000    0.000000    0.000000    0.000000
  0.039438878   -0.134256 -123.515038 -100.345070 -161.429199    0.000000    0.000000    0.000000    0.000000
  0.039639279   -0.133682 -124.028679  -99.050106 -172.172348    0.000000    0.000000    0.000000    0.000000
  0.039839679   -0.136035 -124.554787  -98.415389 -162.646606    0.000000    0.000000    0.000000    0.000000
  0.040040080   -0.136549 -125.063988 -100.356451 -168.050049    0.000000    0.000000    0.000000    0.000000
  0.040240481   -0.135501 -125.584381  -98.484066 -166.966400    0.000000    0.000000    0.000000    0.000000
  0.040440882   -0.136568 -126.101303  -99.095509 -163.312225    0.000000    0.000000    0.000000    0.000000
  0.040641283   -0.136742 -126.615585  -99.353185 -170.325806    0.000000    0.000000    0.000000    0.000000
  0.040841683   -0.137920 -127.120407  -99.049741 -176.408157    0.000000    0.000000    0.000000    0.000000
  0.041042084   -0.139356 -127.638214  -99.937670 -179.315491    0.000000    0.000000    0.000000    0.000000
  0.041242485   -0.140724 -128.147842  -99.523822 -178.001389    0.000000    0.000000    0.000000    0.000000
  0.041442886   -0.140901 -128.654205  -99.552410  178.966156    0.000000    0.000000    0.000000    0.000000
  0.041643287   -0.141572 -129.173828  -98.920388  172.307724    0.000000    0.000000    0.000000    0.000000
  0.041843687   -0.142262 -129.673050  -99.535833  168.427872    0.000000    0.000000    0.000000    0.000000
  0.042044088   -0.142265 -130.179947 -100.019365  177.986526    0.000000    0.000000    0.000000    0.000000
  0.042244489   -0.144528 -130.673447 -100.105941 -179.084351    0.000000    0.000000    0.000000    0.000000
  0.042444890   -0.144047 -131.194061 -100.906627  166.177399    0.000000    0.000000    0.000000    0.000000
  0.042645291   -0.145652 -131.689606 -101.118368  170.053482    0.000000    0.000000    0.000000    0.000000
  0.042845691   -0.144980 -132.192566  -99.146501  167.550232    0.000000    0.000000    0.000000    0.000000
  0.043046092   -0.146740 -132.703964 -100.316571  157.067352    0.000000    0.000000    0.000000    0.000000
  0.043246493   -0.148368 -133.200211 -100.417540  168.257675    0.000000    0.000000    0.000000    0.000000
  0.043446894   -0.149862 -133.700119 -100.953147  155.466675    0.000000    0.000000    0.000000    0.000000
  0.043647295   -0.149621 -134.194656  -99.128790  154.241776    0.000000    0.000000    0.000000    0.000000
  0.043847695   -0.150380 -134.702423  -99.413497  162.215622    0.000000    0.000000    0.000000    0.000000
  0.044048096   -0.151078 -135.195328  -99.903084  166.645370    0.000000    0.000000    0.000000    0.000000
  0.044248497   -0.153226 -135.698914  -99.680441  162.327408    0.000000    0.000000    0.000000    0.000000
  0.044448898   -0.155543 -136.186401 -101.833096  147.890167    0.000000    0.000000    0.000000    0.000000
  0.044649299   -0.156014 -136.683472 -100.075771  148.015244    0.000000    0.000000    0.000000    0.000000
  0.044849699   -0.157214 -137.182663 -101.763674  150.847763    0.000000    0.000000    0.000000    0.000000
  0.045050100   -0.158274 -137.679398 -100.320951  142.796600    0.000000    0.000000    0.000000    0.000000
  0.045250501   -0.158675 -138.174072  -99.815507  148.783340    0.000000    0.000000    0.000000    0.000000
  0.045450902   -0.161016 -138.680298 -101.441080  148.519119    0.000000    0.000000    0.000000    0.000000
  0.045651303   -0.162768 -139.174225 -100.658518  134.898743    0.000000    0.000000    0.000000    0.000000
  0.045851703   -0.164667 -139.660126 -100.446058  140.012589    0.000000    0.000000    0.000000    0.000000
  0.046052104   -0.166358 -140.153046 -102.128898  127.079620    0.000000    0.000000    0.000000    0.000000
  0.046252505   -0.166555 -140.645355 -101.572190  137.765930    0.000000    0.000000    0.000000    0.000000
  0.046452906   -0.167253 -141.141327  -99.572831  138.581741    0.000000    0.000000    0.000000    0.000000
  0.046653307   -0.168515 -141.630341 -101.033237  133.813217    0.000000    0.000000    0.000000    0.000000
  0.046853707   -0.170047 -142.118073 -100.179673  140.017014    0.000000    0.000000    0.000000    0.000000
  0.047054108   -0.165821 -142.588715 -101.424804  137.023773    0.000000    0.000000    0.000000    0.000000
  0.047254509   -0.166948 -143.080643 -101.037089  131.441635    0.000000    0.000000    0.000000    0.000000
  0.047454910   -0.168254 -143.555298 -102.028864  120.514069    0.000000    0.000000    0.000000    0.000000
  0.047655311   -0.167522 -144.047592 -102.090786  115.658752    0.000000    0.000000    0.000000    0.000000
  0.047855711   -0.168415 -144.530762 -101.037013  125.035721    0.000000    0.000000    0.000000    0.000000
  0.048056112   -0.169511 -145.014496 -100.837060  120.386887    0.000000    0.000000    0.000000    0.000000
  0.048256513   -0.171025 -145.496719 -105.310446  130.942261    0.000000    0.000000    0.000000    0.000000
  0.048456914   -0.171163 -145.980499 -101.801083  130.898514    0.000000    0.000000    0.000000    0.000000
  0.048657315   -0.172534 -146.459442 -101.006915  115.060204    0.000000    0.000000    0.000000    0.000000
  0.048857715   -0.173645 -146.931732 -103.331319  126.855598    0.000000    0.000000    0.000000    0.000000
  0.049058116   -0.173524 -147.416046 -102.674401  114.252975    0.000000    0.000000    0.000000    0.000000
  0.049258517   -0.173813 -147.894653 -102.896578  117.623627    0.000000    0.000000    0.000000    0.000000
  0.049458918   -0.174444 -148.374146 -103.502855  116.025246    0.000000    0.000000    0.000000    0.000000
  0.049659319   -0.176149 -148.841644 -100.746099  110.916824    0.000000    0.000000    0.000000    0.000000
  0.049859719   -0.175805 -149.327209 -101.497149  109.078033    0.000000    0.000000    0.000000    0.000000
  0.050060120   -0.177858 -149.791245 -102.170273  104.142944    0.000000    0.000000    0.000000    0.000000
  0.050260521   -0.177821 -150.260452 -102.562649  101.440292    0.000000    0.000000    0.000000    0.000000
  0.050460922   -0.177394 -150.734741 -102.172590   97.775513    0.000000    0.000000    0.000000    0.000000
  0.050661323   -0.178325 -151.200455 -102.348574   89.861557    0.000000    0.000000    0.000000    0.000000
  0.050861723   -0.179301 -151.662003 -103.321911  105.653458    0.000000    0.000000    0.000000    0.000000
  0.051062124   -0.180099 -152.128677 -102.291275   98.293312    0.000000    0.000000    0.000000    0.000000
  0.051262525   -0.180603 -152.597351 -105.094509   91.734184    0.000000    0.000000    0.000000    0.000000
  0.051462926   -0.181134 -153.062698 -103.566586  103.838348    0.000000    0.000000    0.000000    0.000000
  0.051663327   -0.182128 -153.524078 -104.623447   93.506195    0.000000    0.000000    0.000000    0.000000
  0.051863727   -0.182465 -153.984665 -105.014473   90.112396    0.000000    0.000000    0.000000    0.000000
  0.052064128   -0.183105 -154.442139 -102.942702   81.164566    0.000000    0.000000    0.000000    0.000000
  0.052264529   -0.182898 -154.899902 -102.529028   95.967621    0.000000    0.000000    0.000000    0.000000
  0.052464930   -0.183557 -155.352112 -103.457482  108.913742    0.000000    0.000000    0.000000    0.000000
  0.052665331   -0.185359 -155.808075 -101.466504  102.649155    0.000000    0.000000    0.000000    0.000000
  0.052865731   -0.186992 -156.264832 -102.948766  107.100998    0.000000    0.000000    0.000000    0.000000
