! Anritsu VNA Master:                     Model: MS2036C/10/77
! SN:                                  1601066
! /bd0/18may10/256.ns.m5.s2p
! Existing Calibration Information:
! TYPE:                         Current Settings,       Active Cal Settings
! TIME:             	   05/10/2018 11:03:34 AM,    05/10/2018 10:50:07 AM
! INTERNAL TEMP:    	                   50.8 C,                    49.0 C
! # POINTS:         	                      494,                       494
! START FREQ:       	               20.000 MHz,                20.000 MHz
! STOP FREQ:        	          118.797 594 MHz,           118.797 594 MHz
! SOURCE POWER:     	                     High,                      High
! IFBW:             	                    50 Hz,                     50 Hz
! AVG FACTOR:       	                       1 ,                        1 
! REF PLANE 1:      	                     0 mm,                      0 mm
! REF PLANE 2:      	                     0 mm,                      0 mm
! CAL TYPE:         	                 Full S22,                  Full S22
! CAL METHOD:       	                     SOLT,                      SOLT
! CAL LINE TYPE:    	                     Coax,                      Coax
! DUT PORT 1:       	                K-Conn(M),                 K-Conn(M)
! DUT PORT 2:       	                K-Conn(M),                 K-Conn(M)
! CAL STATUS:       	        OK: Accuracy High,                        --
# GHZ S DB R 50.0
! FREQ.GHZ       S11DB        S11A       S21DB        S21A       S12DB        S12A       S22DB        S22A
  0.020000000    0.000000    0.000000    0.000000    0.000000  -89.774967   35.961040   -0.616386 -126.576653
  0.020200401    0.000000    0.000000    0.000000    0.000000  -89.750552   35.098637   -0.620177 -128.020889
  0.020400802    0.000000    0.000000    0.000000    0.000000  -90.492724   35.220104   -0.621886 -129.490677
  0.020601202    0.000000    0.000000    0.000000    0.000000  -90.645561   36.807915   -0.629773 -130.995193
  0.020801603    0.000000    0.000000    0.000000    0.000000  -91.080110   36.791069   -0.632550 -132.518295
  0.021002004    0.000000    0.000000    0.000000    0.000000  -91.241551   34.963730   -0.636092 -134.075577
  0.021202405    0.000000    0.000000    0.000000    0.000000  -91.907546   38.998627   -0.642308 -135.615570
  0.021402806    0.000000    0.000000    0.000000    0.000000  -91.679769   37.481773   -0.644143 -137.166199
  0.021603206    0.000000    0.000000    0.000000    0.000000  -91.790760   37.495701   -0.651215 -138.728210
  0.021803607    0.000000    0.000000    0.000000    0.000000  -91.831071   39.150814   -0.655946 -140.282364
  0.022004008    0.000000    0.000000    0.000000    0.000000  -92.062181   41.249466   -0.662045 -141.874741
  0.022204409    0.000000    0.000000    0.000000    0.000000  -91.958244   42.841663   -0.669564 -143.482040
  0.022404810    0.000000    0.000000    0.000000    0.000000  -91.773867   43.280571   -0.675812 -145.109024
  0.022605210    0.000000    0.000000    0.000000    0.000000  -91.267526   43.043209   -0.684103 -146.740387
  0.022805611    0.000000    0.000000    0.000000    0.000000  -91.449918   43.936256   -0.688201 -148.387070
  0.023006012    0.000000    0.000000    0.000000    0.000000  -91.378655   45.029278   -0.693848 -150.022675
  0.023206413    0.000000    0.000000    0.000000    0.000000  -91.303435   43.576004   -0.698088 -151.658630
  0.023406814    0.000000    0.000000    0.000000    0.000000  -90.780427   45.920479   -0.705271 -153.287567
  0.023607214    0.000000    0.000000    0.000000    0.000000  -91.235850   39.725628   -0.714916 -154.920181
  0.023807615    0.000000    0.000000    0.000000    0.000000  -91.664927   39.454601   -0.726063 -156.556992
  0.024008016    0.000000    0.000000    0.000000    0.000000  -91.311061   37.656693   -0.733351 -158.230438
  0.024208417    0.000000    0.000000    0.000000    0.000000  -91.000659   35.525742   -0.740618 -159.900635
  0.024408818    0.000000    0.000000    0.000000    0.000000  -91.050474   35.607059   -0.747560 -161.563324
  0.024609218    0.000000    0.000000    0.000000    0.000000  -91.354665   33.772881   -0.756296 -163.238770
  0.024809619    0.000000    0.000000    0.000000    0.000000  -91.592869   30.208714   -0.766464 -164.882294
  0.025010020    0.000000    0.000000    0.000000    0.000000  -91.555631   32.320316   -0.777963 -166.549591
  0.025210421    0.000000    0.000000    0.000000    0.000000  -91.465020   26.928572   -0.788505 -168.193893
  0.025410822    0.000000    0.000000    0.000000    0.000000  -91.951619   27.481113   -0.801048 -169.867706
  0.025611222    0.000000    0.000000    0.000000    0.000000  -92.210326   28.344707   -0.814236 -171.549942
  0.025811623    0.000000    0.000000    0.000000    0.000000  -92.734046   23.980682   -0.826964 -173.231796
  0.026012024    0.000000    0.000000    0.000000    0.000000  -92.319228   24.674522   -0.839990 -174.932404
  0.026212425    0.000000    0.000000    0.000000    0.000000  -93.620932   23.388638   -0.854548 -176.640656
  0.026412826    0.000000    0.000000    0.000000    0.000000  -93.001670   23.111616   -0.871907 -178.363739
  0.026613226    0.000000    0.000000    0.000000    0.000000  -93.777864   25.146957   -0.888177  179.908447
  0.026813627    0.000000    0.000000    0.000000    0.000000  -93.827396   29.579479   -0.906127  178.162277
  0.027014028    0.000000    0.000000    0.000000    0.000000  -94.388786   28.446129   -0.925190  176.407791
  0.027214429    0.000000    0.000000    0.000000    0.000000  -94.479073   29.077566   -0.944602  174.632843
  0.027414830    0.000000    0.000000    0.000000    0.000000  -94.893795   29.036243   -0.966909  172.848068
  0.027615230    0.000000    0.000000    0.000000    0.000000  -94.538853   29.526529   -0.987721  171.044632
  0.027815631    0.000000    0.000000    0.000000    0.000000  -94.631029   30.609173   -1.010040  169.218216
  0.028016032    0.000000    0.000000    0.000000    0.000000  -94.408977   30.952709   -1.033990  167.367599
  0.028216433    0.000000    0.000000    0.000000    0.000000  -94.895683   33.852444   -1.057948  165.489151
  0.028416834    0.000000    0.000000    0.000000    0.000000  -94.782764   31.172615   -1.082655  163.622787
  0.028617234    0.000000    0.000000    0.000000    0.000000  -94.855056   35.073040   -1.107537  161.738037
  0.028817635    0.000000    0.000000    0.000000    0.000000  -94.497033   36.013176   -1.134194  159.842316
  0.029018036    0.000000    0.000000    0.000000    0.000000  -94.138651   32.763435   -1.160924  157.937408
  0.029218437    0.000000    0.000000    0.000000    0.000000  -94.132546   33.411877   -1.189298  156.030106
  0.029418838    0.000000    0.000000    0.000000    0.000000  -93.567333   30.216829   -1.217266  154.088501
  0.029619238    0.000000    0.000000    0.000000    0.000000  -93.731899   26.991482   -1.247709  152.151596
  0.029819639    0.000000    0.000000    0.000000    0.000000  -94.026933   32.862610   -1.276222  150.195755
  0.030020040    0.000000    0.000000    0.000000    0.000000  -94.423847   27.196131   -1.303812  148.249542
  0.030220441    0.000000    0.000000    0.000000    0.000000  -93.513529   25.575911   -1.334298  146.305374
  0.030420842    0.000000    0.000000    0.000000    0.000000  -94.597479   25.218485   -1.363399  144.381302
  0.030621242    0.000000    0.000000    0.000000    0.000000  -94.239410   25.621372   -1.394871  142.463882
  0.030821643    0.000000    0.000000    0.000000    0.000000  -95.466290   22.409557   -1.429997  140.529663
  0.031022044    0.000000    0.000000    0.000000    0.000000  -94.710185   25.897879   -1.462482  138.580948
  0.031222445    0.000000    0.000000    0.000000    0.000000  -94.067842   19.863823   -1.495782  136.651306
  0.031422846    0.000000    0.000000    0.000000    0.000000  -94.883994   18.163206   -1.527906  134.688141
  0.031623246    0.000000    0.000000    0.000000    0.000000  -93.734183   21.100422   -1.563166  132.735504
  0.031823647    0.000000    0.000000    0.000000    0.000000  -94.763565   16.258636   -1.598136  130.796326
  0.032024048    0.000000    0.000000    0.000000    0.000000  -94.704592   21.656776   -1.634892  128.861374
  0.032224449    0.000000    0.000000    0.000000    0.000000  -94.647165   16.615858   -1.673582  126.919983
  0.032424850    0.000000    0.000000    0.000000    0.000000  -95.531380   18.331755   -1.714634  124.965652
  0.032625250    0.000000    0.000000    0.000000    0.000000  -95.527008   17.659027   -1.752371  122.999794
  0.032825651    0.000000    0.000000    0.000000    0.000000  -96.496282   26.221218   -1.792073  121.014053
  0.033026052    0.000000    0.000000    0.000000    0.000000  -96.089668   22.563103   -1.832174  119.005417
  0.033226453    0.000000    0.000000    0.000000    0.000000  -95.274623   21.314020   -1.874233  117.012680
  0.033426854    0.000000    0.000000    0.000000    0.000000  -96.831496   18.926939   -1.916282  114.997490
  0.033627254    0.000000    0.000000    0.000000    0.000000  -96.330550   28.623449   -1.962861  112.993942
  0.033827655    0.000000    0.000000    0.000000    0.000000  -96.784123   29.505505   -2.008667  110.980988
  0.034028056    0.000000    0.000000    0.000000    0.000000  -95.553644   24.207783   -2.053257  108.916031
  0.034228457    0.000000    0.000000    0.000000    0.000000  -96.054146   34.334915   -2.103625  106.867996
  0.034428858    0.000000    0.000000    0.000000    0.000000  -95.596943   26.418209   -2.153838  104.773834
  0.034629258    0.000000    0.000000    0.000000    0.000000  -95.737392   23.289450   -2.203457  102.676308
  0.034829659    0.000000    0.000000    0.000000    0.000000  -96.898220   27.046297   -2.252773  100.567688
  0.035030060    0.000000    0.000000    0.000000    0.000000  -96.244392   23.197638   -2.305014   98.461342
  0.035230461    0.000000    0.000000    0.000000    0.000000  -96.433544   21.844315   -2.360344   96.347000
  0.035430862    0.000000    0.000000    0.000000    0.000000  -97.009811   33.173050   -2.411428   94.216156
  0.035631262    0.000000    0.000000    0.000000    0.000000  -96.309506   23.725697   -2.467458   92.098877
  0.035831663    0.000000    0.000000    0.000000    0.000000  -95.988661   27.923429   -2.521466   89.958626
  0.036032064    0.000000    0.000000    0.000000    0.000000  -96.673566   22.511524   -2.574801   87.840530
  0.036232465    0.000000    0.000000    0.000000    0.000000  -95.528798   29.308922   -2.626946   85.710533
  0.036432866    0.000000    0.000000    0.000000    0.000000  -97.183605   24.877836   -2.682569   83.606712
  0.036633266    0.000000    0.000000    0.000000    0.000000  -96.579960   24.615320   -2.736642   81.489388
  0.036833667    0.000000    0.000000    0.000000    0.000000  -96.042037   18.604492   -2.791688   79.368050
  0.037034068    0.000000    0.000000    0.000000    0.000000  -96.367367   17.986650   -2.848354   77.263504
  0.037234469    0.000000    0.000000    0.000000    0.000000  -96.640807   26.012672   -2.903356   75.161591
  0.037434870    0.000000    0.000000    0.000000    0.000000  -97.471600   20.557779   -2.958899   73.050453
  0.037635270    0.000000    0.000000    0.000000    0.000000  -97.051506   19.111750   -3.022807   70.950317
  0.037835671    0.000000    0.000000    0.000000    0.000000  -97.417662   22.928488   -3.097857   68.893158
  0.038036072    0.000000    0.000000    0.000000    0.000000  -99.035159   25.915628   -3.163606   66.936188
  0.038236473    0.000000    0.000000    0.000000    0.000000  -96.969937   32.723705   -3.220736   64.977669
  0.038436874    0.000000    0.000000    0.000000    0.000000  -98.106735   21.469912   -3.268590   62.962261
  0.038637274    0.000000    0.000000    0.000000    0.000000  -98.282441   32.974400   -3.324594   60.955265
  0.038837675    0.000000    0.000000    0.000000    0.000000  -98.194285   24.597885   -3.378555   58.941822
  0.039038076    0.000000    0.000000    0.000000    0.000000  -97.989324   29.461256   -3.427766   56.952541
  0.039238477    0.000000    0.000000    0.000000    0.000000  -97.857158   34.252342   -3.483229   54.920811
  0.039438878    0.000000    0.000000    0.000000    0.000000  -98.447258   30.534466   -3.534561   52.933174
  0.039639278    0.000000    0.000000    0.000000    0.000000  -98.081282   19.776382   -3.593735   50.908825
  0.039839679    0.000000    0.000000    0.000000    0.000000  -97.804715   34.089630   -3.646164   48.868671
  0.040040080    0.000000    0.000000    0.000000    0.000000  -97.750660   32.494907   -3.698882   46.841404
  0.040240481    0.000000    0.000000    0.000000    0.000000  -97.990699   26.791222   -3.753217   44.790295
  0.040440882    0.000000    0.000000    0.000000    0.000000  -97.767838   32.443813   -3.808029   42.764442
  0.040641283    0.000000    0.000000    0.000000    0.000000  -98.409023   34.194332   -3.858923   40.717022
  0.040841683    0.000000    0.000000    0.000000    0.000000  -97.513232   31.198360   -3.909679   38.693310
  0.041042084    0.000000    0.000000    0.000000    0.000000  -97.582812   25.879826   -3.963329   36.636944
  0.041242485    0.000000    0.000000    0.000000    0.000000  -97.995670   26.346399   -4.016437   34.580456
  0.041442886    0.000000    0.000000    0.000000    0.000000  -96.876491   30.386631   -4.068135   32.504097
  0.041643287    0.000000    0.000000    0.000000    0.000000  -97.930314   24.897741   -4.116366   30.425644
  0.041843687    0.000000    0.000000    0.000000    0.000000  -97.656432   23.857471   -4.163058   28.336439
  0.042044088    0.000000    0.000000    0.000000    0.000000  -98.627923   27.996195   -4.208538   26.274576
  0.042244489    0.000000    0.000000    0.000000    0.000000  -98.567044   26.189440   -4.254528   24.220327
  0.042444890    0.000000    0.000000    0.000000    0.000000  -98.224904   23.449591   -4.296892   22.171452
  0.042645291    0.000000    0.000000    0.000000    0.000000  -98.952803   25.110889   -4.343004   20.110592
  0.042845691    0.000000    0.000000    0.000000    0.000000  -98.036114   22.911982   -4.384959   18.086866
  0.043046092    0.000000    0.000000    0.000000    0.000000  -98.639715   14.315944   -4.425452   16.037210
  0.043246493    0.000000    0.000000    0.000000    0.000000  -98.757092   20.598949   -4.464613   14.013031
  0.043446894    0.000000    0.000000    0.000000    0.000000  -98.213166   26.233471   -4.502880   11.996453
  0.043647295    0.000000    0.000000    0.000000    0.000000  -98.668471   25.679638   -4.539981    9.991501
  0.043847695    0.000000    0.000000    0.000000    0.000000 -100.117001   28.929050   -4.580641    8.009162
  0.044048096    0.000000    0.000000    0.000000    0.000000  -98.808955   28.766584   -4.617673    6.048823
  0.044248497    0.000000    0.000000    0.000000    0.000000  -99.893547   23.268078   -4.653491    4.089965
  0.044448898    0.000000    0.000000    0.000000    0.000000 -100.149033   42.638638   -4.688783    2.150308
  0.044649299    0.000000    0.000000    0.000000    0.000000  -99.409767   33.976204   -4.725373    0.219790
  0.044849699    0.000000    0.000000    0.000000    0.000000  -99.230657   41.042751   -4.762834   -1.706820
  0.045050100    0.000000    0.000000    0.000000    0.000000  -98.311496   41.231583   -4.801310   -3.602911
  0.045250501    0.000000    0.000000    0.000000    0.000000  -98.975236   31.327219   -4.834147   -5.510808
  0.045450902    0.000000    0.000000    0.000000    0.000000  -99.086140   36.842201   -4.868940   -7.408470
  0.045651303    0.000000    0.000000    0.000000    0.000000  -98.023790   37.388081   -4.904236   -9.299419
  0.045851703    0.000000    0.000000    0.000000    0.000000  -97.824551   20.043215   -4.941615  -11.180225
  0.046052104    0.000000    0.000000    0.000000    0.000000  -99.171758   28.792587   -4.976490  -13.043582
  0.046252505    0.000000    0.000000    0.000000    0.000000  -99.409269   34.874847   -5.013718  -14.889524
  0.046452906    0.000000    0.000000    0.000000    0.000000  -98.952553   36.217606   -5.051905  -16.752024
  0.046653307    0.000000    0.000000    0.000000    0.000000  -98.618417   39.520092   -5.092911  -18.617971
  0.046853707    0.000000    0.000000    0.000000    0.000000  -98.513775   29.168890   -5.133100  -20.468822
  0.047054108    0.000000    0.000000    0.000000    0.000000  -98.268309   33.164055   -5.169446  -22.338356
  0.047254509    0.000000    0.000000    0.000000    0.000000  -97.577660   31.185240   -5.207643  -24.190695
  0.047454910    0.000000    0.000000    0.000000    0.000000  -98.134923   25.209995   -5.242969  -26.047213
  0.047655311    0.000000    0.000000    0.000000    0.000000  -99.841338   35.998554   -5.278304  -27.865746
  0.047855711    0.000000    0.000000    0.000000    0.000000  -99.117349   23.678534   -5.313974  -29.661770
  0.048056112    0.000000    0.000000    0.000000    0.000000  -98.029860   27.915295   -5.346920  -31.472727
  0.048256513    0.000000    0.000000    0.000000    0.000000  -99.513355   31.267471   -5.380817  -33.259560
  0.048456914    0.000000    0.000000    0.000000    0.000000  -99.132696   33.679485   -5.412515  -35.063900
  0.048657315    0.000000    0.000000    0.000000    0.000000 -100.671018   33.141167   -5.440614  -36.882095
  0.048857715    0.000000    0.000000    0.000000    0.000000  -97.733605   26.614042   -5.472417  -38.663708
  0.049058116    0.000000    0.000000    0.000000    0.000000  -98.556373   30.637718   -5.493931  -40.433678
  0.049258517    0.000000    0.000000    0.000000    0.000000  -99.893687   26.674196   -5.522307  -42.174686
  0.049458918    0.000000    0.000000    0.000000    0.000000  -99.768877   28.933741   -5.544129  -43.913586
  0.049659319    0.000000    0.000000    0.000000    0.000000  -99.227191   25.944078   -5.568187  -45.630878
  0.049859719    0.000000    0.000000    0.000000    0.000000  -99.354195   31.569363   -5.595689  -47.324928
  0.050060120    0.000000    0.000000    0.000000    0.000000 -101.862481   44.305923   -5.614013  -49.025883
  0.050260521    0.000000    0.000000    0.000000    0.000000 -100.269948   37.150536   -5.636305  -50.715374
  0.050460922    0.000000    0.000000    0.000000    0.000000 -100.537704   41.458981   -5.653571  -52.395691
  0.050661323    0.000000    0.000000    0.000000    0.000000  -98.302285   36.625092   -5.669441  -54.051643
  0.050861723    0.000000    0.000000    0.000000    0.000000 -100.623182   56.479225   -5.687240  -55.694546
  0.051062124    0.000000    0.000000    0.000000    0.000000  -98.514438   34.278221   -5.708442  -57.317657
  0.051262525    0.000000    0.000000    0.000000    0.000000 -100.077942   37.787582   -5.725669  -58.929710
  0.051462926    0.000000    0.000000    0.000000    0.000000  -99.765391   42.599110   -5.745832  -60.528816
  0.051663327    0.000000    0.000000    0.000000    0.000000  -99.085885   21.724602   -5.761300  -62.101608
  0.051863727    0.000000    0.000000    0.000000    0.000000  -98.561853   24.555792   -5.778474  -63.692661
  0.052064128    0.000000    0.000000    0.000000    0.000000  -98.361292   34.785023   -5.790311  -65.262413
  0.052264529    0.000000    0.000000    0.000000    0.000000  -99.684796   33.333828   -5.807087  -66.833069
  0.052464930    0.000000    0.000000    0.000000    0.000000  -98.837834   39.085438   -5.820936  -68.389198
  0.052665331    0.000000    0.000000    0.000000    0.000000  -98.485747   34.139538   -5.839162  -69.896881
  0.052865731    0.000000    0.000000    0.000000    0.000000  -99.572290   31.999060   -5.852404  -71.458214
