! Anritsu VNA Master:                     Model: MS2036C/10/77
! SN:                                  1601066
! /bd0/18may10/256.ns.m6.s2p
! Existing Calibration Information:
! TYPE:                         Current Settings,       Active Cal Settings
! TIME:             	   05/10/2018 11:13:21 AM,    05/10/2018 11:07:23 AM
! INTERNAL TEMP:    	                   52.3 C,                    51.3 C
! # POINTS:         	                      494,                       494
! START FREQ:       	               20.000 MHz,                20.000 MHz
! STOP FREQ:        	          118.797 594 MHz,           118.797 594 MHz
! SOURCE POWER:     	                     High,                      High
! IFBW:             	                    50 Hz,                     50 Hz
! AVG FACTOR:       	                       1 ,                        1 
! REF PLANE 1:      	                     0 mm,                      0 mm
! REF PLANE 2:      	                     0 mm,                      0 mm
! CAL TYPE:         	                 Full S22,                  Full S22
! CAL METHOD:       	                     SOLT,                      SOLT
! CAL LINE TYPE:    	                     Coax,                      Coax
! DUT PORT 1:       	                K-Conn(M),                 K-Conn(M)
! DUT PORT 2:       	                K-Conn(M),                 K-Conn(M)
! CAL STATUS:       	        OK: Accuracy High,                        --
# GHZ S DB R 50.0
! FREQ.GHZ       S11DB        S11A       S21DB        S21A       S12DB        S12A       S22DB        S22A
  0.020000000    0.000000    0.000000    0.000000    0.000000  -89.267104   35.175930   -0.613751 -126.776886
  0.020200401    0.000000    0.000000    0.000000    0.000000  -89.960401   33.532597   -0.614053 -128.234955
  0.020400802    0.000000    0.000000    0.000000    0.000000  -90.239530   30.837330   -0.620408 -129.731049
  0.020601202    0.000000    0.000000    0.000000    0.000000  -91.059438   35.229870   -0.623859 -131.239731
  0.020801603    0.000000    0.000000    0.000000    0.000000  -90.675209   36.158424   -0.627134 -132.768967
  0.021002004    0.000000    0.000000    0.000000    0.000000  -91.079389   38.096844   -0.631347 -134.328415
  0.021202405    0.000000    0.000000    0.000000    0.000000  -91.270998   34.082840   -0.635815 -135.876907
  0.021402806    0.000000    0.000000    0.000000    0.000000  -91.996604   40.138817   -0.636516 -137.415680
  0.021603206    0.000000    0.000000    0.000000    0.000000  -91.751134   36.809563   -0.642151 -138.966217
  0.021803607    0.000000    0.000000    0.000000    0.000000  -91.535585   43.514786   -0.647356 -140.509369
  0.022004008    0.000000    0.000000    0.000000    0.000000  -91.749180   41.880146   -0.652497 -142.058014
  0.022204409    0.000000    0.000000    0.000000    0.000000  -92.099397   41.271267   -0.659122 -143.637314
  0.022404810    0.000000    0.000000    0.000000    0.000000  -91.686739   43.420387   -0.666205 -145.246521
  0.022605210    0.000000    0.000000    0.000000    0.000000  -91.635519   42.418125   -0.670799 -146.839066
  0.022805611    0.000000    0.000000    0.000000    0.000000  -91.430224   44.669506   -0.680179 -148.449448
  0.023006012    0.000000    0.000000    0.000000    0.000000  -91.141011   41.851219   -0.683339 -150.060135
  0.023206413    0.000000    0.000000    0.000000    0.000000  -91.278626   44.465031   -0.688950 -151.673157
  0.023406814    0.000000    0.000000    0.000000    0.000000  -91.530178   42.970272   -0.694809 -153.277390
  0.023607214    0.000000    0.000000    0.000000    0.000000  -90.778569   42.322937   -0.702955 -154.898438
  0.023807615    0.000000    0.000000    0.000000    0.000000  -90.960055   40.598793   -0.716402 -156.526962
  0.024008016    0.000000    0.000000    0.000000    0.000000  -91.306703   40.154438   -0.725557 -158.172882
  0.024208417    0.000000    0.000000    0.000000    0.000000  -90.757665   38.474400   -0.733505 -159.853790
  0.024408818    0.000000    0.000000    0.000000    0.000000  -90.890586   31.784651   -0.741583 -161.527191
  0.024609218    0.000000    0.000000    0.000000    0.000000  -91.385450   35.327042   -0.750761 -163.202332
  0.024809619    0.000000    0.000000    0.000000    0.000000  -91.152750   32.657681   -0.763090 -164.877167
  0.025010020    0.000000    0.000000    0.000000    0.000000  -91.778722   28.482668   -0.774857 -166.559525
  0.025210421    0.000000    0.000000    0.000000    0.000000  -92.144469   29.012749   -0.786994 -168.252426
  0.025410822    0.000000    0.000000    0.000000    0.000000  -91.789755   24.671295   -0.800069 -169.956985
  0.025611222    0.000000    0.000000    0.000000    0.000000  -92.065171   27.770306   -0.813227 -171.674759
  0.025811623    0.000000    0.000000    0.000000    0.000000  -92.702935   27.634134   -0.828221 -173.405518
  0.026012024    0.000000    0.000000    0.000000    0.000000  -92.494381   27.965195   -0.840664 -175.144089
  0.026212425    0.000000    0.000000    0.000000    0.000000  -93.595563   22.517488   -0.854600 -176.893356
  0.026412826    0.000000    0.000000    0.000000    0.000000  -93.358391   28.118113   -0.870881 -178.659134
  0.026613226    0.000000    0.000000    0.000000    0.000000  -93.807810   26.628084   -0.887197  179.582016
  0.026813627    0.000000    0.000000    0.000000    0.000000  -93.841722   22.381868   -0.904543  177.799133
  0.027014028    0.000000    0.000000    0.000000    0.000000  -93.628229   30.735386   -0.922963  176.017929
  0.027214429    0.000000    0.000000    0.000000    0.000000  -94.974669   29.848856   -0.941755  174.227081
  0.027414830    0.000000    0.000000    0.000000    0.000000  -94.214936   28.515579   -0.960179  172.425583
  0.027615230    0.000000    0.000000    0.000000    0.000000  -94.977026   31.507263   -0.980165  170.604889
  0.027815631    0.000000    0.000000    0.000000    0.000000  -94.632275   29.759701   -1.001118  168.777603
  0.028016032    0.000000    0.000000    0.000000    0.000000  -94.344572   30.711912   -1.022902  166.940979
  0.028216433    0.000000    0.000000    0.000000    0.000000  -94.968473   29.580965   -1.044967  165.082108
  0.028416834    0.000000    0.000000    0.000000    0.000000  -94.435884   31.488674   -1.069245  163.227371
  0.028617234    0.000000    0.000000    0.000000    0.000000  -94.071867   31.540031   -1.091591  161.365784
  0.028817635    0.000000    0.000000    0.000000    0.000000  -94.175339   34.394676   -1.115361  159.504486
  0.029018036    0.000000    0.000000    0.000000    0.000000  -94.072471   36.845634   -1.141288  157.634949
  0.029218437    0.000000    0.000000    0.000000    0.000000  -93.369136   32.446651   -1.168908  155.760498
  0.029418838    0.000000    0.000000    0.000000    0.000000  -94.267619   32.010563   -1.194648  153.829346
  0.029619238    0.000000    0.000000    0.000000    0.000000  -94.284264   33.731541   -1.223857  151.934326
  0.029819639    0.000000    0.000000    0.000000    0.000000  -94.211623   27.928360   -1.251802  150.018585
  0.030020040    0.000000    0.000000    0.000000    0.000000  -93.997574   27.003696   -1.281987  148.100296
  0.030220441    0.000000    0.000000    0.000000    0.000000  -94.064156   25.416655   -1.311176  146.183899
  0.030420842    0.000000    0.000000    0.000000    0.000000  -94.485181   27.112789   -1.341778  144.273438
  0.030621242    0.000000    0.000000    0.000000    0.000000  -93.917213   26.477001   -1.375390  142.365097
  0.030821643    0.000000    0.000000    0.000000    0.000000  -94.350069   20.977175   -1.408622  140.437836
  0.031022044    0.000000    0.000000    0.000000    0.000000  -94.468237   21.160957   -1.443878  138.482590
  0.031222445    0.000000    0.000000    0.000000    0.000000  -94.209970   19.129637   -1.473897  136.546722
  0.031422846    0.000000    0.000000    0.000000    0.000000  -95.205586   22.097099   -1.508952  134.575455
  0.031623246    0.000000    0.000000    0.000000    0.000000  -94.608771   20.809532   -1.545799  132.601852
  0.031823647    0.000000    0.000000    0.000000    0.000000  -94.142990   19.450781   -1.584275  130.627975
  0.032024048    0.000000    0.000000    0.000000    0.000000  -94.909161   21.901560   -1.622652  128.643417
  0.032224449    0.000000    0.000000    0.000000    0.000000  -95.190020   18.895748   -1.660918  126.647514
  0.032424850    0.000000    0.000000    0.000000    0.000000  -96.398656   15.221306   -1.701124  124.668449
  0.032625250    0.000000    0.000000    0.000000    0.000000  -94.915046   18.943302   -1.740448  122.649612
  0.032825651    0.000000    0.000000    0.000000    0.000000  -95.474066   18.870695   -1.782130  120.617859
  0.033026052    0.000000    0.000000    0.000000    0.000000  -96.734925   25.504906   -1.822586  118.570480
  0.033226453    0.000000    0.000000    0.000000    0.000000  -95.575570   20.836250   -1.862041  116.530319
  0.033426854    0.000000    0.000000    0.000000    0.000000  -96.547693   21.959784   -1.905795  114.506538
  0.033627254    0.000000    0.000000    0.000000    0.000000  -96.357586   19.821293   -1.951242  112.465813
  0.033827655    0.000000    0.000000    0.000000    0.000000  -97.601528   25.949661   -1.992868  110.426064
  0.034028056    0.000000    0.000000    0.000000    0.000000  -96.211287   24.909704   -2.038226  108.382599
  0.034228457    0.000000    0.000000    0.000000    0.000000  -97.035802   28.363634   -2.086103  106.309380
  0.034428858    0.000000    0.000000    0.000000    0.000000  -97.023559   22.468065   -2.131481  104.227707
  0.034629258    0.000000    0.000000    0.000000    0.000000  -95.695838   20.410213   -2.180347  102.147957
  0.034829659    0.000000    0.000000    0.000000    0.000000  -97.605090   29.214373   -2.227341  100.062759
  0.035030060    0.000000    0.000000    0.000000    0.000000  -96.805546   26.649664   -2.277963   97.973724
  0.035230461    0.000000    0.000000    0.000000    0.000000  -95.861691   25.781364   -2.330442   95.883278
  0.035430862    0.000000    0.000000    0.000000    0.000000  -95.394874   31.344490   -2.383610   93.804947
  0.035631262    0.000000    0.000000    0.000000    0.000000  -96.258292   27.855047   -2.436340   91.720253
  0.035831663    0.000000    0.000000    0.000000    0.000000  -96.147778   26.709208   -2.486781   89.634239
  0.036032064    0.000000    0.000000    0.000000    0.000000  -97.253401   22.402914   -2.543673   87.524803
  0.036232465    0.000000    0.000000    0.000000    0.000000  -96.172555   17.558432   -2.597717   85.453606
  0.036432866    0.000000    0.000000    0.000000    0.000000  -95.458584   20.395466   -2.651196   83.353706
  0.036633266    0.000000    0.000000    0.000000    0.000000  -96.902440   19.479124   -2.705963   81.274475
  0.036833667    0.000000    0.000000    0.000000    0.000000  -96.597260   20.464237   -2.764336   79.183586
  0.037034068    0.000000    0.000000    0.000000    0.000000  -96.508448   19.120115   -2.820921   77.086769
  0.037234469    0.000000    0.000000    0.000000    0.000000  -97.061615   19.770441   -2.877565   74.985367
  0.037434870    0.000000    0.000000    0.000000    0.000000  -97.272816   18.318789   -2.936661   72.885551
  0.037635270    0.000000    0.000000    0.000000    0.000000  -96.535766   23.428493   -3.002382   70.766556
  0.037835671    0.000000    0.000000    0.000000    0.000000  -96.688876   28.587063   -3.080920   68.692245
  0.038036072    0.000000    0.000000    0.000000    0.000000  -96.964845   24.863491   -3.147208   66.713249
  0.038236473    0.000000    0.000000    0.000000    0.000000  -98.347124   25.636335   -3.203148   64.710930
  0.038436874    0.000000    0.000000    0.000000    0.000000  -98.904031   31.729845   -3.257652   62.692013
  0.038637274    0.000000    0.000000    0.000000    0.000000  -97.633979   23.863998   -3.310677   60.637383
  0.038837675    0.000000    0.000000    0.000000    0.000000  -97.315112   25.512861   -3.362825   58.583443
  0.039038076    0.000000    0.000000    0.000000    0.000000  -97.800263   25.675064   -3.413159   56.566872
  0.039238477    0.000000    0.000000    0.000000    0.000000  -98.724430   27.042665   -3.469757   54.491917
  0.039438878    0.000000    0.000000    0.000000    0.000000  -98.248340   31.206110   -3.520496   52.467941
  0.039639278    0.000000    0.000000    0.000000    0.000000  -98.636359   32.441372   -3.573083   50.416939
  0.039839679    0.000000    0.000000    0.000000    0.000000  -97.448938   27.569498   -3.626925   48.361607
  0.040040080    0.000000    0.000000    0.000000    0.000000  -97.311528   26.884920   -3.677118   46.292213
  0.040240481    0.000000    0.000000    0.000000    0.000000  -98.981607   38.045483   -3.726631   44.247288
  0.040440882    0.000000    0.000000    0.000000    0.000000  -98.017338   33.170269   -3.775761   42.200691
  0.040641283    0.000000    0.000000    0.000000    0.000000  -98.009934   34.535988   -3.826436   40.174828
  0.040841683    0.000000    0.000000    0.000000    0.000000  -97.966889   36.123386   -3.875864   38.156178
  0.041042084    0.000000    0.000000    0.000000    0.000000  -97.735468   29.735521   -3.925287   36.138531
  0.041242485    0.000000    0.000000    0.000000    0.000000  -97.795508   27.823866   -3.976697   34.101357
  0.041442886    0.000000    0.000000    0.000000    0.000000  -97.957550   26.013237   -4.023034   32.066273
  0.041643287    0.000000    0.000000    0.000000    0.000000  -96.878717   27.517658   -4.070565   30.020290
  0.041843687    0.000000    0.000000    0.000000    0.000000  -98.749528   27.027760   -4.116583   27.981113
  0.042044088    0.000000    0.000000    0.000000    0.000000  -98.229065   30.926735   -4.161247   25.955225
  0.042244489    0.000000    0.000000    0.000000    0.000000  -97.985640   26.192829   -4.207976   23.929607
  0.042444890    0.000000    0.000000    0.000000    0.000000  -98.333815   31.741747   -4.255624   21.923859
  0.042645291    0.000000    0.000000    0.000000    0.000000  -99.251836   18.136944   -4.297404   19.914799
  0.042845691    0.000000    0.000000    0.000000    0.000000  -98.450101   27.011007   -4.342183   17.905800
  0.043046092    0.000000    0.000000    0.000000    0.000000  -98.956905   22.348919   -4.384314   15.911042
  0.043246493    0.000000    0.000000    0.000000    0.000000  -98.021001   37.375927   -4.428955   13.882508
  0.043446894    0.000000    0.000000    0.000000    0.000000  -99.850721   28.517864   -4.470404   11.896350
  0.043647295    0.000000    0.000000    0.000000    0.000000  -99.079854   27.999815   -4.508989    9.887907
  0.043847695    0.000000    0.000000    0.000000    0.000000  -99.869110   21.017521   -4.552027    7.904582
  0.044048096    0.000000    0.000000    0.000000    0.000000  -98.876070   40.275864   -4.592070    5.921196
  0.044248497    0.000000    0.000000    0.000000    0.000000 -100.375733   38.917694   -4.632357    3.963617
  0.044448898    0.000000    0.000000    0.000000    0.000000 -100.489720   27.327507   -4.671435    2.005543
  0.044649299    0.000000    0.000000    0.000000    0.000000  -99.486106   28.681536   -4.710288    0.044713
  0.044849699    0.000000    0.000000    0.000000    0.000000 -100.136124   36.323139   -4.750875   -1.907477
  0.045050100    0.000000    0.000000    0.000000    0.000000  -99.407424   37.303532   -4.785965   -3.852662
  0.045250501    0.000000    0.000000    0.000000    0.000000  -97.701477   31.876165   -4.824255   -5.781798
  0.045450902    0.000000    0.000000    0.000000    0.000000  -98.253247   31.153528   -4.863094   -7.687301
  0.045651303    0.000000    0.000000    0.000000    0.000000  -98.220116   24.670225   -4.901596   -9.623342
  0.045851703    0.000000    0.000000    0.000000    0.000000  -98.473482   23.035313   -4.934204  -11.525456
  0.046052104    0.000000    0.000000    0.000000    0.000000  -98.396522   30.164278   -4.970624  -13.417650
  0.046252505    0.000000    0.000000    0.000000    0.000000  -98.668359   43.112148   -5.003502  -15.293354
  0.046452906    0.000000    0.000000    0.000000    0.000000  -98.527642   34.441269   -5.041217  -17.164785
  0.046653307    0.000000    0.000000    0.000000    0.000000  -99.298646   28.413383   -5.074555  -19.048515
  0.046853707    0.000000    0.000000    0.000000    0.000000  -99.315452   30.217966   -5.109779  -20.902868
  0.047054108    0.000000    0.000000    0.000000    0.000000  -98.175042   24.138985   -5.142116  -22.774549
  0.047254509    0.000000    0.000000    0.000000    0.000000  -99.193563   21.053762   -5.177431  -24.621563
  0.047454910    0.000000    0.000000    0.000000    0.000000  -98.265723   28.168903   -5.210931  -26.457253
  0.047655311    0.000000    0.000000    0.000000    0.000000  -98.524846   31.016445   -5.243886  -28.237322
  0.047855711    0.000000    0.000000    0.000000    0.000000  -98.569861   30.934296   -5.279006  -30.018532
  0.048056112    0.000000    0.000000    0.000000    0.000000  -98.503097   30.460360   -5.311957  -31.798870
  0.048256513    0.000000    0.000000    0.000000    0.000000  -99.556729   27.610052   -5.342901  -33.569218
  0.048456914    0.000000    0.000000    0.000000    0.000000 -100.295749   28.316662   -5.370734  -35.332935
  0.048657315    0.000000    0.000000    0.000000    0.000000  -99.245399   32.216122   -5.399715  -37.101944
  0.048857715    0.000000    0.000000    0.000000    0.000000 -100.495404   32.135586   -5.429174  -38.859390
  0.049058116    0.000000    0.000000    0.000000    0.000000  -99.437143   29.775442   -5.453461  -40.599152
  0.049258517    0.000000    0.000000    0.000000    0.000000 -100.076511   26.781006   -5.480940  -42.334263
  0.049458918    0.000000    0.000000    0.000000    0.000000  -98.906865   37.968315   -5.509004  -44.036018
  0.049659319    0.000000    0.000000    0.000000    0.000000  -98.994823   30.583378   -5.534935  -45.746243
  0.049859719    0.000000    0.000000    0.000000    0.000000  -98.664609   31.780586   -5.561358  -47.438442
  0.050060120    0.000000    0.000000    0.000000    0.000000 -100.466385   39.236301   -5.582791  -49.127430
  0.050260521    0.000000    0.000000    0.000000    0.000000 -101.789962   33.878586   -5.606800  -50.815666
  0.050460922    0.000000    0.000000    0.000000    0.000000  -98.571630   43.092201   -5.628893  -52.492619
  0.050661323    0.000000    0.000000    0.000000    0.000000  -99.413609   31.249420   -5.646295  -54.153740
  0.050861723    0.000000    0.000000    0.000000    0.000000  -98.905588   32.123482   -5.663965  -55.798962
  0.051062124    0.000000    0.000000    0.000000    0.000000  -99.849937   39.260303   -5.687750  -57.441330
  0.051262525    0.000000    0.000000    0.000000    0.000000  -99.484780   41.784046   -5.705931  -59.059723
  0.051462926    0.000000    0.000000    0.000000    0.000000  -99.038763   32.317875   -5.726111  -60.663227
  0.051663327    0.000000    0.000000    0.000000    0.000000  -99.527296   25.778025   -5.741862  -62.267605
  0.051863727    0.000000    0.000000    0.000000    0.000000  -99.412260   28.621222   -5.761073  -63.867577
  0.052064128    0.000000    0.000000    0.000000    0.000000  -98.149574   28.296167   -5.770327  -65.449577
  0.052264529    0.000000    0.000000    0.000000    0.000000  -99.621536   37.048565   -5.784293  -67.031448
  0.052464930    0.000000    0.000000    0.000000    0.000000  -99.169801   27.966555   -5.796852  -68.576256
  0.052665331    0.000000    0.000000    0.000000    0.000000  -98.234619   32.779213   -5.811914  -70.111687
  0.052865731    0.000000    0.000000    0.000000    0.000000  -99.218864   25.201689   -5.824646  -71.623444
