! Anritsu VNA Master:                     Model: MS2036C/10/77
! SN:                                  1601066
! /bd0/18may10/256.ns.m7.s2p
! Existing Calibration Information:
! TYPE:                         Current Settings,       Active Cal Settings
! TIME:             	   05/10/2018 11:14:47 AM,    05/10/2018 11:07:23 AM
! INTERNAL TEMP:    	                   52.3 C,                    51.3 C
! # POINTS:         	                      494,                       494
! START FREQ:       	               20.000 MHz,                20.000 MHz
! STOP FREQ:        	          118.797 594 MHz,           118.797 594 MHz
! SOURCE POWER:     	                     High,                      High
! IFBW:             	                    50 Hz,                     50 Hz
! AVG FACTOR:       	                       1 ,                        1 
! REF PLANE 1:      	                     0 mm,                      0 mm
! REF PLANE 2:      	                     0 mm,                      0 mm
! CAL TYPE:         	                 Full S22,                  Full S22
! CAL METHOD:       	                     SOLT,                      SOLT
! CAL LINE TYPE:    	                     Coax,                      Coax
! DUT PORT 1:       	                K-Conn(M),                 K-Conn(M)
! DUT PORT 2:       	                K-Conn(M),                 K-Conn(M)
! CAL STATUS:       	        OK: Accuracy High,                        --
# GHZ S DB R 50.0
! FREQ.GHZ       S11DB        S11A       S21DB        S21A       S12DB        S12A       S22DB        S22A
  0.020000000    0.000000    0.000000    0.000000    0.000000  -89.470479   36.130108   -0.606004 -126.849876
  0.020200401    0.000000    0.000000    0.000000    0.000000  -89.661449   36.497227   -0.609168 -128.314713
  0.020400802    0.000000    0.000000    0.000000    0.000000  -90.691926   34.684341   -0.614854 -129.801331
  0.020601202    0.000000    0.000000    0.000000    0.000000  -90.250941   36.772175   -0.619442 -131.311447
  0.020801603    0.000000    0.000000    0.000000    0.000000  -90.893098   34.907963   -0.622981 -132.847839
  0.021002004    0.000000    0.000000    0.000000    0.000000  -91.905268   32.494762   -0.627326 -134.391312
  0.021202405    0.000000    0.000000    0.000000    0.000000  -91.404822   39.018429   -0.632018 -135.949814
  0.021402806    0.000000    0.000000    0.000000    0.000000  -91.037511   37.570309   -0.632763 -137.485428
  0.021603206    0.000000    0.000000    0.000000    0.000000  -91.971484   38.644291   -0.637737 -139.027405
  0.021803607    0.000000    0.000000    0.000000    0.000000  -91.617272   36.011295   -0.644485 -140.571716
  0.022004008    0.000000    0.000000    0.000000    0.000000  -91.686298   40.273129   -0.649999 -142.115158
  0.022204409    0.000000    0.000000    0.000000    0.000000  -91.898347   42.350555   -0.658460 -143.694702
  0.022404810    0.000000    0.000000    0.000000    0.000000  -91.566538   39.742725   -0.663446 -145.304962
  0.022605210    0.000000    0.000000    0.000000    0.000000  -91.118304   43.847267   -0.668676 -146.905487
  0.022805611    0.000000    0.000000    0.000000    0.000000  -91.333696   43.911251   -0.679601 -148.508774
  0.023006012    0.000000    0.000000    0.000000    0.000000  -91.380636   41.560852   -0.684722 -150.106430
  0.023206413    0.000000    0.000000    0.000000    0.000000  -91.315739   44.653259   -0.689454 -151.715805
  0.023406814    0.000000    0.000000    0.000000    0.000000  -91.393184   44.289158   -0.692852 -153.325912
  0.023607214    0.000000    0.000000    0.000000    0.000000  -90.602855   42.584007   -0.702710 -154.945694
  0.023807615    0.000000    0.000000    0.000000    0.000000  -91.447701   40.511864   -0.716087 -156.575821
  0.024008016    0.000000    0.000000    0.000000    0.000000  -91.439184   38.070168   -0.724983 -158.225983
  0.024208417    0.000000    0.000000    0.000000    0.000000  -91.043767   36.617973   -0.734153 -159.895706
  0.024408818    0.000000    0.000000    0.000000    0.000000  -91.233645   38.273289   -0.741578 -161.561203
  0.024609218    0.000000    0.000000    0.000000    0.000000  -91.518429   32.570480   -0.751138 -163.238052
  0.024809619    0.000000    0.000000    0.000000    0.000000  -91.739578   36.178127   -0.763647 -164.909744
  0.025010020    0.000000    0.000000    0.000000    0.000000  -91.229452   29.960651   -0.775572 -166.598450
  0.025210421    0.000000    0.000000    0.000000    0.000000  -91.210631   29.178921   -0.787543 -168.279724
  0.025410822    0.000000    0.000000    0.000000    0.000000  -92.302833   29.345427   -0.801180 -169.981476
  0.025611222    0.000000    0.000000    0.000000    0.000000  -92.398901   25.863447   -0.816030 -171.698135
  0.025811623    0.000000    0.000000    0.000000    0.000000  -92.591573   28.255360   -0.830067 -173.430176
  0.026012024    0.000000    0.000000    0.000000    0.000000  -93.335212   28.539808   -0.843001 -175.164581
  0.026212425    0.000000    0.000000    0.000000    0.000000  -93.043790   26.073874   -0.858158 -176.910492
  0.026412826    0.000000    0.000000    0.000000    0.000000  -93.224460   20.675716   -0.874308 -178.674896
  0.026613226    0.000000    0.000000    0.000000    0.000000  -93.444265   25.406874   -0.891458  179.563141
  0.026813627    0.000000    0.000000    0.000000    0.000000  -94.403823   24.872568   -0.908727  177.780396
  0.027014028    0.000000    0.000000    0.000000    0.000000  -94.731629   26.367535   -0.927112  175.996338
  0.027214429    0.000000    0.000000    0.000000    0.000000  -94.300090   27.665483   -0.946971  174.209915
  0.027414830    0.000000    0.000000    0.000000    0.000000  -94.983865   30.751028   -0.965469  172.407822
  0.027615230    0.000000    0.000000    0.000000    0.000000  -94.619143   27.965553   -0.985212  170.577393
  0.027815631    0.000000    0.000000    0.000000    0.000000  -95.254488   29.372847   -1.005706  168.761292
  0.028016032    0.000000    0.000000    0.000000    0.000000  -93.919126   33.076248   -1.028475  166.919403
  0.028216433    0.000000    0.000000    0.000000    0.000000  -94.801412   35.462337   -1.050791  165.062836
  0.028416834    0.000000    0.000000    0.000000    0.000000  -94.754440   34.422493   -1.073819  163.197891
  0.028617234    0.000000    0.000000    0.000000    0.000000  -94.563587   37.072556   -1.096808  161.337509
  0.028817635    0.000000    0.000000    0.000000    0.000000  -94.066546   36.173489   -1.121091  159.473862
  0.029018036    0.000000    0.000000    0.000000    0.000000  -94.460706   35.356926   -1.147067  157.599457
  0.029218437    0.000000    0.000000    0.000000    0.000000  -94.096574   34.474171   -1.173772  155.722366
  0.029418838    0.000000    0.000000    0.000000    0.000000  -93.869821   30.766836   -1.202896  153.813446
  0.029619238    0.000000    0.000000    0.000000    0.000000  -93.948099   36.612995   -1.231992  151.912659
  0.029819639    0.000000    0.000000    0.000000    0.000000  -94.215870   34.745834   -1.259792  150.001175
  0.030020040    0.000000    0.000000    0.000000    0.000000  -93.600415   29.030661   -1.289452  148.074158
  0.030220441    0.000000    0.000000    0.000000    0.000000  -93.715463   26.643028   -1.318826  146.157059
  0.030420842    0.000000    0.000000    0.000000    0.000000  -94.491509   28.803696   -1.349928  144.253876
  0.030621242    0.000000    0.000000    0.000000    0.000000  -94.333692   25.705811   -1.383573  142.341202
  0.030821643    0.000000    0.000000    0.000000    0.000000  -93.982375   19.723480   -1.417479  140.418655
  0.031022044    0.000000    0.000000    0.000000    0.000000  -94.177596   24.747295   -1.453875  138.463516
  0.031222445    0.000000    0.000000    0.000000    0.000000  -94.509427   19.473515   -1.484603  136.529404
  0.031422846    0.000000    0.000000    0.000000    0.000000  -93.465563   24.973209   -1.520912  134.565552
  0.031623246    0.000000    0.000000    0.000000    0.000000  -94.797648   20.202662   -1.557439  132.599121
  0.031823647    0.000000    0.000000    0.000000    0.000000  -94.816974   17.713970   -1.595528  130.626923
  0.032024048    0.000000    0.000000    0.000000    0.000000  -94.850228   19.202269   -1.634425  128.650208
  0.032224449    0.000000    0.000000    0.000000    0.000000  -96.308316   17.414667   -1.673394  126.655533
  0.032424850    0.000000    0.000000    0.000000    0.000000  -96.022127   17.548609   -1.713186  124.679214
  0.032625250    0.000000    0.000000    0.000000    0.000000  -95.217415   12.995522   -1.753016  122.655800
  0.032825651    0.000000    0.000000    0.000000    0.000000  -96.244027   21.443140   -1.795140  120.626274
  0.033026052    0.000000    0.000000    0.000000    0.000000  -95.925400   21.819681   -1.835655  118.580292
  0.033226453    0.000000    0.000000    0.000000    0.000000  -96.409323   17.234713   -1.874628  116.549789
  0.033426854    0.000000    0.000000    0.000000    0.000000  -97.030483   22.207012   -1.919631  114.518257
  0.033627254    0.000000    0.000000    0.000000    0.000000  -96.106252   26.061161   -1.961550  112.484306
  0.033827655    0.000000    0.000000    0.000000    0.000000  -96.262158   25.023365   -2.006311  110.438858
  0.034028056    0.000000    0.000000    0.000000    0.000000  -97.318248   28.971924   -2.051888  108.395828
  0.034228457    0.000000    0.000000    0.000000    0.000000  -95.117166   29.716663   -2.097347  106.317039
  0.034428858    0.000000    0.000000    0.000000    0.000000  -96.668492   24.140675   -2.144612  104.234100
  0.034629258    0.000000    0.000000    0.000000    0.000000  -96.411849   27.481535   -2.193099  102.147285
  0.034829659    0.000000    0.000000    0.000000    0.000000  -97.046184   29.318176   -2.240651  100.054031
  0.035030060    0.000000    0.000000    0.000000    0.000000  -96.898461   27.182186   -2.291081   97.963631
  0.035230461    0.000000    0.000000    0.000000    0.000000  -96.557347   34.073193   -2.343792   95.868492
  0.035430862    0.000000    0.000000    0.000000    0.000000  -96.208695   25.698872   -2.397012   93.785332
  0.035631262    0.000000    0.000000    0.000000    0.000000  -96.732299   31.182673   -2.448870   91.693527
  0.035831663    0.000000    0.000000    0.000000    0.000000  -95.864745   22.735985   -2.500900   89.608017
  0.036032064    0.000000    0.000000    0.000000    0.000000  -96.361551   20.885063   -2.556266   87.496452
  0.036232465    0.000000    0.000000    0.000000    0.000000  -96.366078   20.248539   -2.610781   85.429169
  0.036432866    0.000000    0.000000    0.000000    0.000000  -96.731959   24.929705   -2.664034   83.324181
  0.036633266    0.000000    0.000000    0.000000    0.000000  -96.372160   22.524376   -2.718686   81.244308
  0.036833667    0.000000    0.000000    0.000000    0.000000  -96.363765   15.036334   -2.778594   79.154991
  0.037034068    0.000000    0.000000    0.000000    0.000000  -97.234178   20.746071   -2.835338   77.054924
  0.037234469    0.000000    0.000000    0.000000    0.000000  -97.158424   18.461153   -2.892126   74.959663
  0.037434870    0.000000    0.000000    0.000000    0.000000  -97.438585   34.305046   -2.952259   72.852997
  0.037635270    0.000000    0.000000    0.000000    0.000000  -97.185156   23.204222   -3.019622   70.736809
  0.037835671    0.000000    0.000000    0.000000    0.000000  -97.479894   18.399853   -3.097596   68.675644
  0.038036072    0.000000    0.000000    0.000000    0.000000  -96.771762   23.886574   -3.165231   66.692032
  0.038236473    0.000000    0.000000    0.000000    0.000000  -97.690972   22.558584   -3.221060   64.697556
  0.038436874    0.000000    0.000000    0.000000    0.000000  -97.509684   24.491772   -3.274992   62.668148
  0.038637274    0.000000    0.000000    0.000000    0.000000  -97.999395   28.775583   -3.330487   60.628693
  0.038837675    0.000000    0.000000    0.000000    0.000000  -98.272904   29.099983   -3.382984   58.573586
  0.039038076    0.000000    0.000000    0.000000    0.000000  -99.170685   28.085051   -3.433260   56.556713
  0.039238477    0.000000    0.000000    0.000000    0.000000  -98.286522   23.492657   -3.488907   54.483410
  0.039438878    0.000000    0.000000    0.000000    0.000000  -98.309758   27.598803   -3.542285   52.470032
  0.039639278    0.000000    0.000000    0.000000    0.000000  -98.398339   21.190010   -3.595004   50.415649
  0.039839679    0.000000    0.000000    0.000000    0.000000  -99.108565   30.012074   -3.645856   48.346352
  0.040040080    0.000000    0.000000    0.000000    0.000000  -98.166560   35.663799   -3.697042   46.286064
  0.040240481    0.000000    0.000000    0.000000    0.000000  -99.647540   25.210939   -3.748213   44.237743
  0.040440882    0.000000    0.000000    0.000000    0.000000  -97.964152   30.656178   -3.798532   42.198738
  0.040641283    0.000000    0.000000    0.000000    0.000000  -98.289924   27.658789   -3.847200   40.161224
  0.040841683    0.000000    0.000000    0.000000    0.000000  -98.755353   35.109795   -3.897212   38.127499
  0.041042084    0.000000    0.000000    0.000000    0.000000  -97.980330   28.583008   -3.947296   36.112247
  0.041242485    0.000000    0.000000    0.000000    0.000000  -98.171001   30.350636   -3.999403   34.060249
  0.041442886    0.000000    0.000000    0.000000    0.000000  -97.802403   28.558914   -4.046309   32.025997
  0.041643287    0.000000    0.000000    0.000000    0.000000  -97.518833   26.232334   -4.091811   29.972599
  0.041843687    0.000000    0.000000    0.000000    0.000000  -96.504300   31.536579   -4.139019   27.932066
  0.042044088    0.000000    0.000000    0.000000    0.000000  -97.796937   24.104673   -4.184126   25.898817
  0.042244489    0.000000    0.000000    0.000000    0.000000  -97.963721   23.232880   -4.231662   23.883240
  0.042444890    0.000000    0.000000    0.000000    0.000000  -99.020793   27.834887   -4.278090   21.864735
  0.042645291    0.000000    0.000000    0.000000    0.000000  -98.795809   28.016859   -4.322262   19.854322
  0.042845691    0.000000    0.000000    0.000000    0.000000  -99.180656   28.957663   -4.365811   17.844063
  0.043046092    0.000000    0.000000    0.000000    0.000000  -98.869363   28.034924   -4.408874   15.837936
  0.043246493    0.000000    0.000000    0.000000    0.000000  -98.741505   23.930202   -4.452256   13.806945
  0.043446894    0.000000    0.000000    0.000000    0.000000  -98.636747   24.576384   -4.493066   11.823878
  0.043647295    0.000000    0.000000    0.000000    0.000000 -101.087346   25.097179   -4.532240    9.807669
  0.043847695    0.000000    0.000000    0.000000    0.000000  -98.105007   27.571913   -4.576724    7.822148
  0.044048096    0.000000    0.000000    0.000000    0.000000  -99.882411   28.602934   -4.615787    5.851246
  0.044248497    0.000000    0.000000    0.000000    0.000000  -97.961323   15.319730   -4.655891    3.886946
  0.044448898    0.000000    0.000000    0.000000    0.000000  -99.494275   28.860664   -4.694387    1.918482
  0.044649299    0.000000    0.000000    0.000000    0.000000  -99.506608   22.418606   -4.733878   -0.047856
  0.044849699    0.000000    0.000000    0.000000    0.000000  -99.308000   32.925877   -4.773109   -2.004506
  0.045050100    0.000000    0.000000    0.000000    0.000000  -98.714159   37.213955   -4.810618   -3.936472
  0.045250501    0.000000    0.000000    0.000000    0.000000  -99.297754   35.981121   -4.849753   -5.873112
  0.045450902    0.000000    0.000000    0.000000    0.000000  -98.395414   35.080181   -4.887540   -7.799154
  0.045651303    0.000000    0.000000    0.000000    0.000000  -98.627353   34.161739   -4.923624   -9.731922
  0.045851703    0.000000    0.000000    0.000000    0.000000  -99.438447   31.109722   -4.958250  -11.637139
  0.046052104    0.000000    0.000000    0.000000    0.000000  -98.407176   36.517586   -4.992317  -13.543853
  0.046252505    0.000000    0.000000    0.000000    0.000000  -98.473661   39.159172   -5.027323  -15.425002
  0.046452906    0.000000    0.000000    0.000000    0.000000  -98.908098   29.857533   -5.062044  -17.298935
  0.046653307    0.000000    0.000000    0.000000    0.000000  -99.089342   34.425545   -5.098597  -19.192045
  0.046853707    0.000000    0.000000    0.000000    0.000000  -99.630612   23.078268   -5.133446  -21.042051
  0.047054108    0.000000    0.000000    0.000000    0.000000  -99.230823   47.974247   -5.167770  -22.912800
  0.047254509    0.000000    0.000000    0.000000    0.000000  -99.715316   26.222052   -5.205036  -24.764326
  0.047454910    0.000000    0.000000    0.000000    0.000000  -97.550775   35.214157   -5.238216  -26.583176
  0.047655311    0.000000    0.000000    0.000000    0.000000  -98.253519   32.690025   -5.271372  -28.389839
  0.047855711    0.000000    0.000000    0.000000    0.000000  -99.929855   26.640135   -5.305130  -30.179928
  0.048056112    0.000000    0.000000    0.000000    0.000000  -99.352629   29.712070   -5.337832  -31.957830
  0.048256513    0.000000    0.000000    0.000000    0.000000  -99.197248   36.271919   -5.368397  -33.737034
  0.048456914    0.000000    0.000000    0.000000    0.000000  -99.065733   27.749804   -5.399798  -35.503510
  0.048657315    0.000000    0.000000    0.000000    0.000000  -98.254708   21.443245   -5.428153  -37.275650
  0.048857715    0.000000    0.000000    0.000000    0.000000  -98.516604   28.213369   -5.457189  -39.034672
  0.049058116    0.000000    0.000000    0.000000    0.000000  -97.909472   30.066046   -5.484136  -40.780796
  0.049258517    0.000000    0.000000    0.000000    0.000000  -98.222888   25.205599   -5.509411  -42.529613
  0.049458918    0.000000    0.000000    0.000000    0.000000 -101.638566   32.880943   -5.536767  -44.229073
  0.049659319    0.000000    0.000000    0.000000    0.000000  -99.601612   22.382740   -5.563798  -45.936867
  0.049859719    0.000000    0.000000    0.000000    0.000000  -98.621111   32.651901   -5.589159  -47.634964
  0.050060120    0.000000    0.000000    0.000000    0.000000 -100.531505   38.281940   -5.614500  -49.329029
  0.050260521    0.000000    0.000000    0.000000    0.000000  -98.958574   36.518726   -5.637146  -51.003048
  0.050460922    0.000000    0.000000    0.000000    0.000000  -98.051146   37.064281   -5.659092  -52.693497
  0.050661323    0.000000    0.000000    0.000000    0.000000  -98.762800   35.601151   -5.677730  -54.380585
  0.050861723    0.000000    0.000000    0.000000    0.000000  -99.966001   36.347031   -5.695124  -56.016933
  0.051062124    0.000000    0.000000    0.000000    0.000000  -99.468282   37.454105   -5.716621  -57.653522
  0.051262525    0.000000    0.000000    0.000000    0.000000  -98.966064   35.693169   -5.735251  -59.273159
  0.051462926    0.000000    0.000000    0.000000    0.000000 -100.183199   42.817081   -5.755521  -60.888191
  0.051663327    0.000000    0.000000    0.000000    0.000000  -99.998885   38.733486   -5.772142  -62.491814
  0.051863727    0.000000    0.000000    0.000000    0.000000  -98.974288   35.856827   -5.792878  -64.096962
  0.052064128    0.000000    0.000000    0.000000    0.000000  -98.403056   39.215870   -5.801487  -65.670288
  0.052264529    0.000000    0.000000    0.000000    0.000000 -100.205816   35.393219   -5.813773  -67.251198
  0.052464930    0.000000    0.000000    0.000000    0.000000  -99.765225   36.288429   -5.829562  -68.791237
  0.052665331    0.000000    0.000000    0.000000    0.000000  -98.798159   33.437035   -5.843744  -70.338234
  0.052865731    0.000000    0.000000    0.000000    0.000000  -99.881423   36.647877   -5.855968  -71.854164
