! Anritsu VNA Master:                     Model: MS2036C/10/77
! SN:                                  1601066
! /bd0/18may09/b255.ns.m1.s2p
! Existing Calibration Information:
! TYPE:                         Current Settings,       Active Cal Settings
! TIME:             	   05/09/2018 08:42:30 PM,    05/09/2018 08:37:50 PM
! INTERNAL TEMP:    	                   52.8 C,                    53.0 C
! # POINTS:         	                      494,                       494
! START FREQ:       	               20.000 MHz,                20.000 MHz
! STOP FREQ:        	          118.797 594 MHz,           118.797 594 MHz
! SOURCE POWER:     	                     High,                      High
! IFBW:             	                    50 Hz,                     50 Hz
! AVG FACTOR:       	                       1 ,                        1 
! REF PLANE 1:      	                     0 mm,                      0 mm
! REF PLANE 2:      	                     0 mm,                      0 mm
! CAL TYPE:         	                 Full S22,                  Full S22
! CAL METHOD:       	                     SOLT,                      SOLT
! CAL LINE TYPE:    	                     Coax,                      Coax
! DUT PORT 1:       	                K-Conn(M),                 K-Conn(M)
! DUT PORT 2:       	                K-Conn(M),                 K-Conn(M)
! CAL STATUS:       	        OK: Accuracy High,                        --
# GHZ S DB R 50.0
! FREQ.GHZ       S11DB        S11A       S21DB        S21A       S12DB        S12A       S22DB        S22A
  0.020000000    0.000000    0.000000    0.000000    0.000000  -89.511075   31.728073   -0.622326 -125.631798
  0.020200401    0.000000    0.000000    0.000000    0.000000  -89.842441   32.606754   -0.625206 -127.074440
  0.020400802    0.000000    0.000000    0.000000    0.000000  -90.237538   33.393261   -0.628997 -128.545807
  0.020601202    0.000000    0.000000    0.000000    0.000000  -90.409477   32.535824   -0.631999 -130.017670
  0.020801603    0.000000    0.000000    0.000000    0.000000  -91.661218   36.572208   -0.635816 -131.530685
  0.021002004    0.000000    0.000000    0.000000    0.000000  -91.215041   33.488239   -0.637517 -133.037888
  0.021202405    0.000000    0.000000    0.000000    0.000000  -90.858521   35.038223   -0.640080 -134.565216
  0.021402806    0.000000    0.000000    0.000000    0.000000  -91.874432   36.379997   -0.642550 -136.068130
  0.021603206    0.000000    0.000000    0.000000    0.000000  -92.082527   41.608719   -0.644881 -137.581696
  0.021803607    0.000000    0.000000    0.000000    0.000000  -91.528327   38.684437   -0.650203 -139.106308
  0.022004008    0.000000    0.000000    0.000000    0.000000  -91.543538   39.909096   -0.653378 -140.623962
  0.022204409    0.000000    0.000000    0.000000    0.000000  -91.494209   46.160957   -0.660059 -142.159744
  0.022404810    0.000000    0.000000    0.000000    0.000000  -92.245362   39.289173   -0.664963 -143.722717
  0.022605210    0.000000    0.000000    0.000000    0.000000  -91.471905   42.468464   -0.669067 -145.310364
  0.022805611    0.000000    0.000000    0.000000    0.000000  -91.453241   45.581123   -0.672364 -146.881500
  0.023006012    0.000000    0.000000    0.000000    0.000000  -91.902835   44.521187   -0.677286 -148.466324
  0.023206413    0.000000    0.000000    0.000000    0.000000  -91.446196   39.945316   -0.680462 -150.036026
  0.023406814    0.000000    0.000000    0.000000    0.000000  -91.041514   42.701656   -0.685892 -151.604202
  0.023607214    0.000000    0.000000    0.000000    0.000000  -91.308446   40.273937   -0.694404 -153.188583
  0.023807615    0.000000    0.000000    0.000000    0.000000  -91.361096   36.034679   -0.702306 -154.798248
  0.024008016    0.000000    0.000000    0.000000    0.000000  -90.788290   36.476513   -0.709429 -156.417908
  0.024208417    0.000000    0.000000    0.000000    0.000000  -91.631490   38.161243   -0.717103 -158.058289
  0.024408818    0.000000    0.000000    0.000000    0.000000  -90.933958   32.496323   -0.723280 -159.714081
  0.024609218    0.000000    0.000000    0.000000    0.000000  -91.561105   32.740620   -0.730070 -161.365005
  0.024809619    0.000000    0.000000    0.000000    0.000000  -91.264724   33.384834   -0.739134 -163.008224
  0.025010020    0.000000    0.000000    0.000000    0.000000  -91.561197   31.130039   -0.748175 -164.669449
  0.025210421    0.000000    0.000000    0.000000    0.000000  -92.091381   27.275137   -0.759894 -166.340454
  0.025410822    0.000000    0.000000    0.000000    0.000000  -92.121639   32.292431   -0.770747 -168.022110
  0.025611222    0.000000    0.000000    0.000000    0.000000  -93.162085   27.987741   -0.781080 -169.712814
  0.025811623    0.000000    0.000000    0.000000    0.000000  -92.686732   24.136908   -0.792894 -171.415710
  0.026012024    0.000000    0.000000    0.000000    0.000000  -92.801248   28.150177   -0.802768 -173.142487
  0.026212425    0.000000    0.000000    0.000000    0.000000  -93.147990   26.226330   -0.815030 -174.866287
  0.026412826    0.000000    0.000000    0.000000    0.000000  -93.581828   21.328291   -0.828418 -176.593872
  0.026613226    0.000000    0.000000    0.000000    0.000000  -93.677989   22.288197   -0.843272 -178.334152
  0.026813627    0.000000    0.000000    0.000000    0.000000  -93.931460   28.341484   -0.857925  179.913376
  0.027014028    0.000000    0.000000    0.000000    0.000000  -93.628415   29.733929   -0.874211  178.158554
  0.027214429    0.000000    0.000000    0.000000    0.000000  -94.357431   27.784935   -0.890384  176.395203
  0.027414830    0.000000    0.000000    0.000000    0.000000  -94.084499   25.370356   -0.906362  174.621140
  0.027615230    0.000000    0.000000    0.000000    0.000000  -94.493428   31.282379   -0.922823  172.830658
  0.027815631    0.000000    0.000000    0.000000    0.000000  -95.261736   32.442234   -0.942328  171.029678
  0.028016032    0.000000    0.000000    0.000000    0.000000  -94.807908   32.130569   -0.959578  169.230743
  0.028216433    0.000000    0.000000    0.000000    0.000000  -95.062599   31.270952   -0.981759  167.404022
  0.028416834    0.000000    0.000000    0.000000    0.000000  -94.677209   33.229420   -1.002625  165.582474
  0.028617234    0.000000    0.000000    0.000000    0.000000  -95.255627   29.543045   -1.023376  163.756287
  0.028817635    0.000000    0.000000    0.000000    0.000000  -93.546228   31.214565   -1.045987  161.929626
  0.029018036    0.000000    0.000000    0.000000    0.000000  -94.537538   30.600235   -1.070199  160.080200
  0.029218437    0.000000    0.000000    0.000000    0.000000  -94.224397   31.132193   -1.096130  158.229614
  0.029418838    0.000000    0.000000    0.000000    0.000000  -93.715293   31.181467   -1.121715  156.364944
  0.029619238    0.000000    0.000000    0.000000    0.000000  -93.584427   29.450163   -1.149511  154.485596
  0.029819639    0.000000    0.000000    0.000000    0.000000  -94.029001   30.188356   -1.176440  152.603546
  0.030020040    0.000000    0.000000    0.000000    0.000000  -93.607777   30.546873   -1.204033  150.704712
  0.030220441    0.000000    0.000000    0.000000    0.000000  -93.611379   23.998535   -1.233151  148.817444
  0.030420842    0.000000    0.000000    0.000000    0.000000  -93.936016   25.885265   -1.262725  146.923615
  0.030621242    0.000000    0.000000    0.000000    0.000000  -94.172674   26.747168   -1.294616  145.028412
  0.030821643    0.000000    0.000000    0.000000    0.000000  -94.479292   18.375530   -1.327211  143.126038
  0.031022044    0.000000    0.000000    0.000000    0.000000  -94.079956   22.569649   -1.360405  141.205673
  0.031222445    0.000000    0.000000    0.000000    0.000000  -93.807491   18.093765   -1.386551  139.315582
  0.031422846    0.000000    0.000000    0.000000    0.000000  -94.356368   26.792858   -1.421738  137.362106
  0.031623246    0.000000    0.000000    0.000000    0.000000  -94.554559   21.009949   -1.455338  135.410172
  0.031823647    0.000000    0.000000    0.000000    0.000000  -94.940564   19.862942   -1.492212  133.469635
  0.032024048    0.000000    0.000000    0.000000    0.000000  -95.679483   20.206371   -1.528438  131.508865
  0.032224449    0.000000    0.000000    0.000000    0.000000  -95.047897   17.919498   -1.565491  129.556305
  0.032424850    0.000000    0.000000    0.000000    0.000000  -95.528007   17.517019   -1.605694  127.595474
  0.032625250    0.000000    0.000000    0.000000    0.000000  -95.272541   16.553745   -1.642286  125.615715
  0.032825651    0.000000    0.000000    0.000000    0.000000  -95.689327   27.858181   -1.679971  123.616890
  0.033026052    0.000000    0.000000    0.000000    0.000000  -95.849591   11.359094   -1.718501  121.599609
  0.033226453    0.000000    0.000000    0.000000    0.000000  -96.170840   19.625359   -1.755688  119.594711
  0.033426854    0.000000    0.000000    0.000000    0.000000  -95.749333   22.952122   -1.795406  117.591393
  0.033627254    0.000000    0.000000    0.000000    0.000000  -96.305732   23.726496   -1.833970  115.584885
  0.033827655    0.000000    0.000000    0.000000    0.000000  -96.457527   20.824209   -1.876005  113.564865
  0.034028056    0.000000    0.000000    0.000000    0.000000  -96.610785   22.119135   -1.917702  111.548637
  0.034228457    0.000000    0.000000    0.000000    0.000000  -97.623535   26.358105   -1.959915  109.500938
  0.034428858    0.000000    0.000000    0.000000    0.000000  -95.572088   25.552698   -2.002957  107.458557
  0.034629258    0.000000    0.000000    0.000000    0.000000  -96.846634   23.815548   -2.050110  105.393959
  0.034829659    0.000000    0.000000    0.000000    0.000000  -96.078980   25.545963   -2.093812  103.320679
  0.035030060    0.000000    0.000000    0.000000    0.000000  -96.780849   25.980167   -2.142331  101.266289
  0.035230461    0.000000    0.000000    0.000000    0.000000  -96.711049   28.388193   -2.188992   99.194199
  0.035430862    0.000000    0.000000    0.000000    0.000000  -94.718614   24.351055   -2.236774   97.118805
  0.035631262    0.000000    0.000000    0.000000    0.000000  -97.034632   30.743092   -2.286304   95.044922
  0.035831663    0.000000    0.000000    0.000000    0.000000  -95.777916   32.073357   -2.338495   92.968506
  0.036032064    0.000000    0.000000    0.000000    0.000000  -97.427554   28.388796   -2.390416   90.882088
  0.036232465    0.000000    0.000000    0.000000    0.000000  -96.581859   14.567668   -2.441040   88.792046
  0.036432866    0.000000    0.000000    0.000000    0.000000  -95.957871   20.924509   -2.494015   86.705696
  0.036633266    0.000000    0.000000    0.000000    0.000000  -96.709375   20.707703   -2.546092   84.613907
  0.036833667    0.000000    0.000000    0.000000    0.000000  -96.392893   33.132992   -2.599103   82.514130
  0.037034068    0.000000    0.000000    0.000000    0.000000  -96.000315   21.321634   -2.659127   80.416229
  0.037234469    0.000000    0.000000    0.000000    0.000000  -96.887097   23.773586   -2.713105   78.329544
  0.037434870    0.000000    0.000000    0.000000    0.000000  -96.624480   25.278406   -2.770753   76.238556
  0.037635270    0.000000    0.000000    0.000000    0.000000  -96.828276   21.650501   -2.827973   74.155746
  0.037835671    0.000000    0.000000    0.000000    0.000000  -98.291016   19.935728   -2.889376   72.049850
  0.038036072    0.000000    0.000000    0.000000    0.000000  -97.320510   24.132982   -2.946076   69.960930
  0.038236473    0.000000    0.000000    0.000000    0.000000  -97.742890   26.702698   -3.006451   67.858261
  0.038436874    0.000000    0.000000    0.000000    0.000000  -98.284145   27.908756   -3.065664   65.766525
  0.038637274    0.000000    0.000000    0.000000    0.000000  -98.703946   25.385149   -3.124966   63.666645
  0.038837675    0.000000    0.000000    0.000000    0.000000  -97.409256   26.972321   -3.184171   61.577045
  0.039038076    0.000000    0.000000    0.000000    0.000000  -98.258401   23.968277   -3.241227   59.516712
  0.039238477    0.000000    0.000000    0.000000    0.000000  -97.617149   32.245701   -3.298046   57.439713
  0.039438878    0.000000    0.000000    0.000000    0.000000  -97.662376   28.665325   -3.356305   55.390636
  0.039639278    0.000000    0.000000    0.000000    0.000000  -98.603357   37.585403   -3.414040   53.323673
  0.039839679    0.000000    0.000000    0.000000    0.000000  -97.301377   23.992876   -3.469908   51.224903
  0.040040080    0.000000    0.000000    0.000000    0.000000  -97.185871   31.781000   -3.528885   49.164291
  0.040240481    0.000000    0.000000    0.000000    0.000000  -96.523273   35.534973   -3.584724   47.087887
  0.040440882    0.000000    0.000000    0.000000    0.000000  -97.309420   22.861246   -3.638772   45.020329
  0.040641283    0.000000    0.000000    0.000000    0.000000  -97.133743   31.259789   -3.692750   42.973293
  0.040841683    0.000000    0.000000    0.000000    0.000000  -98.119593   26.939177   -3.749167   40.928085
  0.041042084    0.000000    0.000000    0.000000    0.000000  -97.932638   21.047653   -3.803562   38.910179
  0.041242485    0.000000    0.000000    0.000000    0.000000  -97.501152   29.234856   -3.861435   36.850220
  0.041442886    0.000000    0.000000    0.000000    0.000000  -98.193746   29.865829   -3.913691   34.798912
  0.041643287    0.000000    0.000000    0.000000    0.000000  -98.525987   29.241655   -3.967349   32.743191
  0.041843687    0.000000    0.000000    0.000000    0.000000  -96.862664   22.609571   -4.020857   30.695532
  0.042044088    0.000000    0.000000    0.000000    0.000000  -97.725386   23.813684   -4.072638   28.641747
  0.042244489    0.000000    0.000000    0.000000    0.000000  -97.311064   25.846893   -4.122417   26.618841
  0.042444890    0.000000    0.000000    0.000000    0.000000  -97.668944   24.631594   -4.174740   24.602936
  0.042645291    0.000000    0.000000    0.000000    0.000000  -97.986828   28.822540   -4.228468   22.592505
  0.042845691    0.000000    0.000000    0.000000    0.000000 -100.121244   23.298697   -4.280140   20.581028
  0.043046092    0.000000    0.000000    0.000000    0.000000  -98.700405   33.392715   -4.329312   18.553087
  0.043246493    0.000000    0.000000    0.000000    0.000000  -98.475248   36.910027   -4.378959   16.549450
  0.043446894    0.000000    0.000000    0.000000    0.000000  -99.441348   32.485935   -4.426487   14.536698
  0.043647295    0.000000    0.000000    0.000000    0.000000  -99.247582   31.271078   -4.472913   12.550824
  0.043847695    0.000000    0.000000    0.000000    0.000000  -99.859539   37.724834   -4.522859   10.566163
  0.044048096    0.000000    0.000000    0.000000    0.000000 -100.516163   24.204744   -4.568537    8.584275
  0.044248497    0.000000    0.000000    0.000000    0.000000  -98.762188   34.501717   -4.616565    6.611711
  0.044448898    0.000000    0.000000    0.000000    0.000000  -98.984069   31.094593   -4.661402    4.657496
  0.044649299    0.000000    0.000000    0.000000    0.000000  -98.873734   32.416031   -4.708273    2.700926
  0.044849699    0.000000    0.000000    0.000000    0.000000  -99.373842   33.337841   -4.752420    0.773567
  0.045050100    0.000000    0.000000    0.000000    0.000000  -98.785091   33.487984   -4.798307   -1.160525
  0.045250501    0.000000    0.000000    0.000000    0.000000  -98.523668   28.116091   -4.841944   -3.116413
  0.045450902    0.000000    0.000000    0.000000    0.000000  -98.926406   34.593822   -4.882607   -5.035824
  0.045651303    0.000000    0.000000    0.000000    0.000000  -98.979370   34.991058   -4.923334   -6.945949
  0.045851703    0.000000    0.000000    0.000000    0.000000  -99.303793   23.827421   -4.964902   -8.852097
  0.046052104    0.000000    0.000000    0.000000    0.000000  -98.877925   27.551083   -5.006156  -10.746175
  0.046252505    0.000000    0.000000    0.000000    0.000000  -99.488841   19.623449   -5.044718  -12.606189
  0.046452906    0.000000    0.000000    0.000000    0.000000  -99.286798   34.989460   -5.084792  -14.488288
  0.046653307    0.000000    0.000000    0.000000    0.000000  -98.287887   33.565201   -5.124168  -16.364050
  0.046853707    0.000000    0.000000    0.000000    0.000000  -98.833101   33.837601   -5.163794  -18.206038
  0.047054108    0.000000    0.000000    0.000000    0.000000  -98.581040   18.229383   -5.198659  -20.077333
  0.047254509    0.000000    0.000000    0.000000    0.000000  -98.102074   35.680939   -5.235597  -21.930161
  0.047454910    0.000000    0.000000    0.000000    0.000000 -100.607282   25.830791   -5.271353  -23.758604
  0.047655311    0.000000    0.000000    0.000000    0.000000  -98.868540   38.417419   -5.305672  -25.576540
  0.047855711    0.000000    0.000000    0.000000    0.000000 -100.531344   23.077559   -5.338866  -27.390270
  0.048056112    0.000000    0.000000    0.000000    0.000000  -98.857830   19.105669   -5.369984  -29.180746
  0.048256513    0.000000    0.000000    0.000000    0.000000  -98.938187   24.203054   -5.406011  -30.975658
  0.048456914    0.000000    0.000000    0.000000    0.000000  -99.860649   39.775486   -5.436143  -32.750626
  0.048657315    0.000000    0.000000    0.000000    0.000000  -99.393163   25.560148   -5.462981  -34.541798
  0.048857715    0.000000    0.000000    0.000000    0.000000  -98.593335   30.247793   -5.488017  -36.333378
  0.049058116    0.000000    0.000000    0.000000    0.000000  -99.587938   34.230629   -5.517972  -38.102112
  0.049258517    0.000000    0.000000    0.000000    0.000000  -99.783024   36.952511   -5.538831  -39.852875
  0.049458918    0.000000    0.000000    0.000000    0.000000  -97.943263   25.833439   -5.566868  -41.606533
  0.049659319    0.000000    0.000000    0.000000    0.000000 -100.636808   24.069630   -5.590678  -43.321419
  0.049859719    0.000000    0.000000    0.000000    0.000000  -99.837844   38.433453   -5.615326  -45.058235
  0.050060120    0.000000    0.000000    0.000000    0.000000 -101.139633   28.210014   -5.637733  -46.742237
  0.050260521    0.000000    0.000000    0.000000    0.000000  -99.658764   30.144497   -5.659981  -48.473694
  0.050460922    0.000000    0.000000    0.000000    0.000000 -100.979268   32.201408   -5.678292  -50.174892
  0.050661323    0.000000    0.000000    0.000000    0.000000 -100.088599   26.163607   -5.697924  -51.870216
  0.050861723    0.000000    0.000000    0.000000    0.000000  -98.792552   31.195292   -5.713553  -53.535759
  0.051062124    0.000000    0.000000    0.000000    0.000000  -99.004383   24.803570   -5.735902  -55.212818
  0.051262525    0.000000    0.000000    0.000000    0.000000  -99.562953   41.610077   -5.755917  -56.863861
  0.051462926    0.000000    0.000000    0.000000    0.000000  -99.185477   38.742779   -5.773121  -58.509907
  0.051663327    0.000000    0.000000    0.000000    0.000000  -99.846889   33.085636   -5.787699  -60.122189
  0.051863727    0.000000    0.000000    0.000000    0.000000  -99.596126   35.415806   -5.807852  -61.759781
  0.052064128    0.000000    0.000000    0.000000    0.000000  -98.599006   28.917030   -5.821499  -63.360619
  0.052264529    0.000000    0.000000    0.000000    0.000000  -99.265422   31.077272   -5.835026  -64.969841
  0.052464930    0.000000    0.000000    0.000000    0.000000  -98.756853   31.079416   -5.847529  -66.581795
  0.052665331    0.000000    0.000000    0.000000    0.000000  -99.722786   37.554745   -5.862384  -68.154686
  0.052865731    0.000000    0.000000    0.000000    0.000000  -99.481095   26.425392   -5.876321  -69.700638
