! Anritsu VNA Master:                     Model: MS2036C/10/77
! SN:                                  1601066
! /bd0/18may09/b255.ns.m3.s2p
! Existing Calibration Information:
! TYPE:                         Current Settings,       Active Cal Settings
! TIME:             	   05/09/2018 08:47:24 PM,    05/09/2018 08:37:50 PM
! INTERNAL TEMP:    	                   52.3 C,                    53.0 C
! # POINTS:         	                      494,                       494
! START FREQ:       	               20.000 MHz,                20.000 MHz
! STOP FREQ:        	          118.797 594 MHz,           118.797 594 MHz
! SOURCE POWER:     	                     High,                      High
! IFBW:             	                    50 Hz,                     50 Hz
! AVG FACTOR:       	                       1 ,                        1 
! REF PLANE 1:      	                     0 mm,                      0 mm
! REF PLANE 2:      	                     0 mm,                      0 mm
! CAL TYPE:         	                 Full S22,                  Full S22
! CAL METHOD:       	                     SOLT,                      SOLT
! CAL LINE TYPE:    	                     Coax,                      Coax
! DUT PORT 1:       	                K-Conn(M),                 K-Conn(M)
! DUT PORT 2:       	                K-Conn(M),                 K-Conn(M)
! CAL STATUS:       	        OK: Accuracy High,                        --
# GHZ S DB R 50.0
! FREQ.GHZ       S11DB        S11A       S21DB        S21A       S12DB        S12A       S22DB        S22A
  0.020000000    0.000000    0.000000    0.000000    0.000000  -89.742338   36.039917   -0.617744 -125.701447
  0.020200401    0.000000    0.000000    0.000000    0.000000  -89.667240   32.071869   -0.620799 -127.148163
  0.020400802    0.000000    0.000000    0.000000    0.000000  -90.386745   34.249783   -0.624350 -128.613358
  0.020601202    0.000000    0.000000    0.000000    0.000000  -90.383811   35.291935   -0.627295 -130.087036
  0.020801603    0.000000    0.000000    0.000000    0.000000  -90.834615   37.688187   -0.630820 -131.598419
  0.021002004    0.000000    0.000000    0.000000    0.000000  -90.735480   35.111385   -0.632463 -133.115326
  0.021202405    0.000000    0.000000    0.000000    0.000000  -91.517023   37.550728   -0.635441 -134.642349
  0.021402806    0.000000    0.000000    0.000000    0.000000  -91.439919   38.038651   -0.638208 -136.141907
  0.021603206    0.000000    0.000000    0.000000    0.000000  -92.031148   40.259586   -0.639517 -137.658371
  0.021803607    0.000000    0.000000    0.000000    0.000000  -92.076099   36.170815   -0.643408 -139.186111
  0.022004008    0.000000    0.000000    0.000000    0.000000  -91.867241   46.715446   -0.648167 -140.701950
  0.022204409    0.000000    0.000000    0.000000    0.000000  -91.974715   42.556385   -0.655885 -142.245865
  0.022404810    0.000000    0.000000    0.000000    0.000000  -92.020945   42.627323   -0.658867 -143.805084
  0.022605210    0.000000    0.000000    0.000000    0.000000  -91.686620   43.965839   -0.664396 -145.388748
  0.022805611    0.000000    0.000000    0.000000    0.000000  -91.092528   45.786186   -0.668981 -146.961990
  0.023006012    0.000000    0.000000    0.000000    0.000000  -91.336423   46.053818   -0.672769 -148.538834
  0.023206413    0.000000    0.000000    0.000000    0.000000  -91.780913   38.785934   -0.675987 -150.110260
  0.023406814    0.000000    0.000000    0.000000    0.000000  -91.178752   40.086739   -0.680830 -151.692947
  0.023607214    0.000000    0.000000    0.000000    0.000000  -91.454041   43.340782   -0.689025 -153.268814
  0.023807615    0.000000    0.000000    0.000000    0.000000  -91.258926   38.947918   -0.697495 -154.875885
  0.024008016    0.000000    0.000000    0.000000    0.000000  -91.005471   36.133858   -0.705565 -156.504608
  0.024208417    0.000000    0.000000    0.000000    0.000000  -91.222542   36.168293   -0.712353 -158.142273
  0.024408818    0.000000    0.000000    0.000000    0.000000  -91.323489   33.251083   -0.717834 -159.802719
  0.024609218    0.000000    0.000000    0.000000    0.000000  -91.138301   31.469017   -0.725169 -161.444382
  0.024809619    0.000000    0.000000    0.000000    0.000000  -91.444836   31.165258   -0.734637 -163.098969
  0.025010020    0.000000    0.000000    0.000000    0.000000  -91.368591   29.981815   -0.743674 -164.753113
  0.025210421    0.000000    0.000000    0.000000    0.000000  -91.991655   28.603493   -0.755214 -166.430206
  0.025410822    0.000000    0.000000    0.000000    0.000000  -92.587697   25.373596   -0.764895 -168.105820
  0.025611222    0.000000    0.000000    0.000000    0.000000  -92.347697   29.802246   -0.776167 -169.796371
  0.025811623    0.000000    0.000000    0.000000    0.000000  -92.587469   28.609915   -0.788103 -171.502762
  0.026012024    0.000000    0.000000    0.000000    0.000000  -92.573694   27.884514   -0.797978 -173.216370
  0.026212425    0.000000    0.000000    0.000000    0.000000  -93.184935   22.650980   -0.810181 -174.937546
  0.026412826    0.000000    0.000000    0.000000    0.000000  -93.478372   26.323662   -0.822973 -176.674210
  0.026613226    0.000000    0.000000    0.000000    0.000000  -93.494237   26.561222   -0.838760 -178.413437
  0.026813627    0.000000    0.000000    0.000000    0.000000  -94.316730   28.554388   -0.851776  179.839874
  0.027014028    0.000000    0.000000    0.000000    0.000000  -94.634228   25.961964   -0.867385  178.078537
  0.027214429    0.000000    0.000000    0.000000    0.000000  -94.393136   27.629896   -0.884084  176.322632
  0.027414830    0.000000    0.000000    0.000000    0.000000  -94.602892   33.029819   -0.899741  174.553146
  0.027615230    0.000000    0.000000    0.000000    0.000000  -94.742701   28.824675   -0.916082  172.769379
  0.027815631    0.000000    0.000000    0.000000    0.000000  -94.695220   31.947865   -0.936135  170.968872
  0.028016032    0.000000    0.000000    0.000000    0.000000  -94.332810   27.462456   -0.955407  169.165710
  0.028216433    0.000000    0.000000    0.000000    0.000000  -94.378587   35.861225   -0.976381  167.346298
  0.028416834    0.000000    0.000000    0.000000    0.000000  -94.664156   35.070057   -0.996370  165.530502
  0.028617234    0.000000    0.000000    0.000000    0.000000  -94.018234   28.660820   -1.017797  163.697617
  0.028817635    0.000000    0.000000    0.000000    0.000000  -94.998318   31.764484   -1.040906  161.867630
  0.029018036    0.000000    0.000000    0.000000    0.000000  -94.575314   32.509598   -1.064211  160.030228
  0.029218437    0.000000    0.000000    0.000000    0.000000  -93.972001   34.017303   -1.089783  158.172531
  0.029418838    0.000000    0.000000    0.000000    0.000000  -93.684314   31.443220   -1.116601  156.310852
  0.029619238    0.000000    0.000000    0.000000    0.000000  -94.485987   30.489681   -1.143425  154.431030
  0.029819639    0.000000    0.000000    0.000000    0.000000  -93.804170   30.535751   -1.169928  152.549820
  0.030020040    0.000000    0.000000    0.000000    0.000000  -94.460306   26.392836   -1.199285  150.651901
  0.030220441    0.000000    0.000000    0.000000    0.000000  -94.148754   24.952690   -1.227729  148.757919
  0.030420842    0.000000    0.000000    0.000000    0.000000  -94.233504   24.982964   -1.257799  146.866974
  0.030621242    0.000000    0.000000    0.000000    0.000000  -94.373089   21.564167   -1.289200  144.973557
  0.030821643    0.000000    0.000000    0.000000    0.000000  -94.507600   26.465034   -1.322042  143.060852
  0.031022044    0.000000    0.000000    0.000000    0.000000  -94.061135   25.518364   -1.354932  141.139023
  0.031222445    0.000000    0.000000    0.000000    0.000000  -94.527601   22.480339   -1.379845  139.244720
  0.031422846    0.000000    0.000000    0.000000    0.000000  -95.040405   21.410063   -1.416194  137.295166
  0.031623246    0.000000    0.000000    0.000000    0.000000  -95.633907   18.821047   -1.448618  135.342499
  0.031823647    0.000000    0.000000    0.000000    0.000000  -94.366936   14.945909   -1.485323  133.396271
  0.032024048    0.000000    0.000000    0.000000    0.000000  -95.195529   15.942674   -1.521619  131.441574
  0.032224449    0.000000    0.000000    0.000000    0.000000  -95.784261   18.426531   -1.560058  129.479889
  0.032424850    0.000000    0.000000    0.000000    0.000000  -95.607951   18.488636   -1.598262  127.519180
  0.032625250    0.000000    0.000000    0.000000    0.000000  -95.426948   16.643034   -1.634736  125.544533
  0.032825651    0.000000    0.000000    0.000000    0.000000  -95.704306   17.793100   -1.672768  123.537300
  0.033026052    0.000000    0.000000    0.000000    0.000000  -96.292159   18.861599   -1.711963  121.519379
  0.033226453    0.000000    0.000000    0.000000    0.000000  -95.670462   26.905220   -1.746771  119.513573
  0.033426854    0.000000    0.000000    0.000000    0.000000  -96.276615   22.074293   -1.789060  117.514496
  0.033627254    0.000000    0.000000    0.000000    0.000000  -96.482732   27.770927   -1.827294  115.503632
  0.033827655    0.000000    0.000000    0.000000    0.000000  -96.251441   23.631323   -1.868364  113.484940
  0.034028056    0.000000    0.000000    0.000000    0.000000  -97.396002   22.961794   -1.909083  111.468895
  0.034228457    0.000000    0.000000    0.000000    0.000000  -96.540569   20.564907   -1.951907  109.417114
  0.034428858    0.000000    0.000000    0.000000    0.000000  -96.981497   31.110085   -1.995657  107.370361
  0.034629258    0.000000    0.000000    0.000000    0.000000  -96.044602   35.509228   -2.043494  105.310234
  0.034829659    0.000000    0.000000    0.000000    0.000000  -96.176063   26.252077   -2.085162  103.234062
  0.035030060    0.000000    0.000000    0.000000    0.000000  -97.185380   32.568993   -2.134802  101.172752
  0.035230461    0.000000    0.000000    0.000000    0.000000  -95.665543   25.353195   -2.181969   99.112991
  0.035430862    0.000000    0.000000    0.000000    0.000000  -96.310797   23.148434   -2.230131   97.027328
  0.035631262    0.000000    0.000000    0.000000    0.000000  -96.750829   19.713394   -2.279150   94.948212
  0.035831663    0.000000    0.000000    0.000000    0.000000  -96.078672   27.173655   -2.331401   92.867516
  0.036032064    0.000000    0.000000    0.000000    0.000000  -95.697550   25.669769   -2.382369   90.777031
  0.036232465    0.000000    0.000000    0.000000    0.000000  -96.379515   20.138725   -2.432938   88.683548
  0.036432866    0.000000    0.000000    0.000000    0.000000  -95.995617   26.346643   -2.486101   86.588341
  0.036633266    0.000000    0.000000    0.000000    0.000000  -95.976557   23.277521   -2.538272   84.490356
  0.036833667    0.000000    0.000000    0.000000    0.000000  -96.292570   25.580627   -2.591453   82.398483
  0.037034068    0.000000    0.000000    0.000000    0.000000  -96.117351   25.713179   -2.651625   80.289886
  0.037234469    0.000000    0.000000    0.000000    0.000000  -97.035349   20.265078   -2.704867   78.200699
  0.037434870    0.000000    0.000000    0.000000    0.000000  -97.130965   23.846294   -2.761101   76.122543
  0.037635270    0.000000    0.000000    0.000000    0.000000  -97.883001   16.106827   -2.818091   74.034058
  0.037835671    0.000000    0.000000    0.000000    0.000000  -97.168060   23.353220   -2.879427   71.917000
  0.038036072    0.000000    0.000000    0.000000    0.000000  -98.306506   17.557730   -2.936337   69.830788
  0.038236473    0.000000    0.000000    0.000000    0.000000  -97.279736   28.825750   -2.996668   67.728897
  0.038436874    0.000000    0.000000    0.000000    0.000000  -97.141586   28.417042   -3.054833   65.635422
  0.038637274    0.000000    0.000000    0.000000    0.000000  -97.686894   21.960089   -3.115017   63.547146
  0.038837675    0.000000    0.000000    0.000000    0.000000  -98.772642   25.207907   -3.173116   61.450436
  0.039038076    0.000000    0.000000    0.000000    0.000000  -97.068757   31.325071   -3.230349   59.400986
  0.039238477    0.000000    0.000000    0.000000    0.000000  -96.506576   23.642742   -3.286288   57.336208
  0.039438878    0.000000    0.000000    0.000000    0.000000  -98.228442   29.205547   -3.344472   55.271992
  0.039639278    0.000000    0.000000    0.000000    0.000000  -97.229237   26.399212   -3.402099   53.197865
  0.039839679    0.000000    0.000000    0.000000    0.000000  -96.901370   27.477812   -3.457670   51.116840
  0.040040080    0.000000    0.000000    0.000000    0.000000  -97.059302   34.015244   -3.517573   49.051075
  0.040240481    0.000000    0.000000    0.000000    0.000000  -98.366716   24.495924   -3.572521   46.991798
  0.040440882    0.000000    0.000000    0.000000    0.000000  -98.366864   32.529598   -3.625878   44.916046
  0.040641283    0.000000    0.000000    0.000000    0.000000  -98.035576   30.969713   -3.681494   42.872421
  0.040841683    0.000000    0.000000    0.000000    0.000000  -97.832177   21.888615   -3.736912   40.821163
  0.041042084    0.000000    0.000000    0.000000    0.000000  -97.780816   30.620247   -3.792715   38.792507
  0.041242485    0.000000    0.000000    0.000000    0.000000  -98.646027   29.972885   -3.850813   36.753628
  0.041442886    0.000000    0.000000    0.000000    0.000000  -97.273960   17.821978   -3.903815   34.691181
  0.041643287    0.000000    0.000000    0.000000    0.000000  -98.543593   29.030323   -3.957145   32.624916
  0.041843687    0.000000    0.000000    0.000000    0.000000  -97.136145   29.531805   -4.009960   30.572508
  0.042044088    0.000000    0.000000    0.000000    0.000000  -98.146028   23.871307   -4.062625   28.529047
  0.042244489    0.000000    0.000000    0.000000    0.000000  -97.113346   20.104563   -4.113002   26.490255
  0.042444890    0.000000    0.000000    0.000000    0.000000  -98.362651   21.675184   -4.166500   24.482521
  0.042645291    0.000000    0.000000    0.000000    0.000000  -98.694077   31.484440   -4.218596   22.464016
  0.042845691    0.000000    0.000000    0.000000    0.000000  -99.384211   22.701784   -4.271402   20.455864
  0.043046092    0.000000    0.000000    0.000000    0.000000  -99.260045   25.910286   -4.319990   18.434114
  0.043246493    0.000000    0.000000    0.000000    0.000000  -99.407248   20.846399   -4.370609   16.421515
  0.043446894    0.000000    0.000000    0.000000    0.000000 -100.463943   24.488096   -4.417569   14.402590
  0.043647295    0.000000    0.000000    0.000000    0.000000 -100.460587   23.330769   -4.463418   12.410733
  0.043847695    0.000000    0.000000    0.000000    0.000000  -99.582438   29.618313   -4.513095   10.425914
  0.044048096    0.000000    0.000000    0.000000    0.000000  -99.036738   34.892262   -4.558771    8.455739
  0.044248497    0.000000    0.000000    0.000000    0.000000  -98.747973   33.523640   -4.605448    6.466918
  0.044448898    0.000000    0.000000    0.000000    0.000000  -98.863996   31.688223   -4.651493    4.521939
  0.044649299    0.000000    0.000000    0.000000    0.000000  -97.856233   33.230652   -4.697392    2.562022
  0.044849699    0.000000    0.000000    0.000000    0.000000  -99.200229   30.037075   -4.743104    0.626729
  0.045050100    0.000000    0.000000    0.000000    0.000000  -99.823906   34.185673   -4.789974   -1.292303
  0.045250501    0.000000    0.000000    0.000000    0.000000  -99.539582   28.090046   -4.834163   -3.252199
  0.045450902    0.000000    0.000000    0.000000    0.000000  -98.752997   35.307030   -4.875289   -5.163030
  0.045651303    0.000000    0.000000    0.000000    0.000000  -99.111528   33.245213   -4.916574   -7.089249
  0.045851703    0.000000    0.000000    0.000000    0.000000  -97.981377   29.909176   -4.958591   -8.983219
  0.046052104    0.000000    0.000000    0.000000    0.000000  -99.678050   20.971888   -5.000277  -10.863500
  0.046252505    0.000000    0.000000    0.000000    0.000000  -98.094966   33.292240   -5.040217  -12.742866
  0.046452906    0.000000    0.000000    0.000000    0.000000  -98.620921   36.514984   -5.079964  -14.617105
  0.046653307    0.000000    0.000000    0.000000    0.000000  -99.287954   28.628675   -5.119464  -16.494513
  0.046853707    0.000000    0.000000    0.000000    0.000000  -98.006961   32.228256   -5.162016  -18.350750
  0.047054108    0.000000    0.000000    0.000000    0.000000  -99.485020   36.567955   -5.198315  -20.218515
  0.047254509    0.000000    0.000000    0.000000    0.000000  -98.070152   28.667397   -5.234686  -22.076094
  0.047454910    0.000000    0.000000    0.000000    0.000000  -99.785000   40.270367   -5.272612  -23.909157
  0.047655311    0.000000    0.000000    0.000000    0.000000  -99.090611   40.741367   -5.307131  -25.740057
  0.047855711    0.000000    0.000000    0.000000    0.000000 -100.181398   26.043486   -5.338477  -27.560289
  0.048056112    0.000000    0.000000    0.000000    0.000000  -98.164453   28.330887   -5.371790  -29.360882
  0.048256513    0.000000    0.000000    0.000000    0.000000 -100.122505   26.991430   -5.406672  -31.147417
  0.048456914    0.000000    0.000000    0.000000    0.000000  -98.648004   31.492182   -5.437557  -32.943989
  0.048657315    0.000000    0.000000    0.000000    0.000000  -98.962519   39.353817   -5.464601  -34.743568
  0.048857715    0.000000    0.000000    0.000000    0.000000 -100.252364   28.265709   -5.490032  -36.544033
  0.049058116    0.000000    0.000000    0.000000    0.000000  -99.245542   33.263527   -5.517669  -38.321445
  0.049258517    0.000000    0.000000    0.000000    0.000000  -98.764245   34.693565   -5.539741  -40.084373
  0.049458918    0.000000    0.000000    0.000000    0.000000  -99.084439   37.639572   -5.569006  -41.846321
  0.049659319    0.000000    0.000000    0.000000    0.000000  -99.012602   29.823072   -5.592515  -43.559872
  0.049859719    0.000000    0.000000    0.000000    0.000000  -98.387725   44.426785   -5.615629  -45.305405
  0.050060120    0.000000    0.000000    0.000000    0.000000  -98.779607   28.263165   -5.639165  -46.994839
  0.050260521    0.000000    0.000000    0.000000    0.000000  -99.495401   31.906515   -5.660207  -48.739231
  0.050460922    0.000000    0.000000    0.000000    0.000000  -99.936732   31.764462   -5.678336  -50.442085
  0.050661323    0.000000    0.000000    0.000000    0.000000  -98.577614   42.161503   -5.698540  -52.141792
  0.050861723    0.000000    0.000000    0.000000    0.000000 -100.411720   41.557701   -5.711434  -53.806873
  0.051062124    0.000000    0.000000    0.000000    0.000000  -99.245279   34.895859   -5.735339  -55.468163
  0.051262525    0.000000    0.000000    0.000000    0.000000  -98.638949   30.319681   -5.755161  -57.116940
  0.051462926    0.000000    0.000000    0.000000    0.000000  -98.261104   35.794029   -5.770479  -58.778984
  0.051663327    0.000000    0.000000    0.000000    0.000000  -99.643084   32.328949   -5.787268  -60.404404
  0.051863727    0.000000    0.000000    0.000000    0.000000  -98.102642   41.722946   -5.805798  -62.023445
  0.052064128    0.000000    0.000000    0.000000    0.000000  -98.089157   21.036636   -5.819414  -63.630138
  0.052264529    0.000000    0.000000    0.000000    0.000000  -99.647515   27.905254   -5.830894  -65.246552
  0.052464930    0.000000    0.000000    0.000000    0.000000  -97.898586   28.036341   -5.843855  -66.834824
  0.052665331    0.000000    0.000000    0.000000    0.000000  -99.377631   31.836887   -5.859058  -68.413979
  0.052865731    0.000000    0.000000    0.000000    0.000000  -99.181652   37.751556   -5.873576  -69.962509
