! Anritsu VNA Master:                     Model: MS2036C/10/77
! SN:                                  1601066
! /bd0/18may09/b256.ew.m2.s2p
! Existing Calibration Information:
! TYPE:                         Current Settings,       Active Cal Settings
! TIME:             	   05/09/2018 07:22:58 PM,    05/09/2018 07:16:32 PM
! INTERNAL TEMP:    	                   50.0 C,                    48.5 C
! # POINTS:         	                      494,                       494
! START FREQ:       	               20.000 MHz,                20.000 MHz
! STOP FREQ:        	          118.797 594 MHz,           118.797 594 MHz
! SOURCE POWER:     	                     High,                      High
! IFBW:             	                    50 Hz,                     50 Hz
! AVG FACTOR:       	                       1 ,                        1 
! REF PLANE 1:      	                     0 mm,                      0 mm
! REF PLANE 2:      	                     0 mm,                      0 mm
! CAL TYPE:         	                 Full S22,                  Full S22
! CAL METHOD:       	                     SOLT,                      SOLT
! CAL LINE TYPE:    	                     Coax,                      Coax
! DUT PORT 1:       	                K-Conn(M),                 K-Conn(M)
! DUT PORT 2:       	                K-Conn(M),                 K-Conn(M)
! CAL STATUS:       	        OK: Accuracy High,                        --
# GHZ S DB R 50.0
! FREQ.GHZ       S11DB        S11A       S21DB        S21A       S12DB        S12A       S22DB        S22A
  0.020000000    0.000000    0.000000    0.000000    0.000000  -89.443281   36.129360   -0.640632 -127.104469
  0.020200401    0.000000    0.000000    0.000000    0.000000  -90.013924   32.810631   -0.645941 -128.584457
  0.020400802    0.000000    0.000000    0.000000    0.000000  -90.094402   34.825745   -0.646609 -130.064423
  0.020601202    0.000000    0.000000    0.000000    0.000000  -90.347308   34.065960   -0.651547 -131.563934
  0.020801603    0.000000    0.000000    0.000000    0.000000  -90.421777   35.765526   -0.655446 -133.109589
  0.021002004    0.000000    0.000000    0.000000    0.000000  -90.782368   39.462311   -0.658288 -134.655350
  0.021202405    0.000000    0.000000    0.000000    0.000000  -91.290436   32.482109   -0.663510 -136.205124
  0.021402806    0.000000    0.000000    0.000000    0.000000  -91.886378   42.961250   -0.667042 -137.739853
  0.021603206    0.000000    0.000000    0.000000    0.000000  -92.312744   39.321850   -0.670076 -139.275635
  0.021803607    0.000000    0.000000    0.000000    0.000000  -91.460484   41.218147   -0.674173 -140.809631
  0.022004008    0.000000    0.000000    0.000000    0.000000  -91.562500   42.468769   -0.680360 -142.372437
  0.022204409    0.000000    0.000000    0.000000    0.000000  -91.989264   45.777287   -0.687451 -143.946320
  0.022404810    0.000000    0.000000    0.000000    0.000000  -92.139951   40.054108   -0.695570 -145.536270
  0.022605210    0.000000    0.000000    0.000000    0.000000  -91.796427   41.682426   -0.698282 -147.153259
  0.022805611    0.000000    0.000000    0.000000    0.000000  -91.001252   43.741905   -0.702894 -148.743591
  0.023006012    0.000000    0.000000    0.000000    0.000000  -91.403580   41.350323   -0.712031 -150.340897
  0.023206413    0.000000    0.000000    0.000000    0.000000  -91.273342   44.751076   -0.715362 -151.937668
  0.023406814    0.000000    0.000000    0.000000    0.000000  -91.623228   43.805450   -0.721036 -153.537323
  0.023607214    0.000000    0.000000    0.000000    0.000000  -91.292900   39.028614   -0.728840 -155.137909
  0.023807615    0.000000    0.000000    0.000000    0.000000  -91.073259   40.909164   -0.739836 -156.759979
  0.024008016    0.000000    0.000000    0.000000    0.000000  -90.723937   37.861824   -0.748567 -158.401978
  0.024208417    0.000000    0.000000    0.000000    0.000000  -90.742532   38.528507   -0.758451 -160.052139
  0.024408818    0.000000    0.000000    0.000000    0.000000  -92.018562   36.201767   -0.764626 -161.708191
  0.024609218    0.000000    0.000000    0.000000    0.000000  -91.784101   34.203930   -0.772394 -163.371597
  0.024809619    0.000000    0.000000    0.000000    0.000000  -91.229953   31.613752   -0.783022 -165.036530
  0.025010020    0.000000    0.000000    0.000000    0.000000  -91.626292   33.053764   -0.793548 -166.713333
  0.025210421    0.000000    0.000000    0.000000    0.000000  -92.207882   29.836622   -0.805128 -168.382217
  0.025410822    0.000000    0.000000    0.000000    0.000000  -92.105643   22.125118   -0.817315 -170.081268
  0.025611222    0.000000    0.000000    0.000000    0.000000  -92.394903   24.667906   -0.830866 -171.788254
  0.025811623    0.000000    0.000000    0.000000    0.000000  -92.979452   22.595695   -0.843091 -173.506134
  0.026012024    0.000000    0.000000    0.000000    0.000000  -92.537131   29.889137   -0.855707 -175.243088
  0.026212425    0.000000    0.000000    0.000000    0.000000  -93.623818   25.096773   -0.869720 -176.984619
  0.026412826    0.000000    0.000000    0.000000    0.000000  -93.553066   28.912127   -0.886709 -178.744629
  0.026613226    0.000000    0.000000    0.000000    0.000000  -93.737100   22.720251   -0.901934  179.492447
  0.026813627    0.000000    0.000000    0.000000    0.000000  -94.158671   27.018711   -0.919194  177.720123
  0.027014028    0.000000    0.000000    0.000000    0.000000  -93.735131   23.748312   -0.938651  175.945694
  0.027214429    0.000000    0.000000    0.000000    0.000000  -94.140541   26.445601   -0.956552  174.148422
  0.027414830    0.000000    0.000000    0.000000    0.000000  -94.501642   28.867641   -0.974977  172.362030
  0.027615230    0.000000    0.000000    0.000000    0.000000  -94.386165   29.821665   -0.994842  170.537399
  0.027815631    0.000000    0.000000    0.000000    0.000000  -94.678170   31.753164   -1.015256  168.725983
  0.028016032    0.000000    0.000000    0.000000    0.000000  -94.425718   36.425358   -1.036800  166.887756
  0.028216433    0.000000    0.000000    0.000000    0.000000  -94.364985   37.209270   -1.059369  165.039291
  0.028416834    0.000000    0.000000    0.000000    0.000000  -94.377369   32.212627   -1.082103  163.190796
  0.028617234    0.000000    0.000000    0.000000    0.000000  -94.401858   36.374420   -1.105742  161.337372
  0.028817635    0.000000    0.000000    0.000000    0.000000  -94.026282   34.078709   -1.129936  159.477158
  0.029018036    0.000000    0.000000    0.000000    0.000000  -94.044786   34.011890   -1.155325  157.623505
  0.029218437    0.000000    0.000000    0.000000    0.000000  -93.727601   33.395836   -1.180833  155.757874
  0.029418838    0.000000    0.000000    0.000000    0.000000  -94.346876   33.808182   -1.208171  153.863388
  0.029619238    0.000000    0.000000    0.000000    0.000000  -93.626449   35.640293   -1.234458  151.979416
  0.029819639    0.000000    0.000000    0.000000    0.000000  -93.403091   31.461184   -1.262226  150.087799
  0.030020040    0.000000    0.000000    0.000000    0.000000  -93.542104   26.297663   -1.289048  148.186325
  0.030220441    0.000000    0.000000    0.000000    0.000000  -93.928903   32.141903   -1.316596  146.276581
  0.030420842    0.000000    0.000000    0.000000    0.000000  -94.107244   26.720497   -1.344029  144.393921
  0.030621242    0.000000    0.000000    0.000000    0.000000  -94.004457   25.669687   -1.373899  142.479889
  0.030821643    0.000000    0.000000    0.000000    0.000000  -94.401047   30.569416   -1.407039  140.575470
  0.031022044    0.000000    0.000000    0.000000    0.000000  -94.738100   23.955297   -1.438304  138.639099
  0.031222445    0.000000    0.000000    0.000000    0.000000  -95.129411   23.102512   -1.468916  136.694580
  0.031422846    0.000000    0.000000    0.000000    0.000000  -94.554850   27.839436   -1.501852  134.724945
  0.031623246    0.000000    0.000000    0.000000    0.000000  -95.042608   21.847708   -1.534807  132.742691
  0.031823647    0.000000    0.000000    0.000000    0.000000  -94.507287   22.335184   -1.569036  130.771484
  0.032024048    0.000000    0.000000    0.000000    0.000000  -95.207448   18.198656   -1.606732  128.780396
  0.032224449    0.000000    0.000000    0.000000    0.000000  -94.750112   21.973717   -1.644390  126.803947
  0.032424850    0.000000    0.000000    0.000000    0.000000  -95.769700   16.650248   -1.682381  124.808647
  0.032625250    0.000000    0.000000    0.000000    0.000000  -95.503972   21.517197   -1.721426  122.813522
  0.032825651    0.000000    0.000000    0.000000    0.000000  -95.123729   25.228954   -1.762019  120.755081
  0.033026052    0.000000    0.000000    0.000000    0.000000  -96.870806   22.260738   -1.801835  118.716095
  0.033226453    0.000000    0.000000    0.000000    0.000000  -96.288053   17.548885   -1.842830  116.685753
  0.033426854    0.000000    0.000000    0.000000    0.000000  -96.224070   24.313536   -1.884154  114.650391
  0.033627254    0.000000    0.000000    0.000000    0.000000  -97.193322   19.893564   -1.927136  112.605492
  0.033827655    0.000000    0.000000    0.000000    0.000000  -96.035128   30.798952   -1.971441  110.563660
  0.034028056    0.000000    0.000000    0.000000    0.000000  -96.307977   29.050953   -2.016209  108.527039
  0.034228457    0.000000    0.000000    0.000000    0.000000  -96.214124   35.222572   -2.062195  106.443275
  0.034428858    0.000000    0.000000    0.000000    0.000000  -96.129672   27.451942   -2.109367  104.369484
  0.034629258    0.000000    0.000000    0.000000    0.000000  -96.493786   26.902044   -2.156639  102.283249
  0.034829659    0.000000    0.000000    0.000000    0.000000  -95.819983   28.218904   -2.201124  100.208801
  0.035030060    0.000000    0.000000    0.000000    0.000000  -96.664036   18.315926   -2.250482   98.113403
  0.035230461    0.000000    0.000000    0.000000    0.000000  -95.863316   27.164766   -2.301157   96.027878
  0.035430862    0.000000    0.000000    0.000000    0.000000  -95.827217   28.495937   -2.350101   93.944107
  0.035631262    0.000000    0.000000    0.000000    0.000000  -96.760428   26.746599   -2.399569   91.847260
  0.035831663    0.000000    0.000000    0.000000    0.000000  -96.113614   30.762684   -2.452125   89.754715
  0.036032064    0.000000    0.000000    0.000000    0.000000  -96.007655   22.838953   -2.503317   87.664085
  0.036232465    0.000000    0.000000    0.000000    0.000000  -96.308485   23.009342   -2.553230   85.575020
  0.036432866    0.000000    0.000000    0.000000    0.000000  -96.604694   21.464546   -2.603927   83.467957
  0.036633266    0.000000    0.000000    0.000000    0.000000  -97.136412   23.199202   -2.657859   81.376633
  0.036833667    0.000000    0.000000    0.000000    0.000000  -97.184111   22.649351   -2.710991   79.280563
  0.037034068    0.000000    0.000000    0.000000    0.000000  -97.068870   16.650843   -2.764217   77.178131
  0.037234469    0.000000    0.000000    0.000000    0.000000  -96.618102   21.252205   -2.819373   75.080330
  0.037434870    0.000000    0.000000    0.000000    0.000000  -96.003435   24.579330   -2.871549   72.978401
  0.037635270    0.000000    0.000000    0.000000    0.000000  -96.766716   22.695183   -2.926613   70.889305
  0.037835671    0.000000    0.000000    0.000000    0.000000  -97.332227   25.876394   -2.981972   68.764954
  0.038036072    0.000000    0.000000    0.000000    0.000000  -96.630839   21.481001   -3.036614   66.631035
  0.038236473    0.000000    0.000000    0.000000    0.000000  -97.322933   21.930595   -3.094915   64.516151
  0.038436874    0.000000    0.000000    0.000000    0.000000  -98.098744   26.750616   -3.152942   62.389378
  0.038637274    0.000000    0.000000    0.000000    0.000000  -99.429323   23.488398   -3.211187   60.273788
  0.038837675    0.000000    0.000000    0.000000    0.000000  -97.829349   25.487844   -3.265104   58.168282
  0.039038076    0.000000    0.000000    0.000000    0.000000  -98.275766   22.961859   -3.319343   56.071960
  0.039238477    0.000000    0.000000    0.000000    0.000000  -98.732173   22.756264   -3.375180   53.966969
  0.039438878    0.000000    0.000000    0.000000    0.000000  -96.892821   32.013817   -3.430466   51.886147
  0.039639278    0.000000    0.000000    0.000000    0.000000  -97.910748   29.302721   -3.485841   49.781010
  0.039839679    0.000000    0.000000    0.000000    0.000000  -98.666640   26.839415   -3.541922   47.690807
  0.040040080    0.000000    0.000000    0.000000    0.000000  -96.909937   29.193165   -3.599515   45.591843
  0.040240481    0.000000    0.000000    0.000000    0.000000  -96.973414   29.914450   -3.653323   43.490746
  0.040440882    0.000000    0.000000    0.000000    0.000000  -97.840820   26.433159   -3.707887   41.407143
  0.040641283    0.000000    0.000000    0.000000    0.000000  -98.608628   20.829395   -3.763030   39.343136
  0.040841683    0.000000    0.000000    0.000000    0.000000  -98.045903   30.262020   -3.817073   37.274216
  0.041042084    0.000000    0.000000    0.000000    0.000000  -97.270085   33.580456   -3.870671   35.217506
  0.041242485    0.000000    0.000000    0.000000    0.000000  -96.903035   30.757967   -3.930367   33.134155
  0.041442886    0.000000    0.000000    0.000000    0.000000  -97.935657   31.868246   -3.986203   31.063629
  0.041643287    0.000000    0.000000    0.000000    0.000000  -98.237608   28.234201   -4.038141   28.989792
  0.041843687    0.000000    0.000000    0.000000    0.000000  -97.248987   19.022884   -4.091618   26.934299
  0.042044088    0.000000    0.000000    0.000000    0.000000  -97.488215   25.343168   -4.144421   24.880247
  0.042244489    0.000000    0.000000    0.000000    0.000000  -98.115256   22.409906   -4.197743   22.831617
  0.042444890    0.000000    0.000000    0.000000    0.000000  -99.260044   20.778460   -4.251432   20.792850
  0.042645291    0.000000    0.000000    0.000000    0.000000  -98.954438   22.887342   -4.304766   18.767311
  0.042845691    0.000000    0.000000    0.000000    0.000000  -97.718744   16.814882   -4.356473   16.757723
  0.043046092    0.000000    0.000000    0.000000    0.000000  -98.803410   22.680546   -4.408400   14.744237
  0.043246493    0.000000    0.000000    0.000000    0.000000  -97.770737   27.281048   -4.459620   12.732068
  0.043446894    0.000000    0.000000    0.000000    0.000000  -97.824905   18.041830   -4.510623   10.722209
  0.043647295    0.000000    0.000000    0.000000    0.000000  -98.248983   30.370975   -4.557059    8.728152
  0.043847695    0.000000    0.000000    0.000000    0.000000  -97.221423   31.505705   -4.603076    6.735088
  0.044048096    0.000000    0.000000    0.000000    0.000000  -98.732140   24.936893   -4.650549    4.771366
  0.044248497    0.000000    0.000000    0.000000    0.000000 -100.593644   18.764036   -4.696840    2.801571
  0.044448898    0.000000    0.000000    0.000000    0.000000 -100.495711   33.488327   -4.738351    0.849667
  0.044649299    0.000000    0.000000    0.000000    0.000000  -99.543131   28.200325   -4.780313   -1.102152
  0.044849699    0.000000    0.000000    0.000000    0.000000  -99.434757   23.360451   -4.826023   -3.044032
  0.045050100    0.000000    0.000000    0.000000    0.000000 -100.179146   40.356434   -4.865734   -4.993356
  0.045250501    0.000000    0.000000    0.000000    0.000000  -99.211082   36.980244   -4.906654   -6.928821
  0.045450902    0.000000    0.000000    0.000000    0.000000  -97.726512   28.047052   -4.947733   -8.836864
  0.045651303    0.000000    0.000000    0.000000    0.000000  -99.844543   41.941692   -4.989611  -10.752517
  0.045851703    0.000000    0.000000    0.000000    0.000000  -97.324936   28.087004   -5.024608  -12.660636
  0.046052104    0.000000    0.000000    0.000000    0.000000  -97.348395   34.212723   -5.063613  -14.531422
  0.046252505    0.000000    0.000000    0.000000    0.000000  -99.064717   41.734802   -5.103409  -16.392132
  0.046452906    0.000000    0.000000    0.000000    0.000000  -99.424257   32.628307   -5.139573  -18.234110
  0.046653307    0.000000    0.000000    0.000000    0.000000  -97.634194   30.523695   -5.172264  -20.064360
  0.046853707    0.000000    0.000000    0.000000    0.000000  -99.239525   28.005398   -5.209122  -21.848391
  0.047054108    0.000000    0.000000    0.000000    0.000000  -97.944765   38.600620   -5.232357  -23.667955
  0.047254509    0.000000    0.000000    0.000000    0.000000  -98.842809   27.413824   -5.259370  -25.494083
  0.047454910    0.000000    0.000000    0.000000    0.000000  -98.821541   25.617086   -5.282826  -27.314014
  0.047655311    0.000000    0.000000    0.000000    0.000000  -98.996128   34.832039   -5.306686  -29.130980
  0.047855711    0.000000    0.000000    0.000000    0.000000  -99.792637   25.292131   -5.332246  -30.926939
  0.048056112    0.000000    0.000000    0.000000    0.000000  -98.986227   29.963125   -5.358701  -32.728271
  0.048256513    0.000000    0.000000    0.000000    0.000000  -98.655989   20.323090   -5.383806  -34.535309
  0.048456914    0.000000    0.000000    0.000000    0.000000  -99.303908   30.802565   -5.408239  -36.338905
  0.048657315    0.000000    0.000000    0.000000    0.000000  -98.754494   31.247145   -5.431319  -38.134533
  0.048857715    0.000000    0.000000    0.000000    0.000000  -98.482101   30.044844   -5.457944  -39.910015
  0.049058116    0.000000    0.000000    0.000000    0.000000 -100.126206   27.521244   -5.479760  -41.696491
  0.049258517    0.000000    0.000000    0.000000    0.000000  -98.919786   23.938314   -5.501992  -43.469360
  0.049458918    0.000000    0.000000    0.000000    0.000000  -99.736337   39.789196   -5.525295  -45.205883
  0.049659319    0.000000    0.000000    0.000000    0.000000  -98.914046   41.234238   -5.548435  -46.933479
  0.049859719    0.000000    0.000000    0.000000    0.000000 -100.003985   22.241209   -5.574525  -48.640156
  0.050060120    0.000000    0.000000    0.000000    0.000000  -97.529692   34.155167   -5.596455  -50.365063
  0.050260521    0.000000    0.000000    0.000000    0.000000  -98.227304   39.118450   -5.617354  -52.082253
  0.050460922    0.000000    0.000000    0.000000    0.000000  -99.989819   37.195461   -5.635762  -53.780941
  0.050661323    0.000000    0.000000    0.000000    0.000000  -99.761584   37.542694   -5.653334  -55.473820
  0.050861723    0.000000    0.000000    0.000000    0.000000  -98.698871   40.086159   -5.671047  -57.151875
  0.051062124    0.000000    0.000000    0.000000    0.000000  -99.421881   41.627689   -5.690497  -58.821358
  0.051262525    0.000000    0.000000    0.000000    0.000000  -98.450215   32.937584   -5.710221  -60.432129
  0.051462926    0.000000    0.000000    0.000000    0.000000  -99.529559   30.584290   -5.723802  -62.088428
  0.051663327    0.000000    0.000000    0.000000    0.000000  -98.414429   32.441891   -5.742110  -63.704292
  0.051863727    0.000000    0.000000    0.000000    0.000000  -99.774969   33.264503   -5.761956  -65.326889
  0.052064128    0.000000    0.000000    0.000000    0.000000  -99.446484   27.018696   -5.773559  -66.931473
  0.052264529    0.000000    0.000000    0.000000    0.000000  -99.419693   33.955212   -5.784230  -68.535217
  0.052464930    0.000000    0.000000    0.000000    0.000000  -99.241654   29.745007   -5.798182  -70.109390
  0.052665331    0.000000    0.000000    0.000000    0.000000  -98.126403   30.108807   -5.811089  -71.690941
  0.052865731    0.000000    0.000000    0.000000    0.000000  -99.286615   34.285492   -5.826399  -73.234810
