! Anritsu VNA Master:                     Model: MS2036C/10/77
! SN:                                  1601066
! /bd0/18may07/256.ew.m13.s2p
! Existing Calibration Information:
! TYPE:                         Current Settings,       Active Cal Settings
! TIME:             	   05/07/2018 02:28:23 PM,    05/07/2018 02:21:54 PM
! INTERNAL TEMP:    	                   56.5 C,                    55.5 C
! # POINTS:         	                      500,                       500
! START FREQ:       	               20.000 MHz,                20.000 MHz
! STOP FREQ:        	              120.000 MHz,               120.000 MHz
! SOURCE POWER:     	                     High,                      High
! IFBW:             	                    50 Hz,                     50 Hz
! AVG FACTOR:       	                       1 ,                        1 
! REF PLANE 1:      	                     0 mm,                      0 mm
! REF PLANE 2:      	                     0 mm,                      0 mm
! CAL TYPE:         	                 Full S11,                  Full S11
! CAL METHOD:       	                     SOLT,                      SOLT
! CAL LINE TYPE:    	                     Coax,                      Coax
! DUT PORT 1:       	                K-Conn(F),                 K-Conn(F)
! DUT PORT 2:       	                K-Conn(F),                 K-Conn(F)
! CAL STATUS:       	        OK: Accuracy High,                        --
# GHZ S DB R 50.0
! FREQ.GHZ       S11DB        S11A       S21DB        S21A       S12DB        S12A       S22DB        S22A
  0.020000000   -0.644041 -126.159889  -91.214260   29.283747    0.000000    0.000000    0.000000    0.000000
  0.020200401   -0.642482 -127.628311  -91.518518   26.351768    0.000000    0.000000    0.000000    0.000000
  0.020400802   -0.643646 -129.093979  -91.457033   27.631767    0.000000    0.000000    0.000000    0.000000
  0.020601202   -0.644438 -130.551544  -92.211991   27.489861    0.000000    0.000000    0.000000    0.000000
  0.020801603   -0.649030 -132.056274  -92.030528   32.890308    0.000000    0.000000    0.000000    0.000000
  0.021002004   -0.656977 -133.564301  -92.662661   32.305244    0.000000    0.000000    0.000000    0.000000
  0.021202405   -0.661769 -135.109390  -92.886215   27.321383    0.000000    0.000000    0.000000    0.000000
  0.021402806   -0.669590 -136.645676  -93.193232   29.138481    0.000000    0.000000    0.000000    0.000000
  0.021603206   -0.674022 -138.178452  -92.565850   24.175150    0.000000    0.000000    0.000000    0.000000
  0.021803607   -0.679126 -139.710434  -93.228372   34.130959    0.000000    0.000000    0.000000    0.000000
  0.022004008   -0.685493 -141.252487  -93.465542   31.154039    0.000000    0.000000    0.000000    0.000000
  0.022204409   -0.693759 -142.795074  -92.862329   33.786137    0.000000    0.000000    0.000000    0.000000
  0.022404810   -0.695855 -144.364456  -93.111865   32.430809    0.000000    0.000000    0.000000    0.000000
  0.022605210   -0.698561 -145.958923  -93.702388   31.460255    0.000000    0.000000    0.000000    0.000000
  0.022805611   -0.705756 -147.567093  -93.784017   31.942913    0.000000    0.000000    0.000000    0.000000
  0.023006012   -0.710963 -149.151794  -92.556864   31.840214    0.000000    0.000000    0.000000    0.000000
  0.023206413   -0.714023 -150.743713  -93.217530   36.105125    0.000000    0.000000    0.000000    0.000000
  0.023406814   -0.717347 -152.327576  -92.521413   28.778578    0.000000    0.000000    0.000000    0.000000
  0.023607214   -0.720491 -153.922318  -93.187194   30.044558    0.000000    0.000000    0.000000    0.000000
  0.023807615   -0.727974 -155.519867  -93.603175   26.810619    0.000000    0.000000    0.000000    0.000000
  0.024008016   -0.737911 -157.136230  -93.191070   24.976789    0.000000    0.000000    0.000000    0.000000
  0.024208417   -0.749187 -158.771835  -93.462527   26.094929    0.000000    0.000000    0.000000    0.000000
  0.024408818   -0.757881 -160.422211  -93.409023   25.376930    0.000000    0.000000    0.000000    0.000000
  0.024609218   -0.766700 -162.081070  -93.066378   22.115639    0.000000    0.000000    0.000000    0.000000
  0.024809619   -0.776080 -163.742294  -93.739917   21.942406    0.000000    0.000000    0.000000    0.000000
  0.025010020   -0.789021 -165.394409  -93.880657   21.179338    0.000000    0.000000    0.000000    0.000000
  0.025210421   -0.801557 -167.055191  -93.870567   19.477448    0.000000    0.000000    0.000000    0.000000
  0.025410822   -0.815287 -168.738434  -94.514690   21.221319    0.000000    0.000000    0.000000    0.000000
  0.025611222   -0.827225 -170.443970  -94.774679   23.945343    0.000000    0.000000    0.000000    0.000000
  0.025811623   -0.842891 -172.153641  -94.574910   20.066374    0.000000    0.000000    0.000000    0.000000
  0.026012024   -0.854443 -173.885330  -95.527741   20.262558    0.000000    0.000000    0.000000    0.000000
  0.026212425   -0.865168 -175.614853  -95.131781   13.450744    0.000000    0.000000    0.000000    0.000000
  0.026412826   -0.878415 -177.348846  -95.678817   11.170277    0.000000    0.000000    0.000000    0.000000
  0.026613226   -0.893067 -179.085373  -96.298498   23.731808    0.000000    0.000000    0.000000    0.000000
  0.026813627   -0.910652  179.145218  -96.232167   13.583353    0.000000    0.000000    0.000000    0.000000
  0.027014028   -0.928308  177.381012  -95.499226   20.032944    0.000000    0.000000    0.000000    0.000000
  0.027214429   -0.944834  175.601639  -96.225275   16.795404    0.000000    0.000000    0.000000    0.000000
  0.027414830   -0.961816  173.805557  -96.779893   23.307566    0.000000    0.000000    0.000000    0.000000
  0.027615230   -0.979643  172.011871  -96.970067   22.266430    0.000000    0.000000    0.000000    0.000000
  0.027815631   -0.998504  170.195862  -96.253064   20.551767    0.000000    0.000000    0.000000    0.000000
  0.028016032   -1.020920  168.381027  -96.339752   21.920330    0.000000    0.000000    0.000000    0.000000
  0.028216433   -1.041538  166.549606  -96.984720   22.632135    0.000000    0.000000    0.000000    0.000000
  0.028416834   -1.063949  164.714294  -97.182548   28.601856    0.000000    0.000000    0.000000    0.000000
  0.028617234   -1.085807  162.891953  -97.207544   23.820526    0.000000    0.000000    0.000000    0.000000
  0.028817635   -1.105188  161.056702  -96.480170   15.800772    0.000000    0.000000    0.000000    0.000000
  0.029018036   -1.125942  159.237717  -96.505618   23.565331    0.000000    0.000000    0.000000    0.000000
  0.029218437   -1.147879  157.413788  -96.389565   18.295300    0.000000    0.000000    0.000000    0.000000
  0.029418838   -1.171290  155.594391  -97.094672   22.217333    0.000000    0.000000    0.000000    0.000000
  0.029619238   -1.196832  153.760025  -96.659077   16.743399    0.000000    0.000000    0.000000    0.000000
  0.029819639   -1.225401  151.897934  -97.402072   19.290848    0.000000    0.000000    0.000000    0.000000
  0.030020040   -1.257285  150.012405  -96.274962   20.205727    0.000000    0.000000    0.000000    0.000000
  0.030220441   -1.286860  148.092087  -95.591499   12.327445    0.000000    0.000000    0.000000    0.000000
  0.030420842   -1.316775  146.174728  -96.730215   18.200495    0.000000    0.000000    0.000000    0.000000
  0.030621242   -1.348095  144.267441  -96.694080   11.442982    0.000000    0.000000    0.000000    0.000000
  0.030821643   -1.379020  142.356476  -96.995309   12.949059    0.000000    0.000000    0.000000    0.000000
  0.031022044   -1.414058  140.430313  -96.803038   14.208873    0.000000    0.000000    0.000000    0.000000
  0.031222445   -1.443352  138.521255  -97.018763    3.974372    0.000000    0.000000    0.000000    0.000000
  0.031422846   -1.481500  136.538040  -98.212836   11.586354    0.000000    0.000000    0.000000    0.000000
  0.031623246   -1.517492  134.538727  -97.751720   21.170668    0.000000    0.000000    0.000000    0.000000
  0.031823647   -1.556912  132.544540  -98.217851   12.335178    0.000000    0.000000    0.000000    0.000000
  0.032024048   -1.590554  130.550781  -98.103774   18.862379    0.000000    0.000000    0.000000    0.000000
  0.032224449   -1.626256  128.525665  -98.112426   11.533990    0.000000    0.000000    0.000000    0.000000
  0.032424850   -1.662932  126.529404  -99.429831    5.930717    0.000000    0.000000    0.000000    0.000000
  0.032625251   -1.696070  124.531517  -98.042013    9.374132    0.000000    0.000000    0.000000    0.000000
  0.032825651   -1.732152  122.534889  -99.196748   12.273075    0.000000    0.000000    0.000000    0.000000
  0.033026052   -1.771684  120.555656  -99.233625   20.661537    0.000000    0.000000    0.000000    0.000000
  0.033226453   -1.811895  118.552589  -98.735443   16.839298    0.000000    0.000000    0.000000    0.000000
  0.033426854   -1.859188  116.573364  -98.162688   13.774617    0.000000    0.000000    0.000000    0.000000
  0.033627255   -1.910589  114.582649  -98.465177   11.456880    0.000000    0.000000    0.000000    0.000000
  0.033827655   -1.959469  112.551529  -98.280969    8.447529    0.000000    0.000000    0.000000    0.000000
  0.034028056   -2.012857  110.501373  -98.372187    7.150494    0.000000    0.000000    0.000000    0.000000
  0.034228457   -2.061927  108.420776  -97.784754   12.596559    0.000000    0.000000    0.000000    0.000000
  0.034428858   -2.110837  106.304817  -99.329287   14.210982    0.000000    0.000000    0.000000    0.000000
  0.034629259   -2.159075  104.164650  -97.452798   14.414542    0.000000    0.000000    0.000000    0.000000
  0.034829659   -2.204377  102.051308  -97.012317   14.791915    0.000000    0.000000    0.000000    0.000000
  0.035030060   -2.249736   99.928078  -98.692744   14.012311    0.000000    0.000000    0.000000    0.000000
  0.035230461   -2.293715   97.828598  -99.765456    2.070580    0.000000    0.000000    0.000000    0.000000
  0.035430862   -2.336084   95.744980  -97.797805    3.978371    0.000000    0.000000    0.000000    0.000000
  0.035631263   -2.378649   93.659454  -99.610408    5.950059    0.000000    0.000000    0.000000    0.000000
  0.035831663   -2.422395   91.581589  -98.631414    2.445348    0.000000    0.000000    0.000000    0.000000
  0.036032064   -2.464411   89.523209  -98.162219    3.294290    0.000000    0.000000    0.000000    0.000000
  0.036232465   -2.510017   87.449532  -98.710183    6.062368    0.000000    0.000000    0.000000    0.000000
  0.036432866   -2.559026   85.404449  -97.618503    3.426457    0.000000    0.000000    0.000000    0.000000
  0.036633267   -2.608910   83.376907  -99.101655    7.426904    0.000000    0.000000    0.000000    0.000000
  0.036833667   -2.662093   81.343903  -99.280194   10.496947    0.000000    0.000000    0.000000    0.000000
  0.037034068   -2.719096   79.283829  -98.999307    2.292268    0.000000    0.000000    0.000000    0.000000
  0.037234469   -2.778748   77.224663 -100.360940   -0.139240    0.000000    0.000000    0.000000    0.000000
  0.037434870   -2.838841   75.151382  -99.844632   -2.893990    0.000000    0.000000    0.000000    0.000000
  0.037635271   -2.898574   73.033997 -100.057843   -2.824471    0.000000    0.000000    0.000000    0.000000
  0.037835671   -2.959613   70.888588 -100.014311    5.605902    0.000000    0.000000    0.000000    0.000000
  0.038036072   -3.021476   68.746506  -99.774525   11.962761    0.000000    0.000000    0.000000    0.000000
  0.038236473   -3.082621   66.576439 -100.033543    5.995398    0.000000    0.000000    0.000000    0.000000
  0.038436874   -3.139333   64.419098 -102.171631   15.400723    0.000000    0.000000    0.000000    0.000000
  0.038637275   -3.195124   62.253971  -99.841387   13.718659    0.000000    0.000000    0.000000    0.000000
  0.038837675   -3.245805   60.125965 -100.317715   13.116562    0.000000    0.000000    0.000000    0.000000
  0.039038076   -3.293920   58.016262 -100.291892    4.183275    0.000000    0.000000    0.000000    0.000000
  0.039238477   -3.339613   55.958099 -101.658800    4.211732    0.000000    0.000000    0.000000    0.000000
  0.039438878   -3.389447   53.854721  -99.554643   16.840429    0.000000    0.000000    0.000000    0.000000
  0.039639279   -3.439563   51.829067  -98.516953    9.793142    0.000000    0.000000    0.000000    0.000000
  0.039839679   -3.497798   49.773075 -101.567692    0.504977    0.000000    0.000000    0.000000    0.000000
  0.040040080   -3.556220   47.707096 -100.615240   18.119940    0.000000    0.000000    0.000000    0.000000
  0.040240481   -3.618245   45.639153 -101.167759   -2.132568    0.000000    0.000000    0.000000    0.000000
  0.040440882   -3.677076   43.553638 -100.409760    8.289421    0.000000    0.000000    0.000000    0.000000
  0.040641283   -3.735801   41.473515  -99.254485    8.870207    0.000000    0.000000    0.000000    0.000000
  0.040841683   -3.793147   39.383720  -99.483451    5.077063    0.000000    0.000000    0.000000    0.000000
  0.041042084   -3.850410   37.323368 -100.143709    7.138376    0.000000    0.000000    0.000000    0.000000
  0.041242485   -3.908272   35.240864  -98.390828    4.953219    0.000000    0.000000    0.000000    0.000000
  0.041442886   -3.960898   33.177650 -101.339674    7.294725    0.000000    0.000000    0.000000    0.000000
  0.041643287   -4.016145   31.088497 -101.029658   -6.519051    0.000000    0.000000    0.000000    0.000000
  0.041843687   -4.069244   29.033571 -103.486664   -3.260923    0.000000    0.000000    0.000000    0.000000
  0.042044088   -4.119742   26.977085 -101.698921    8.656052    0.000000    0.000000    0.000000    0.000000
  0.042244489   -4.168954   24.946236 -102.003515  -15.929002    0.000000    0.000000    0.000000    0.000000
  0.042444890   -4.221216   22.928867 -100.384777    4.459090    0.000000    0.000000    0.000000    0.000000
  0.042645291   -4.270112   20.912584 -100.192024  -10.190133    0.000000    0.000000    0.000000    0.000000
  0.042845691   -4.320251   18.917444 -101.702624   -1.584539    0.000000    0.000000    0.000000    0.000000
  0.043046092   -4.371522   16.915489 -103.354220    1.486691    0.000000    0.000000    0.000000    0.000000
  0.043246493   -4.420510   14.912189 -103.582445  -11.579889    0.000000    0.000000    0.000000    0.000000
  0.043446894   -4.469134   12.928020 -101.881690   -2.405898    0.000000    0.000000    0.000000    0.000000
  0.043647295   -4.517299   10.938095 -101.189012    0.731622    0.000000    0.000000    0.000000    0.000000
  0.043847695   -4.564938    8.965529 -103.172315    9.631305    0.000000    0.000000    0.000000    0.000000
  0.044048096   -4.613710    6.990956 -102.920942    9.359996    0.000000    0.000000    0.000000    0.000000
  0.044248497   -4.662196    5.024168 -103.691775    5.700835    0.000000    0.000000    0.000000    0.000000
  0.044448898   -4.707102    3.076775 -103.723157   18.455893    0.000000    0.000000    0.000000    0.000000
  0.044649299   -4.752301    1.120679 -101.972064   17.600554    0.000000    0.000000    0.000000    0.000000
  0.044849699   -4.795856   -0.816951 -101.342593   19.558273    0.000000    0.000000    0.000000    0.000000
  0.045050100   -4.838803   -2.742103 -101.484371   11.327862    0.000000    0.000000    0.000000    0.000000
  0.045250501   -4.881118   -4.670283 -102.200078   11.221182    0.000000    0.000000    0.000000    0.000000
  0.045450902   -4.921258   -6.580432 -101.557052   16.763355    0.000000    0.000000    0.000000    0.000000
  0.045651303   -4.962449   -8.481510 -103.826091    2.722691    0.000000    0.000000    0.000000    0.000000
  0.045851703   -5.006369  -10.375955 -101.587395    6.230257    0.000000    0.000000    0.000000    0.000000
  0.046052104   -5.044493  -12.263346 -103.183428   19.713581    0.000000    0.000000    0.000000    0.000000
  0.046252505   -5.082595  -14.136883 -100.590168   -2.784707    0.000000    0.000000    0.000000    0.000000
  0.046452906   -5.120034  -16.019993 -100.532154    8.815701    0.000000    0.000000    0.000000    0.000000
  0.046653307   -5.155821  -17.885687 -103.743118    2.068249    0.000000    0.000000    0.000000    0.000000
  0.046853707   -5.191816  -19.748219 -102.678076   14.779673    0.000000    0.000000    0.000000    0.000000
  0.047054108   -5.225230  -21.603180 -102.261945   -2.918710    0.000000    0.000000    0.000000    0.000000
  0.047254509   -5.256086  -23.445026 -101.861290    8.532430    0.000000    0.000000    0.000000    0.000000
  0.047454910   -5.288239  -25.270077 -102.276968    4.207811    0.000000    0.000000    0.000000    0.000000
  0.047655311   -5.320860  -27.085003 -103.670271   -9.371919    0.000000    0.000000    0.000000    0.000000
  0.047855711   -5.348576  -28.868610 -100.859882   -0.316616    0.000000    0.000000    0.000000    0.000000
  0.048056112   -5.378001  -30.632193 -102.114391    4.441000    0.000000    0.000000    0.000000    0.000000
  0.048256513   -5.407925  -32.378551 -102.157547   -3.253661    0.000000    0.000000    0.000000    0.000000
  0.048456914   -5.437153  -34.134701 -104.193901   -3.327297    0.000000    0.000000    0.000000    0.000000
  0.048657315   -5.466103  -35.875427 -103.478681   -0.302376    0.000000    0.000000    0.000000    0.000000
  0.048857715   -5.492086  -37.639503 -103.525355    0.192802    0.000000    0.000000    0.000000    0.000000
  0.049058116   -5.520150  -39.384777 -103.599562    8.005351    0.000000    0.000000    0.000000    0.000000
  0.049258517   -5.544900  -41.104191 -103.973246    3.381243    0.000000    0.000000    0.000000    0.000000
  0.049458918   -5.570224  -42.835255 -103.916668   12.985435    0.000000    0.000000    0.000000    0.000000
  0.049659319   -5.596228  -44.555836 -105.023794   11.025891    0.000000    0.000000    0.000000    0.000000
  0.049859719   -5.619303  -46.257206 -107.701578    0.916143    0.000000    0.000000    0.000000    0.000000
  0.050060120   -5.643753  -47.953224 -101.932785   11.036504    0.000000    0.000000    0.000000    0.000000
  0.050260521   -5.665257  -49.649998 -104.379214    7.309293    0.000000    0.000000    0.000000    0.000000
  0.050460922   -5.686756  -51.331909 -102.096150   21.308746    0.000000    0.000000    0.000000    0.000000
  0.050661323   -5.701673  -53.012245 -102.432461   34.491787    0.000000    0.000000    0.000000    0.000000
  0.050861723   -5.717557  -54.659195 -102.558618    7.345290    0.000000    0.000000    0.000000    0.000000
  0.051062124   -5.730343  -56.327637 -101.952071   17.517918    0.000000    0.000000    0.000000    0.000000
  0.051262525   -5.744405  -57.927620 -103.980779    7.359356    0.000000    0.000000    0.000000    0.000000
  0.051462926   -5.761852  -59.519428 -101.673520    0.347988    0.000000    0.000000    0.000000    0.000000
  0.051663327   -5.776598  -61.069519 -102.884714   10.216519    0.000000    0.000000    0.000000    0.000000
  0.051863727   -5.788111  -62.635681 -101.972127   -1.389784    0.000000    0.000000    0.000000    0.000000
  0.052064128   -5.802615  -64.193924 -101.336773   -0.701730    0.000000    0.000000    0.000000    0.000000
  0.052264529   -5.818214  -65.715691 -101.360738   -4.046134    0.000000    0.000000    0.000000    0.000000
  0.052464930   -5.835395  -67.250313 -101.083737   -1.742269    0.000000    0.000000    0.000000    0.000000
  0.052665331   -5.848048  -68.795921 -102.405790   -0.406549    0.000000    0.000000    0.000000    0.000000
  0.052865731   -5.863525  -70.329926 -104.815233    2.680784    0.000000    0.000000    0.000000    0.000000
