! Anritsu VNA Master:                     Model: MS2036C/10/77
! SN:                                  1601066
! /bd0/18may07/256.ew.m1.s2p
! Existing Calibration Information:
! TYPE:                         Current Settings,       Active Cal Settings
! TIME:             	   05/07/2018 11:49:56 AM,    05/07/2018 11:47:21 AM
! INTERNAL TEMP:    	                   52.3 C,                    52.0 C
! # POINTS:         	                      500,                       500
! START FREQ:       	               20.000 MHz,                20.000 MHz
! STOP FREQ:        	              120.000 MHz,               120.000 MHz
! SOURCE POWER:     	                     High,                      High
! IFBW:             	                    50 Hz,                     50 Hz
! AVG FACTOR:       	                       1 ,                        1 
! REF PLANE 1:      	                     0 mm,                      0 mm
! REF PLANE 2:      	                     0 mm,                      0 mm
! CAL TYPE:         	                 Full S11,                  Full S11
! CAL METHOD:       	                     SOLT,                      SOLT
! CAL LINE TYPE:    	                     Coax,                      Coax
! DUT PORT 1:       	                K-Conn(F),                 K-Conn(F)
! DUT PORT 2:       	                K-Conn(F),                 K-Conn(F)
! CAL STATUS:       	        OK: Accuracy High,                        --
# GHZ S DB R 50.0
! FREQ.GHZ       S11DB        S11A       S21DB        S21A       S12DB        S12A       S22DB        S22A
  0.020000000   -0.617225 -125.873772  -91.030796   30.633047    0.000000    0.000000    0.000000    0.000000
  0.020200401   -0.615286 -127.338821  -91.218796   28.411230    0.000000    0.000000    0.000000    0.000000
  0.020400802   -0.615889 -128.786667  -92.356693   25.049889    0.000000    0.000000    0.000000    0.000000
  0.020601202   -0.618967 -130.250580  -91.539085   32.625301    0.000000    0.000000    0.000000    0.000000
  0.020801603   -0.622205 -131.742477  -92.364206   28.192944    0.000000    0.000000    0.000000    0.000000
  0.021002004   -0.630010 -133.254028  -92.972179   32.005489    0.000000    0.000000    0.000000    0.000000
  0.021202405   -0.638243 -134.791931  -92.900785   31.335552    0.000000    0.000000    0.000000    0.000000
  0.021402806   -0.642472 -136.319016  -93.073158   27.020750    0.000000    0.000000    0.000000    0.000000
  0.021603206   -0.647429 -137.847504  -93.419377   28.547867    0.000000    0.000000    0.000000    0.000000
  0.021803607   -0.654087 -139.383057  -93.329874   27.413406    0.000000    0.000000    0.000000    0.000000
  0.022004008   -0.659590 -140.924896  -93.053026   34.492249    0.000000    0.000000    0.000000    0.000000
  0.022204409   -0.664230 -142.479538  -93.294401   31.562250    0.000000    0.000000    0.000000    0.000000
  0.022404810   -0.670582 -144.053726  -93.322014   38.008694    0.000000    0.000000    0.000000    0.000000
  0.022605210   -0.677792 -145.627533  -92.946056   35.684509    0.000000    0.000000    0.000000    0.000000
  0.022805611   -0.680410 -147.240906  -92.854988   36.830379    0.000000    0.000000    0.000000    0.000000
  0.023006012   -0.684428 -148.830322  -92.560377   35.791771    0.000000    0.000000    0.000000    0.000000
  0.023206413   -0.687092 -150.417435  -92.955366   33.909550    0.000000    0.000000    0.000000    0.000000
  0.023406814   -0.689797 -151.995026  -93.562375   27.775681    0.000000    0.000000    0.000000    0.000000
  0.023607214   -0.696061 -153.585922  -92.858212   32.670311    0.000000    0.000000    0.000000    0.000000
  0.023807615   -0.705934 -155.183167  -93.052393   31.379766    0.000000    0.000000    0.000000    0.000000
  0.024008016   -0.714896 -156.800323  -92.897497   28.222160    0.000000    0.000000    0.000000    0.000000
  0.024208417   -0.723678 -158.450806  -93.057101   30.098038    0.000000    0.000000    0.000000    0.000000
  0.024408818   -0.733841 -160.091064  -93.580670   27.238535    0.000000    0.000000    0.000000    0.000000
  0.024609218   -0.743752 -161.733856  -93.464936   21.896673    0.000000    0.000000    0.000000    0.000000
  0.024809619   -0.753585 -163.394653  -93.334186   24.883900    0.000000    0.000000    0.000000    0.000000
  0.025010020   -0.765198 -165.047577  -93.925901   21.039433    0.000000    0.000000    0.000000    0.000000
  0.025210421   -0.778536 -166.707977  -93.732015   20.454369    0.000000    0.000000    0.000000    0.000000
  0.025410822   -0.790903 -168.386444  -94.746052   12.301128    0.000000    0.000000    0.000000    0.000000
  0.025611222   -0.805840 -170.076431  -94.133376   16.431557    0.000000    0.000000    0.000000    0.000000
  0.025811623   -0.817974 -171.798416  -94.951569   15.135611    0.000000    0.000000    0.000000    0.000000
  0.026012024   -0.830950 -173.528900  -94.705134   22.724909    0.000000    0.000000    0.000000    0.000000
  0.026212425   -0.841061 -175.246857  -95.083728   15.261470    0.000000    0.000000    0.000000    0.000000
  0.026412826   -0.855109 -176.971451  -94.889787   12.391740    0.000000    0.000000    0.000000    0.000000
  0.026613226   -0.870943 -178.715744  -95.878099   15.248107    0.000000    0.000000    0.000000    0.000000
  0.026813627   -0.886754  179.524170  -95.719292   16.065535    0.000000    0.000000    0.000000    0.000000
  0.027014028   -0.904951  177.753647  -96.262626   20.850496    0.000000    0.000000    0.000000    0.000000
  0.027214429   -0.921549  175.976776  -96.607722   21.404095    0.000000    0.000000    0.000000    0.000000
  0.027414830   -0.937847  174.192444  -96.328633   21.800468    0.000000    0.000000    0.000000    0.000000
  0.027615230   -0.955395  172.392227  -96.442690   17.366896    0.000000    0.000000    0.000000    0.000000
  0.027815631   -0.975875  170.578842  -95.601035   19.560835    0.000000    0.000000    0.000000    0.000000
  0.028016032   -0.996498  168.750229  -96.937224   29.332548    0.000000    0.000000    0.000000    0.000000
  0.028216433   -1.019301  166.925842  -96.578853   20.846634    0.000000    0.000000    0.000000    0.000000
  0.028416834   -1.041435  165.086243  -95.767986   16.904833    0.000000    0.000000    0.000000    0.000000
  0.028617234   -1.062603  163.258026  -96.142454   20.204870    0.000000    0.000000    0.000000    0.000000
  0.028817635   -1.083279  161.428223  -96.995023   22.901531    0.000000    0.000000    0.000000    0.000000
  0.029018036   -1.103513  159.609070  -95.506100   21.170713    0.000000    0.000000    0.000000    0.000000
  0.029218437   -1.125643  157.788864  -96.839553   23.287661    0.000000    0.000000    0.000000    0.000000
  0.029418838   -1.150864  155.973541  -95.596479   19.374508    0.000000    0.000000    0.000000    0.000000
  0.029619238   -1.175844  154.146286  -96.097780   19.205658    0.000000    0.000000    0.000000    0.000000
  0.029819639   -1.206551  152.267975  -95.686162   17.024473    0.000000    0.000000    0.000000    0.000000
  0.030020040   -1.236592  150.380920  -96.657615   19.860241    0.000000    0.000000    0.000000    0.000000
  0.030220441   -1.267300  148.476028  -96.671379   14.123278    0.000000    0.000000    0.000000    0.000000
  0.030420842   -1.297263  146.554550  -97.086019   13.195473    0.000000    0.000000    0.000000    0.000000
  0.030621242   -1.329190  144.651276  -96.304525   11.137340    0.000000    0.000000    0.000000    0.000000
  0.030821643   -1.359860  142.742935  -96.946952    9.448576    0.000000    0.000000    0.000000    0.000000
  0.031022044   -1.395734  140.829193  -97.354074    8.593420    0.000000    0.000000    0.000000    0.000000
  0.031222445   -1.426781  138.912949  -97.630656   14.543604    0.000000    0.000000    0.000000    0.000000
  0.031422846   -1.463403  136.945190  -96.841852   17.214819    0.000000    0.000000    0.000000    0.000000
  0.031623246   -1.501970  134.947891  -96.173059   13.672848    0.000000    0.000000    0.000000    0.000000
  0.031823647   -1.534687  132.934494  -97.408688    0.408368    0.000000    0.000000    0.000000    0.000000
  0.032024048   -1.569687  130.947830  -97.062754    7.891050    0.000000    0.000000    0.000000    0.000000
  0.032224449   -1.606690  128.946533  -98.717059    9.009003    0.000000    0.000000    0.000000    0.000000
  0.032424850   -1.640620  126.942101  -98.442539   17.699280    0.000000    0.000000    0.000000    0.000000
  0.032625251   -1.675954  124.963745  -97.816080   10.390597    0.000000    0.000000    0.000000    0.000000
  0.032825651   -1.714316  122.970139  -97.800681   17.219608    0.000000    0.000000    0.000000    0.000000
  0.033026052   -1.754105  120.979012  -99.073874    7.035202    0.000000    0.000000    0.000000    0.000000
  0.033226453   -1.798764  119.003448  -96.943782   14.589029    0.000000    0.000000    0.000000    0.000000
  0.033426854   -1.844965  117.001984  -97.722766    1.992218    0.000000    0.000000    0.000000    0.000000
  0.033627255   -1.896719  114.995117  -97.715430   20.383165    0.000000    0.000000    0.000000    0.000000
  0.033827655   -1.949926  112.961502  -97.551897   15.557638    0.000000    0.000000    0.000000    0.000000
  0.034028056   -2.002378  110.887222  -97.373603    7.270368    0.000000    0.000000    0.000000    0.000000
  0.034228457   -2.054642  108.782562  -98.148223   12.137120    0.000000    0.000000    0.000000    0.000000
  0.034428858   -2.102370  106.646126  -98.672444   12.847567    0.000000    0.000000    0.000000    0.000000
  0.034629259   -2.150964  104.510986  -97.257834    7.586760    0.000000    0.000000    0.000000    0.000000
  0.034829659   -2.196415  102.376617  -99.184671   15.273172    0.000000    0.000000    0.000000    0.000000
  0.035030060   -2.241082  100.270172  -98.553043   16.276796    0.000000    0.000000    0.000000    0.000000
  0.035230461   -2.283681   98.167793  -97.828509   13.785726    0.000000    0.000000    0.000000    0.000000
  0.035430862   -2.324822   96.048561  -98.168222   15.982285    0.000000    0.000000    0.000000    0.000000
  0.035631263   -2.369895   93.962082  -98.317945   12.356785    0.000000    0.000000    0.000000    0.000000
  0.035831663   -2.411096   91.892303  -98.506526    8.256523    0.000000    0.000000    0.000000    0.000000
  0.036032064   -2.458316   89.823463  -98.361232   10.337462    0.000000    0.000000    0.000000    0.000000
  0.036232465   -2.503706   87.762680  -99.239678    5.492258    0.000000    0.000000    0.000000    0.000000
  0.036432866   -2.550990   85.720230  -98.481643    8.230309    0.000000    0.000000    0.000000    0.000000
  0.036633267   -2.602465   83.690598  -99.887827   12.088303    0.000000    0.000000    0.000000    0.000000
  0.036833667   -2.657010   81.643204 -100.640467    0.863235    0.000000    0.000000    0.000000    0.000000
  0.037034068   -2.716458   79.596603  -99.940541    0.240250    0.000000    0.000000    0.000000    0.000000
  0.037234469   -2.774126   77.511345 -100.384260    1.558187    0.000000    0.000000    0.000000    0.000000
  0.037434870   -2.835206   75.424408 -100.022217    1.978225    0.000000    0.000000    0.000000    0.000000
  0.037635271   -2.892099   73.315987 -100.171903    0.488151    0.000000    0.000000    0.000000    0.000000
  0.037835671   -2.954415   71.170074 -100.881991    9.683887    0.000000    0.000000    0.000000    0.000000
  0.038036072   -3.017154   68.995186 -102.300251    2.158254    0.000000    0.000000    0.000000    0.000000
  0.038236473   -3.076642   66.858391  -97.797998   18.390276    0.000000    0.000000    0.000000    0.000000
  0.038436874   -3.132493   64.678200  -99.570215    2.531445    0.000000    0.000000    0.000000    0.000000
  0.038637275   -3.188497   62.544498  -99.370346   14.347389    0.000000    0.000000    0.000000    0.000000
  0.038837675   -3.232365   60.405006  -99.975646    5.192143    0.000000    0.000000    0.000000    0.000000
  0.039038076   -3.282166   58.314228 -101.322272    5.613085    0.000000    0.000000    0.000000    0.000000
  0.039238477   -3.329019   56.240761 -100.875150   27.898016    0.000000    0.000000    0.000000    0.000000
  0.039438878   -3.379750   54.180298  -99.256386   15.756302    0.000000    0.000000    0.000000    0.000000
  0.039639279   -3.434629   52.143150 -100.309603   14.219994    0.000000    0.000000    0.000000    0.000000
  0.039839679   -3.491009   50.094635  -99.709995    5.160944    0.000000    0.000000    0.000000    0.000000
  0.040040080   -3.551995   48.031712  -99.189152   11.655728    0.000000    0.000000    0.000000    0.000000
  0.040240481   -3.614609   45.961823 -100.105401    5.755097    0.000000    0.000000    0.000000    0.000000
  0.040440882   -3.674523   43.860168 -100.578652   13.615855    0.000000    0.000000    0.000000    0.000000
  0.040641283   -3.734917   41.782257  -99.690449   -3.785621    0.000000    0.000000    0.000000    0.000000
  0.040841683   -3.792759   39.686165 -100.994349    7.365542    0.000000    0.000000    0.000000    0.000000
  0.041042084   -3.854145   37.620663 -100.120661    9.309867    0.000000    0.000000    0.000000    0.000000
  0.041242485   -3.907070   35.529919  -99.009462   13.422949    0.000000    0.000000    0.000000    0.000000
  0.041442886   -3.964487   33.453762 -100.973638    1.752096    0.000000    0.000000    0.000000    0.000000
  0.041643287   -4.018925   31.352631 -100.578736   11.785446    0.000000    0.000000    0.000000    0.000000
  0.041843687   -4.071548   29.274662 -101.922776    3.081675    0.000000    0.000000    0.000000    0.000000
  0.042044088   -4.122507   27.202890 -100.135435   -3.933670    0.000000    0.000000    0.000000    0.000000
  0.042244489   -4.172639   25.159502 -100.795309   -0.179117    0.000000    0.000000    0.000000    0.000000
  0.042444890   -4.221539   23.139305 -100.530325   -0.131893    0.000000    0.000000    0.000000    0.000000
  0.042645291   -4.275547   21.106733 -101.230370   -0.474030    0.000000    0.000000    0.000000    0.000000
  0.042845691   -4.324433   19.113054 -102.115759    2.678367    0.000000    0.000000    0.000000    0.000000
  0.043046092   -4.373353   17.088970 -101.227997   18.642836    0.000000    0.000000    0.000000    0.000000
  0.043246493   -4.423396   15.088618 -101.333461   10.027736    0.000000    0.000000    0.000000    0.000000
  0.043446894   -4.470320   13.100617 -103.588670    8.893026    0.000000    0.000000    0.000000    0.000000
  0.043647295   -4.517718   11.103893 -103.004388   11.405866    0.000000    0.000000    0.000000    0.000000
  0.043847695   -4.566886    9.124621 -104.571444    0.138393    0.000000    0.000000    0.000000    0.000000
  0.044048096   -4.613574    7.154922 -101.944380    1.754988    0.000000    0.000000    0.000000    0.000000
  0.044248497   -4.661454    5.182489 -104.236149    4.909973    0.000000    0.000000    0.000000    0.000000
  0.044448898   -4.707820    3.220372 -103.285272    5.831537    0.000000    0.000000    0.000000    0.000000
  0.044649299   -4.752445    1.278826 -103.334307    2.440185    0.000000    0.000000    0.000000    0.000000
  0.044849699   -4.795718   -0.664079 -103.567770   29.604933    0.000000    0.000000    0.000000    0.000000
  0.045050100   -4.836354   -2.612506  -99.922294   13.294628    0.000000    0.000000    0.000000    0.000000
  0.045250501   -4.875557   -4.545231  -99.803202    2.884245    0.000000    0.000000    0.000000    0.000000
  0.045450902   -4.910115   -6.466455 -101.271446   21.028807    0.000000    0.000000    0.000000    0.000000
  0.045651303   -4.950069   -8.381186 -101.764106    4.969748    0.000000    0.000000    0.000000    0.000000
  0.045851703   -4.988726  -10.262825 -101.119625   11.518327    0.000000    0.000000    0.000000    0.000000
  0.046052104   -5.028751  -12.161206 -100.465404    1.090007    0.000000    0.000000    0.000000    0.000000
  0.046252505   -5.067448  -14.041873  -99.697444    2.731951    0.000000    0.000000    0.000000    0.000000
  0.046452906   -5.104926  -15.915039 -101.481735    0.901055    0.000000    0.000000    0.000000    0.000000
  0.046653307   -5.139508  -17.773458 -101.134373   15.901074    0.000000    0.000000    0.000000    0.000000
  0.046853707   -5.172282  -19.644514 -101.168457    2.512412    0.000000    0.000000    0.000000    0.000000
  0.047054108   -5.204611  -21.483801 -100.463710    5.296998    0.000000    0.000000    0.000000    0.000000
  0.047254509   -5.234911  -23.333914 -101.117443  -19.281557    0.000000    0.000000    0.000000    0.000000
  0.047454910   -5.263011  -25.141302 -100.242532   -1.228903    0.000000    0.000000    0.000000    0.000000
  0.047655311   -5.291749  -26.967854 -100.780602    4.533619    0.000000    0.000000    0.000000    0.000000
  0.047855711   -5.319793  -28.728233 -102.817484  -15.388613    0.000000    0.000000    0.000000    0.000000
  0.048056112   -5.347047  -30.489300 -103.075830   10.410715    0.000000    0.000000    0.000000    0.000000
  0.048256513   -5.373650  -32.254318 -100.443576  -11.824153    0.000000    0.000000    0.000000    0.000000
  0.048456914   -5.402502  -33.992424 -103.947454   -3.235627    0.000000    0.000000    0.000000    0.000000
  0.048657315   -5.431540  -35.748764 -102.191734   -3.925925    0.000000    0.000000    0.000000    0.000000
  0.048857715   -5.455065  -37.499557 -101.768049   -0.851259    0.000000    0.000000    0.000000    0.000000
  0.049058116   -5.480730  -39.247295 -105.128689   14.637580    0.000000    0.000000    0.000000    0.000000
  0.049258517   -5.501142  -40.961147 -104.814220   11.612219    0.000000    0.000000    0.000000    0.000000
  0.049458918   -5.525577  -42.682213 -104.594676   -0.175100    0.000000    0.000000    0.000000    0.000000
  0.049659319   -5.550595  -44.321342 -103.488132   13.609629    0.000000    0.000000    0.000000    0.000000
  0.049859719   -5.577229  -46.016479 -104.561081   12.135086    0.000000    0.000000    0.000000    0.000000
  0.050060120   -5.596672  -47.699902 -101.084906    4.668657    0.000000    0.000000    0.000000    0.000000
  0.050260521   -5.619427  -49.394112 -104.065238    1.370328    0.000000    0.000000    0.000000    0.000000
  0.050460922   -5.636358  -51.092541 -101.035759    5.818759    0.000000    0.000000    0.000000    0.000000
  0.050661323   -5.650208  -52.771774 -102.100614    6.682393    0.000000    0.000000    0.000000    0.000000
  0.050861723   -5.663589  -54.440308 -103.923602    1.909500    0.000000    0.000000    0.000000    0.000000
  0.051062124   -5.680904  -56.081013 -102.888270   -0.037270    0.000000    0.000000    0.000000    0.000000
  0.051262525   -5.693996  -57.685730 -101.296625   16.756556    0.000000    0.000000    0.000000    0.000000
  0.051462926   -5.708578  -59.260811 -102.725597    8.198858    0.000000    0.000000    0.000000    0.000000
  0.051663327   -5.721729  -60.825771 -102.051356   -3.708561    0.000000    0.000000    0.000000    0.000000
  0.051863727   -5.738470  -62.380699 -101.847596   18.358093    0.000000    0.000000    0.000000    0.000000
  0.052064128   -5.752231  -63.930439 -107.251460    4.529532    0.000000    0.000000    0.000000    0.000000
  0.052264529   -5.770865  -65.466187 -103.428374  -10.795832    0.000000    0.000000    0.000000    0.000000
  0.052464930   -5.785873  -67.009460 -103.355539    4.355503    0.000000    0.000000    0.000000    0.000000
  0.052665331   -5.802204  -68.577522 -104.301766   -5.747836    0.000000    0.000000    0.000000    0.000000
  0.052865731   -5.822530  -70.116714 -101.215715    2.701594    0.000000    0.000000    0.000000    0.000000
