! Anritsu VNA Master:                     Model: MS2036C/10/77
! SN:                                  1601066
! /bd0/18may07/256.ew.m12.s2p
! Existing Calibration Information:
! TYPE:                         Current Settings,       Active Cal Settings
! TIME:             	   05/07/2018 02:27:05 PM,    05/07/2018 02:21:54 PM
! INTERNAL TEMP:    	                   56.5 C,                    55.5 C
! # POINTS:         	                      500,                       500
! START FREQ:       	               20.000 MHz,                20.000 MHz
! STOP FREQ:        	              120.000 MHz,               120.000 MHz
! SOURCE POWER:     	                     High,                      High
! IFBW:             	                    50 Hz,                     50 Hz
! AVG FACTOR:       	                       1 ,                        1 
! REF PLANE 1:      	                     0 mm,                      0 mm
! REF PLANE 2:      	                     0 mm,                      0 mm
! CAL TYPE:         	                 Full S11,                  Full S11
! CAL METHOD:       	                     SOLT,                      SOLT
! CAL LINE TYPE:    	                     Coax,                      Coax
! DUT PORT 1:       	                K-Conn(F),                 K-Conn(F)
! DUT PORT 2:       	                K-Conn(F),                 K-Conn(F)
! CAL STATUS:       	        OK: Accuracy High,                        --
# GHZ S DB R 50.0
! FREQ.GHZ       S11DB        S11A       S21DB        S21A       S12DB        S12A       S22DB        S22A
  0.020000000   -0.636856 -126.157120  -91.100702   30.704792    0.000000    0.000000    0.000000    0.000000
  0.020200401   -0.636640 -127.622757  -91.009988   27.245171    0.000000    0.000000    0.000000    0.000000
  0.020400802   -0.636184 -129.094513  -91.678182   24.871319    0.000000    0.000000    0.000000    0.000000
  0.020601202   -0.639420 -130.547806  -92.295317   31.996077    0.000000    0.000000    0.000000    0.000000
  0.020801603   -0.644876 -132.048599  -92.250275   30.415339    0.000000    0.000000    0.000000    0.000000
  0.021002004   -0.652498 -133.558960  -92.404064   28.306065    0.000000    0.000000    0.000000    0.000000
  0.021202405   -0.657947 -135.103607  -92.262451   30.587261    0.000000    0.000000    0.000000    0.000000
  0.021402806   -0.664946 -136.636307  -92.392666   29.157568    0.000000    0.000000    0.000000    0.000000
  0.021603206   -0.670213 -138.166626  -93.105164   34.594803    0.000000    0.000000    0.000000    0.000000
  0.021803607   -0.674858 -139.696304  -92.941518   34.087303    0.000000    0.000000    0.000000    0.000000
  0.022004008   -0.682343 -141.239288  -92.496453   32.149643    0.000000    0.000000    0.000000    0.000000
  0.022204409   -0.689982 -142.784943  -93.671107   36.551659    0.000000    0.000000    0.000000    0.000000
  0.022404810   -0.694456 -144.357849  -93.396213   35.758305    0.000000    0.000000    0.000000    0.000000
  0.022605210   -0.695917 -145.950638  -93.187502   35.440304    0.000000    0.000000    0.000000    0.000000
  0.022805611   -0.701013 -147.551346  -92.546468   37.872684    0.000000    0.000000    0.000000    0.000000
  0.023006012   -0.705778 -149.143982  -93.238864   30.519365    0.000000    0.000000    0.000000    0.000000
  0.023206413   -0.710035 -150.735565  -92.677861   31.989649    0.000000    0.000000    0.000000    0.000000
  0.023406814   -0.714060 -152.318634  -92.350568   30.273737    0.000000    0.000000    0.000000    0.000000
  0.023607214   -0.718244 -153.910446  -92.534737   34.140781    0.000000    0.000000    0.000000    0.000000
  0.023807615   -0.724772 -155.506531  -93.648817   25.389534    0.000000    0.000000    0.000000    0.000000
  0.024008016   -0.735534 -157.134048  -92.768981   32.017693    0.000000    0.000000    0.000000    0.000000
  0.024208417   -0.745992 -158.759659  -93.180306   24.224279    0.000000    0.000000    0.000000    0.000000
  0.024408818   -0.756084 -160.412018  -92.853646   29.341345    0.000000    0.000000    0.000000    0.000000
  0.024609218   -0.764406 -162.062958  -92.712473   23.075420    0.000000    0.000000    0.000000    0.000000
  0.024809619   -0.774191 -163.730652  -93.579129   23.303667    0.000000    0.000000    0.000000    0.000000
  0.025010020   -0.786742 -165.386200  -93.343986   22.713932    0.000000    0.000000    0.000000    0.000000
  0.025210421   -0.798647 -167.049103  -93.419394   15.586224    0.000000    0.000000    0.000000    0.000000
  0.025410822   -0.812740 -168.733627  -94.561023   19.180426    0.000000    0.000000    0.000000    0.000000
  0.025611222   -0.826729 -170.432892  -94.738790   15.889487    0.000000    0.000000    0.000000    0.000000
  0.025811623   -0.841308 -172.146332  -95.175750   14.590520    0.000000    0.000000    0.000000    0.000000
  0.026012024   -0.852433 -173.875549  -94.358468   11.321113    0.000000    0.000000    0.000000    0.000000
  0.026212425   -0.863001 -175.599777  -95.400000   11.430587    0.000000    0.000000    0.000000    0.000000
  0.026412826   -0.876188 -177.333115  -95.652392   15.090683    0.000000    0.000000    0.000000    0.000000
  0.026613226   -0.891539 -179.078354  -96.111603   22.240892    0.000000    0.000000    0.000000    0.000000
  0.026813627   -0.908530  179.153885  -95.746373   18.749100    0.000000    0.000000    0.000000    0.000000
  0.027014028   -0.926395  177.392593  -96.447339   15.342020    0.000000    0.000000    0.000000    0.000000
  0.027214429   -0.943917  175.604584  -96.809466   21.493244    0.000000    0.000000    0.000000    0.000000
  0.027414830   -0.959717  173.814407  -96.536420   19.149347    0.000000    0.000000    0.000000    0.000000
  0.027615230   -0.977446  172.025360  -96.517010   20.304136    0.000000    0.000000    0.000000    0.000000
  0.027815631   -0.996908  170.199829  -96.898285   14.089799    0.000000    0.000000    0.000000    0.000000
  0.028016032   -1.018482  168.382507  -96.676211   21.475077    0.000000    0.000000    0.000000    0.000000
  0.028216433   -1.040735  166.558838  -96.417764   17.964525    0.000000    0.000000    0.000000    0.000000
  0.028416834   -1.061664  164.718826  -96.818581   25.750282    0.000000    0.000000    0.000000    0.000000
  0.028617234   -1.083655  162.888641  -95.535240   25.437735    0.000000    0.000000    0.000000    0.000000
  0.028817635   -1.103845  161.057755  -97.313779   25.297073    0.000000    0.000000    0.000000    0.000000
  0.029018036   -1.124141  159.231201  -96.354359   17.469185    0.000000    0.000000    0.000000    0.000000
  0.029218437   -1.146161  157.414474  -96.704848   19.838945    0.000000    0.000000    0.000000    0.000000
  0.029418838   -1.169036  155.587463  -96.348885   16.547348    0.000000    0.000000    0.000000    0.000000
  0.029619238   -1.195338  153.755356  -96.194566   20.793720    0.000000    0.000000    0.000000    0.000000
  0.029819639   -1.223974  151.888153  -96.755750   17.517200    0.000000    0.000000    0.000000    0.000000
  0.030020040   -1.254327  150.006165  -96.335973   14.543812    0.000000    0.000000    0.000000    0.000000
  0.030220441   -1.285633  148.084381  -96.258966   13.391632    0.000000    0.000000    0.000000    0.000000
  0.030420842   -1.314869  146.166855  -96.787914   11.868338    0.000000    0.000000    0.000000    0.000000
  0.030621242   -1.345431  144.261139  -96.816998   13.298492    0.000000    0.000000    0.000000    0.000000
  0.030821643   -1.377476  142.356354  -96.564178   12.341334    0.000000    0.000000    0.000000    0.000000
  0.031022044   -1.411551  140.423950  -97.746469    8.002853    0.000000    0.000000    0.000000    0.000000
  0.031222445   -1.440710  138.521851  -97.466830    6.388976    0.000000    0.000000    0.000000    0.000000
  0.031422846   -1.477943  136.521988  -96.056810    8.501474    0.000000    0.000000    0.000000    0.000000
  0.031623246   -1.515526  134.540253  -96.870153   17.323908    0.000000    0.000000    0.000000    0.000000
  0.031823647   -1.553005  132.543030  -97.487604   14.580229    0.000000    0.000000    0.000000    0.000000
  0.032024048   -1.587068  130.546951  -98.954237    7.747257    0.000000    0.000000    0.000000    0.000000
  0.032224449   -1.621485  128.537704  -97.755018    2.338472    0.000000    0.000000    0.000000    0.000000
  0.032424850   -1.659084  126.533829  -98.004398    8.908285    0.000000    0.000000    0.000000    0.000000
  0.032625251   -1.691972  124.543770  -97.563234    8.446298    0.000000    0.000000    0.000000    0.000000
  0.032825651   -1.729358  122.538567  -99.246302    7.575342    0.000000    0.000000    0.000000    0.000000
  0.033026052   -1.768966  120.568054  -97.879392   10.532605    0.000000    0.000000    0.000000    0.000000
  0.033226453   -1.810444  118.572533 -101.089414   14.655497    0.000000    0.000000    0.000000    0.000000
  0.033426854   -1.855657  116.588211  -98.291138   12.711250    0.000000    0.000000    0.000000    0.000000
  0.033627255   -1.909053  114.589005  -98.825070   18.459446    0.000000    0.000000    0.000000    0.000000
  0.033827655   -1.958157  112.580040  -98.606918   11.496195    0.000000    0.000000    0.000000    0.000000
  0.034028056   -2.011099  110.514236  -98.753113   11.866142    0.000000    0.000000    0.000000    0.000000
  0.034228457   -2.060984  108.437614  -99.325768    6.466624    0.000000    0.000000    0.000000    0.000000
  0.034428858   -2.110225  106.321228  -99.171310   16.200880    0.000000    0.000000    0.000000    0.000000
  0.034629259   -2.157932  104.181923  -98.933496   12.946691    0.000000    0.000000    0.000000    0.000000
  0.034829659   -2.202744  102.063194  -97.913893   15.831262    0.000000    0.000000    0.000000    0.000000
  0.035030060   -2.248897   99.935165  -98.342285    6.607764    0.000000    0.000000    0.000000    0.000000
  0.035230461   -2.291342   97.841049  -97.120732    7.591437    0.000000    0.000000    0.000000    0.000000
  0.035430862   -2.333902   95.745728  -99.310876   14.305962    0.000000    0.000000    0.000000    0.000000
  0.035631263   -2.375956   93.663406  -98.528567   12.511181    0.000000    0.000000    0.000000    0.000000
  0.035831663   -2.420604   91.584167  -97.938933    6.125116    0.000000    0.000000    0.000000    0.000000
  0.036032064   -2.463612   89.520485  -98.258985    7.922329    0.000000    0.000000    0.000000    0.000000
  0.036232465   -2.508730   87.446350  -99.183324    3.275928    0.000000    0.000000    0.000000    0.000000
  0.036432866   -2.558025   85.393341  -99.624578    2.665397    0.000000    0.000000    0.000000    0.000000
  0.036633267   -2.607051   83.371880  -99.737211    5.666676    0.000000    0.000000    0.000000    0.000000
  0.036833667   -2.661545   81.324844  -99.304619   -3.750973    0.000000    0.000000    0.000000    0.000000
  0.037034068   -2.716884   79.280449  -99.817916    9.057921    0.000000    0.000000    0.000000    0.000000
  0.037234469   -2.776392   77.217834  -99.815051    8.817010    0.000000    0.000000    0.000000    0.000000
  0.037434870   -2.836760   75.135551 -101.425596   -3.141787    0.000000    0.000000    0.000000    0.000000
  0.037635271   -2.897080   73.018188  -99.668257   -2.578781    0.000000    0.000000    0.000000    0.000000
  0.037835671   -2.957313   70.886604  -98.823814    2.128496    0.000000    0.000000    0.000000    0.000000
  0.038036072   -3.019625   68.738373 -100.158796   -4.091921    0.000000    0.000000    0.000000    0.000000
  0.038236473   -3.077972   66.564629 -101.161967    6.281998    0.000000    0.000000    0.000000    0.000000
  0.038436874   -3.136825   64.419182 -100.244347    5.487258    0.000000    0.000000    0.000000    0.000000
  0.038637275   -3.191225   62.248985 -100.817713   10.793807    0.000000    0.000000    0.000000    0.000000
  0.038837675   -3.242487   60.122795 -100.572920    6.563803    0.000000    0.000000    0.000000    0.000000
  0.039038076   -3.289438   58.029587  -99.215077   14.368056    0.000000    0.000000    0.000000    0.000000
  0.039238477   -3.334904   55.954208  -98.145338    0.783168    0.000000    0.000000    0.000000    0.000000
  0.039438878   -3.385308   53.870571  -98.636693   10.966476    0.000000    0.000000    0.000000    0.000000
  0.039639279   -3.435187   51.848392 -100.387210   14.419238    0.000000    0.000000    0.000000    0.000000
  0.039839679   -3.494412   49.796558 -100.460008   12.678575    0.000000    0.000000    0.000000    0.000000
  0.040040080   -3.552457   47.723137  -99.821659    2.616951    0.000000    0.000000    0.000000    0.000000
  0.040240481   -3.613196   45.666851 -101.146007    2.967945    0.000000    0.000000    0.000000    0.000000
  0.040440882   -3.672713   43.568153  -99.386583   -1.274981    0.000000    0.000000    0.000000    0.000000
  0.040641283   -3.732033   41.501617  -99.893951    2.806537    0.000000    0.000000    0.000000    0.000000
  0.040841683   -3.789282   39.410847  -98.668719   -5.418648    0.000000    0.000000    0.000000    0.000000
  0.041042084   -3.848427   37.339199 -102.288538   10.357596    0.000000    0.000000    0.000000    0.000000
  0.041242485   -3.904162   35.262730 -100.413632    6.119867    0.000000    0.000000    0.000000    0.000000
  0.041442886   -3.958915   33.195671 -100.140912    3.148168    0.000000    0.000000    0.000000    0.000000
  0.041643287   -4.013876   31.112082 -100.764106   -2.920674    0.000000    0.000000    0.000000    0.000000
  0.041843687   -4.064537   29.047626 -100.803001    7.192349    0.000000    0.000000    0.000000    0.000000
  0.042044088   -4.117151   26.994413 -101.234003    6.028384    0.000000    0.000000    0.000000    0.000000
  0.042244489   -4.165851   24.960602 -100.289288    3.016289    0.000000    0.000000    0.000000    0.000000
  0.042444890   -4.217536   22.935081 -100.807064    5.301011    0.000000    0.000000    0.000000    0.000000
  0.042645291   -4.266513   20.917751 -101.318251   -0.876816    0.000000    0.000000    0.000000    0.000000
  0.042845691   -4.317719   18.926657 -103.829654    3.814842    0.000000    0.000000    0.000000    0.000000
  0.043046092   -4.367339   16.927101 -102.166898   -3.196212    0.000000    0.000000    0.000000    0.000000
  0.043246493   -4.416788   14.910288 -102.027077   12.913738    0.000000    0.000000    0.000000    0.000000
  0.043446894   -4.464436   12.937521 -102.116627    5.608578    0.000000    0.000000    0.000000    0.000000
  0.043647295   -4.512667   10.956524 -100.906934   -0.405967    0.000000    0.000000    0.000000    0.000000
  0.043847695   -4.561046    8.981496 -104.018190   14.612575    0.000000    0.000000    0.000000    0.000000
  0.044048096   -4.609609    6.993852 -102.491776   11.924512    0.000000    0.000000    0.000000    0.000000
  0.044248497   -4.656999    5.031538 -102.557371    7.708801    0.000000    0.000000    0.000000    0.000000
  0.044448898   -4.703705    3.088174 -103.395605   14.855821    0.000000    0.000000    0.000000    0.000000
  0.044649299   -4.748983    1.145844 -101.052045   10.455783    0.000000    0.000000    0.000000    0.000000
  0.044849699   -4.792989   -0.796136 -102.754570    8.044993    0.000000    0.000000    0.000000    0.000000
  0.045050100   -4.834521   -2.731894 -102.118886   14.004515    0.000000    0.000000    0.000000    0.000000
  0.045250501   -4.873016   -4.670633 -101.618424    1.337976    0.000000    0.000000    0.000000    0.000000
  0.045450902   -4.914494   -6.564645 -102.946482    8.718691    0.000000    0.000000    0.000000    0.000000
  0.045651303   -4.956441   -8.466049 -100.982022    1.426015    0.000000    0.000000    0.000000    0.000000
  0.045851703   -4.999027  -10.351245  -99.898529   18.118940    0.000000    0.000000    0.000000    0.000000
  0.046052104   -5.038853  -12.237354 -101.970614   12.065284    0.000000    0.000000    0.000000    0.000000
  0.046252505   -5.075884  -14.120228 -102.365669   14.045805    0.000000    0.000000    0.000000    0.000000
  0.046452906   -5.116006  -15.989379 -100.224457   11.280967    0.000000    0.000000    0.000000    0.000000
  0.046653307   -5.152045  -17.863596 -101.280420   -0.571039    0.000000    0.000000    0.000000    0.000000
  0.046853707   -5.184360  -19.729908 -102.410225   -0.806841    0.000000    0.000000    0.000000    0.000000
  0.047054108   -5.220604  -21.573456 -102.336129   -2.100236    0.000000    0.000000    0.000000    0.000000
  0.047254509   -5.252166  -23.420784 -101.733661  -16.489185    0.000000    0.000000    0.000000    0.000000
  0.047454910   -5.283192  -25.241682 -100.619353   -3.598884    0.000000    0.000000    0.000000    0.000000
  0.047655311   -5.313448  -27.060369 -102.076878   -2.657523    0.000000    0.000000    0.000000    0.000000
  0.047855711   -5.342275  -28.829132 -102.928253   -3.958289    0.000000    0.000000    0.000000    0.000000
  0.048056112   -5.371214  -30.599022 -101.521754  -15.780760    0.000000    0.000000    0.000000    0.000000
  0.048256513   -5.402349  -32.351833 -102.298174   -5.981611    0.000000    0.000000    0.000000    0.000000
  0.048456914   -5.431157  -34.104664 -104.295665   20.588408    0.000000    0.000000    0.000000    0.000000
  0.048657315   -5.460846  -35.843601 -102.504377    2.824307    0.000000    0.000000    0.000000    0.000000
  0.048857715   -5.485161  -37.601303 -102.423275   -0.523750    0.000000    0.000000    0.000000    0.000000
  0.049058116   -5.512830  -39.355656 -105.554740   -3.128396    0.000000    0.000000    0.000000    0.000000
  0.049258517   -5.537738  -41.087585 -104.950954   -8.335875    0.000000    0.000000    0.000000    0.000000
  0.049458918   -5.562412  -42.807819 -104.355782    1.691528    0.000000    0.000000    0.000000    0.000000
  0.049659319   -5.588130  -44.513229 -102.503933    5.082108    0.000000    0.000000    0.000000    0.000000
  0.049859719   -5.611150  -46.222549 -104.442865   -6.129878    0.000000    0.000000    0.000000    0.000000
  0.050060120   -5.634860  -47.917526 -105.620220   11.834937    0.000000    0.000000    0.000000    0.000000
  0.050260521   -5.657083  -49.606945 -102.643819   17.567410    0.000000    0.000000    0.000000    0.000000
  0.050460922   -5.675782  -51.307426 -104.860950   19.172215    0.000000    0.000000    0.000000    0.000000
  0.050661323   -5.693359  -52.968834 -104.243456    9.591703    0.000000    0.000000    0.000000    0.000000
  0.050861723   -5.708105  -54.619492 -101.972285    1.648364    0.000000    0.000000    0.000000    0.000000
  0.051062124   -5.722265  -56.278488 -101.331714   13.186615    0.000000    0.000000    0.000000    0.000000
  0.051262525   -5.736792  -57.874500 -101.838745   -0.369392    0.000000    0.000000    0.000000    0.000000
  0.051462926   -5.752667  -59.448814 -104.536070    4.088590    0.000000    0.000000    0.000000    0.000000
  0.051663327   -5.768314  -61.008499 -100.838445    7.060891    0.000000    0.000000    0.000000    0.000000
  0.051863727   -5.781177  -62.580379 -102.623692   28.077524    0.000000    0.000000    0.000000    0.000000
  0.052064128   -5.796594  -64.123169 -102.227608    5.025592    0.000000    0.000000    0.000000    0.000000
  0.052264529   -5.812186  -65.655670 -101.380157    2.465343    0.000000    0.000000    0.000000    0.000000
  0.052464930   -5.828097  -67.168739 -103.097498   10.956095    0.000000    0.000000    0.000000    0.000000
  0.052665331   -5.841334  -68.725670 -101.733736   -6.147676    0.000000    0.000000    0.000000    0.000000
  0.052865731   -5.858300  -70.267700 -103.457512    5.050155    0.000000    0.000000    0.000000    0.000000
