! Anritsu VNA Master:                     Model: MS2036C/10/77
! SN:                                  1601066
! /bd0/18may07/256.ew.m5.s2p
! Existing Calibration Information:
! TYPE:                         Current Settings,       Active Cal Settings
! TIME:             	   05/07/2018 12:08:10 PM,    05/07/2018 12:05:13 PM
! INTERNAL TEMP:    	                   53.8 C,                    53.5 C
! # POINTS:         	                      500,                       500
! START FREQ:       	               20.000 MHz,                20.000 MHz
! STOP FREQ:        	              120.000 MHz,               120.000 MHz
! SOURCE POWER:     	                     High,                      High
! IFBW:             	                    50 Hz,                     50 Hz
! AVG FACTOR:       	                       1 ,                        1 
! REF PLANE 1:      	                     0 mm,                      0 mm
! REF PLANE 2:      	                     0 mm,                      0 mm
! CAL TYPE:         	                 Full S11,                  Full S11
! CAL METHOD:       	                     SOLT,                      SOLT
! CAL LINE TYPE:    	                     Coax,                      Coax
! DUT PORT 1:       	                K-Conn(F),                 K-Conn(F)
! DUT PORT 2:       	                K-Conn(F),                 K-Conn(F)
! CAL STATUS:       	        OK: Accuracy High,                        --
# GHZ S DB R 50.0
! FREQ.GHZ       S11DB        S11A       S21DB        S21A       S12DB        S12A       S22DB        S22A
  0.020000000   -0.622750 -125.855400  -91.245758   30.926851    0.000000    0.000000    0.000000    0.000000
  0.020200401   -0.621088 -127.318962  -91.468200   27.953688    0.000000    0.000000    0.000000    0.000000
  0.020400802   -0.621774 -128.774216  -91.426504   26.336254    0.000000    0.000000    0.000000    0.000000
  0.020601202   -0.623677 -130.237137  -91.777842   24.731396    0.000000    0.000000    0.000000    0.000000
  0.020801603   -0.627835 -131.741440  -92.045698   29.106585    0.000000    0.000000    0.000000    0.000000
  0.021002004   -0.632794 -133.258438  -92.269960   29.712456    0.000000    0.000000    0.000000    0.000000
  0.021202405   -0.640545 -134.783615  -92.827996   27.265717    0.000000    0.000000    0.000000    0.000000
  0.021402806   -0.647103 -136.319458  -93.243594   33.888119    0.000000    0.000000    0.000000    0.000000
  0.021603206   -0.651402 -137.852264  -93.883222   28.602819    0.000000    0.000000    0.000000    0.000000
  0.021803607   -0.656354 -139.390259  -93.698003   36.526653    0.000000    0.000000    0.000000    0.000000
  0.022004008   -0.663038 -140.925949  -93.592050   33.974575    0.000000    0.000000    0.000000    0.000000
  0.022204409   -0.669331 -142.479355  -93.652069   36.446026    0.000000    0.000000    0.000000    0.000000
  0.022404810   -0.673714 -144.052902  -92.798361   37.538620    0.000000    0.000000    0.000000    0.000000
  0.022605210   -0.679810 -145.646347  -92.815892   32.424206    0.000000    0.000000    0.000000    0.000000
  0.022805611   -0.685528 -147.240326  -92.386634   31.519667    0.000000    0.000000    0.000000    0.000000
  0.023006012   -0.689672 -148.835999  -93.581932   33.316708    0.000000    0.000000    0.000000    0.000000
  0.023206413   -0.691899 -150.414612  -92.499972   34.228512    0.000000    0.000000    0.000000    0.000000
  0.023406814   -0.694233 -152.003006  -92.757756   30.352161    0.000000    0.000000    0.000000    0.000000
  0.023607214   -0.698277 -153.591064  -92.290229   34.019619    0.000000    0.000000    0.000000    0.000000
  0.023807615   -0.706910 -155.199158  -93.258528   26.701052    0.000000    0.000000    0.000000    0.000000
  0.024008016   -0.715756 -156.815765  -93.891905   25.382910    0.000000    0.000000    0.000000    0.000000
  0.024208417   -0.726912 -158.445465  -92.510084   25.054377    0.000000    0.000000    0.000000    0.000000
  0.024408818   -0.735765 -160.082901  -93.161949   25.803030    0.000000    0.000000    0.000000    0.000000
  0.024609218   -0.745374 -161.732422  -93.118042   25.268328    0.000000    0.000000    0.000000    0.000000
  0.024809619   -0.754312 -163.386902  -93.332224   25.732450    0.000000    0.000000    0.000000    0.000000
  0.025010020   -0.767237 -165.037048  -94.132559   21.050840    0.000000    0.000000    0.000000    0.000000
  0.025210421   -0.779949 -166.694839  -94.284679   18.290754    0.000000    0.000000    0.000000    0.000000
  0.025410822   -0.793791 -168.377518  -94.039171   14.931109    0.000000    0.000000    0.000000    0.000000
  0.025611222   -0.807010 -170.064362  -94.914525   15.801636    0.000000    0.000000    0.000000    0.000000
  0.025811623   -0.821451 -171.778381  -95.023572   17.030729    0.000000    0.000000    0.000000    0.000000
  0.026012024   -0.832832 -173.503555  -94.945450   18.572395    0.000000    0.000000    0.000000    0.000000
  0.026212425   -0.844589 -175.231873  -95.050400   18.276798    0.000000    0.000000    0.000000    0.000000
  0.026412826   -0.858138 -176.957672  -94.837487   11.751187    0.000000    0.000000    0.000000    0.000000
  0.026613226   -0.874060 -178.700134  -95.033525   20.233116    0.000000    0.000000    0.000000    0.000000
  0.026813627   -0.889030  179.536423  -96.252451   12.714823    0.000000    0.000000    0.000000    0.000000
  0.027014028   -0.907201  177.767059  -96.774967   20.721289    0.000000    0.000000    0.000000    0.000000
  0.027214429   -0.924387  175.988693  -96.100632   22.665129    0.000000    0.000000    0.000000    0.000000
  0.027414830   -0.942601  174.189056  -96.029023   20.321438    0.000000    0.000000    0.000000    0.000000
  0.027615230   -0.959567  172.390961  -95.809009   17.713301    0.000000    0.000000    0.000000    0.000000
  0.027815631   -0.980500  170.564865  -96.610780   26.135479    0.000000    0.000000    0.000000    0.000000
  0.028016032   -1.001041  168.748993  -96.490937   20.070280    0.000000    0.000000    0.000000    0.000000
  0.028216433   -1.023476  166.905426  -96.226874   20.096933    0.000000    0.000000    0.000000    0.000000
  0.028416834   -1.046248  165.079178  -96.231978   25.681536    0.000000    0.000000    0.000000    0.000000
  0.028617234   -1.066376  163.238892  -96.231267   20.891916    0.000000    0.000000    0.000000    0.000000
  0.028817635   -1.086581  161.406052  -95.697333   18.565668    0.000000    0.000000    0.000000    0.000000
  0.029018036   -1.109118  159.586029  -96.319302   22.169415    0.000000    0.000000    0.000000    0.000000
  0.029218437   -1.130273  157.768066  -96.405735   24.390429    0.000000    0.000000    0.000000    0.000000
  0.029418838   -1.153717  155.948090  -95.755605   16.347334    0.000000    0.000000    0.000000    0.000000
  0.029619238   -1.180434  154.113098  -96.308216   22.533541    0.000000    0.000000    0.000000    0.000000
  0.029819639   -1.210530  152.255356  -96.542115   16.133081    0.000000    0.000000    0.000000    0.000000
  0.030020040   -1.240929  150.362518  -96.203460   12.376502    0.000000    0.000000    0.000000    0.000000
  0.030220441   -1.270901  148.458588  -96.781367   15.826849    0.000000    0.000000    0.000000    0.000000
  0.030420842   -1.301423  146.537292  -97.347743    9.903664    0.000000    0.000000    0.000000    0.000000
  0.030621242   -1.331992  144.642242  -96.129229   15.633605    0.000000    0.000000    0.000000    0.000000
  0.030821643   -1.364941  142.743713  -98.053279   11.511051    0.000000    0.000000    0.000000    0.000000
  0.031022044   -1.398856  140.832733  -97.399318   11.411424    0.000000    0.000000    0.000000    0.000000
  0.031222445   -1.430930  138.913193  -97.062062    9.982071    0.000000    0.000000    0.000000    0.000000
  0.031422846   -1.466734  136.950928  -97.527497   14.814279    0.000000    0.000000    0.000000    0.000000
  0.031623246   -1.503594  134.960114  -97.294347   -4.287615    0.000000    0.000000    0.000000    0.000000
  0.031823647   -1.540386  132.966965  -97.946769    7.784976    0.000000    0.000000    0.000000    0.000000
  0.032024048   -1.573705  130.965378  -96.795983    5.520963    0.000000    0.000000    0.000000    0.000000
  0.032224449   -1.610151  128.974670  -97.744818    6.740008    0.000000    0.000000    0.000000    0.000000
  0.032424850   -1.645546  126.960732  -97.232644    1.357829    0.000000    0.000000    0.000000    0.000000
  0.032625251   -1.680896  124.974754  -98.648676   10.037265    0.000000    0.000000    0.000000    0.000000
  0.032825651   -1.717849  122.988091  -99.324141   12.271764    0.000000    0.000000    0.000000    0.000000
  0.033026052   -1.760354  121.004929  -97.953605   23.155155    0.000000    0.000000    0.000000    0.000000
  0.033226453   -1.800860  119.012245  -98.265018   11.739996    0.000000    0.000000    0.000000    0.000000
  0.033426854   -1.848218  117.026054  -99.032157   11.749401    0.000000    0.000000    0.000000    0.000000
  0.033627255   -1.901551  115.025795  -98.260726   17.375359    0.000000    0.000000    0.000000    0.000000
  0.033827655   -1.953974  112.990593  -98.742571   11.965076    0.000000    0.000000    0.000000    0.000000
  0.034028056   -2.003854  110.915726  -99.177533   13.352714    0.000000    0.000000    0.000000    0.000000
  0.034228457   -2.054552  108.825066 -100.212621   10.037619    0.000000    0.000000    0.000000    0.000000
  0.034428858   -2.104854  106.685318  -99.117219    8.243662    0.000000    0.000000    0.000000    0.000000
  0.034629259   -2.155506  104.555153  -99.110447   14.017904    0.000000    0.000000    0.000000    0.000000
  0.034829659   -2.198605  102.425354  -97.843976   19.881397    0.000000    0.000000    0.000000    0.000000
  0.035030060   -2.242742  100.319420  -99.771771    4.506606    0.000000    0.000000    0.000000    0.000000
  0.035230461   -2.289718   98.219170  -97.877855    8.493953    0.000000    0.000000    0.000000    0.000000
  0.035430862   -2.331868   96.103760  -97.846459   12.615909    0.000000    0.000000    0.000000    0.000000
  0.035631263   -2.374729   94.027557  -98.898239    9.271551    0.000000    0.000000    0.000000    0.000000
  0.035831663   -2.416723   91.945793  -98.369809    5.332121    0.000000    0.000000    0.000000    0.000000
  0.036032064   -2.460417   89.889877  -98.864930    8.144011    0.000000    0.000000    0.000000    0.000000
  0.036232465   -2.507532   87.838272  -98.068259    9.572135    0.000000    0.000000    0.000000    0.000000
  0.036432866   -2.555903   85.799583 -100.215509    0.562346    0.000000    0.000000    0.000000    0.000000
  0.036633267   -2.608072   83.764496  -98.885097    3.956672    0.000000    0.000000    0.000000    0.000000
  0.036833667   -2.661313   81.724380  -99.429390   16.651091    0.000000    0.000000    0.000000    0.000000
  0.037034068   -2.718990   79.666107 -101.197566    5.836192    0.000000    0.000000    0.000000    0.000000
  0.037234469   -2.777589   77.603142  -99.571320    4.901439    0.000000    0.000000    0.000000    0.000000
  0.037434870   -2.837795   75.529594  -99.438332    7.030448    0.000000    0.000000    0.000000    0.000000
  0.037635271   -2.897154   73.413345  -99.883017    2.492970    0.000000    0.000000    0.000000    0.000000
  0.037835671   -2.959875   71.284828 -100.906034    4.742148    0.000000    0.000000    0.000000    0.000000
  0.038036072   -3.019220   69.121094 -100.854898   16.412645    0.000000    0.000000    0.000000    0.000000
  0.038236473   -3.080763   66.954414 -100.441502    2.934704    0.000000    0.000000    0.000000    0.000000
  0.038436874   -3.139674   64.796295 -100.036365    3.986288    0.000000    0.000000    0.000000    0.000000
  0.038637275   -3.194206   62.660477 -101.069483    7.477012    0.000000    0.000000    0.000000    0.000000
  0.038837675   -3.243559   60.509819  -99.956830   13.602834    0.000000    0.000000    0.000000    0.000000
  0.039038076   -3.291277   58.417698  -99.772284    8.806966    0.000000    0.000000    0.000000    0.000000
  0.039238477   -3.340089   56.342800 -100.577912    5.225506    0.000000    0.000000    0.000000    0.000000
  0.039438878   -3.390010   54.286694 -100.393125    1.962789    0.000000    0.000000    0.000000    0.000000
  0.039639279   -3.442256   52.236309  -99.349975    0.483597    0.000000    0.000000    0.000000    0.000000
  0.039839679   -3.499892   50.193165  -99.584560   15.227948    0.000000    0.000000    0.000000    0.000000
  0.040040080   -3.561432   48.103729  -99.463230    8.420558    0.000000    0.000000    0.000000    0.000000
  0.040240481   -3.620209   46.032089 -100.069259   20.144819    0.000000    0.000000    0.000000    0.000000
  0.040440882   -3.680960   43.944382 -100.330379    4.852267    0.000000    0.000000    0.000000    0.000000
  0.040641283   -3.743730   41.868340  -98.213018    7.717314    0.000000    0.000000    0.000000    0.000000
  0.040841683   -3.802293   39.775806  -98.887039   -0.567546    0.000000    0.000000    0.000000    0.000000
  0.041042084   -3.859050   37.699791 -100.041116    0.497409    0.000000    0.000000    0.000000    0.000000
  0.041242485   -3.915085   35.615135 -102.303881   -0.696820    0.000000    0.000000    0.000000    0.000000
  0.041442886   -3.972371   33.528641 -102.188794    2.035066    0.000000    0.000000    0.000000    0.000000
  0.041643287   -3.970533   31.313097 -102.234864    5.434862    0.000000    0.000000    0.000000    0.000000
  0.041843687   -4.023796   29.208918  -99.352724    5.260273    0.000000    0.000000    0.000000    0.000000
  0.042044088   -4.074631   27.114058 -101.905275    6.946820    0.000000    0.000000    0.000000    0.000000
  0.042244489   -4.125602   25.050949 -101.310336    3.643049    0.000000    0.000000    0.000000    0.000000
  0.042444890   -4.179473   22.985912 -101.076785    7.234046    0.000000    0.000000    0.000000    0.000000
  0.042645291   -4.231280   20.935028 -101.534250    1.818191    0.000000    0.000000    0.000000    0.000000
  0.042845691   -4.284297   18.904772 -102.871465   -2.339658    0.000000    0.000000    0.000000    0.000000
  0.043046092   -4.339215   16.870739 -101.444277    4.314150    0.000000    0.000000    0.000000    0.000000
  0.043246493   -4.390922   14.846354 -103.103086   -8.742582    0.000000    0.000000    0.000000    0.000000
  0.043446894   -4.443280   12.830613 -101.999322    2.711235    0.000000    0.000000    0.000000    0.000000
  0.043647295   -4.499632   10.836458 -101.170305    8.377487    0.000000    0.000000    0.000000    0.000000
  0.043847695   -4.551519    8.842324 -103.316986   12.538231    0.000000    0.000000    0.000000    0.000000
  0.044048096   -4.604134    6.859910 -101.677501    1.641293    0.000000    0.000000    0.000000    0.000000
  0.044248497   -4.657078    4.882672 -102.177289    7.888312    0.000000    0.000000    0.000000    0.000000
  0.044448898   -4.708006    2.942786 -102.822626   -1.328890    0.000000    0.000000    0.000000    0.000000
  0.044649299   -4.758438    0.988643 -101.867172   11.529074    0.000000    0.000000    0.000000    0.000000
  0.044849699   -4.805245   -0.928971 -101.319754   10.138913    0.000000    0.000000    0.000000    0.000000
  0.045050100   -4.853928   -2.877900  -99.707421    6.903376    0.000000    0.000000    0.000000    0.000000
  0.045250501   -4.897979   -4.800954 -103.253597    5.409413    0.000000    0.000000    0.000000    0.000000
  0.045450902   -4.941401   -6.694426 -100.206797    4.079281    0.000000    0.000000    0.000000    0.000000
  0.045651303   -4.984276   -8.586456 -101.277197    4.287732    0.000000    0.000000    0.000000    0.000000
  0.045851703   -5.026346  -10.469839 -100.577758    2.438268    0.000000    0.000000    0.000000    0.000000
  0.046052104   -5.068835  -12.347707  -99.524153   10.725121    0.000000    0.000000    0.000000    0.000000
  0.046252505   -5.108425  -14.211897 -101.301236   10.234006    0.000000    0.000000    0.000000    0.000000
  0.046452906   -5.149063  -16.070757 -100.873339   -9.072533    0.000000    0.000000    0.000000    0.000000
  0.046653307   -5.188245  -17.930882 -101.659444   10.492727    0.000000    0.000000    0.000000    0.000000
  0.046853707   -5.224485  -19.778072 -101.103199   -3.791352    0.000000    0.000000    0.000000    0.000000
  0.047054108   -5.258610  -21.604853 -101.137873   -0.295355    0.000000    0.000000    0.000000    0.000000
  0.047254509   -5.292729  -23.423609 -100.364692    3.296394    0.000000    0.000000    0.000000    0.000000
  0.047454910   -5.325140  -25.227797 -100.745485   -7.621624    0.000000    0.000000    0.000000    0.000000
  0.047655311   -5.353334  -27.028622 -103.694787   -1.383997    0.000000    0.000000    0.000000    0.000000
  0.047855711   -5.381936  -28.777079 -102.016594  -14.354463    0.000000    0.000000    0.000000    0.000000
  0.048056112   -5.411252  -30.510988 -102.660461  -16.304148    0.000000    0.000000    0.000000    0.000000
  0.048256513   -5.439818  -32.260735 -103.084130    7.416687    0.000000    0.000000    0.000000    0.000000
  0.048456914   -5.467940  -33.989162 -101.931852    4.878164    0.000000    0.000000    0.000000    0.000000
  0.048657315   -5.497404  -35.706169 -105.540368    7.771841    0.000000    0.000000    0.000000    0.000000
  0.048857715   -5.523763  -37.431553 -103.244272    2.215873    0.000000    0.000000    0.000000    0.000000
  0.049058116   -5.546299  -39.154121 -103.314875   -7.257202    0.000000    0.000000    0.000000    0.000000
  0.049258517   -5.568253  -40.880566 -100.855060   17.060686    0.000000    0.000000    0.000000    0.000000
  0.049458918   -5.591476  -42.561878 -104.419855   -1.559810    0.000000    0.000000    0.000000    0.000000
  0.049659319   -5.612618  -44.244656 -102.419077   -0.268576    0.000000    0.000000    0.000000    0.000000
  0.049859719   -5.638477  -45.934643 -103.892811   -1.290276    0.000000    0.000000    0.000000    0.000000
  0.050060120   -5.658719  -47.602482 -102.144946   10.320111    0.000000    0.000000    0.000000    0.000000
  0.050260521   -5.679412  -49.271873 -102.272862   21.840002    0.000000    0.000000    0.000000    0.000000
  0.050460922   -5.697838  -50.928173 -102.747256   16.842594    0.000000    0.000000    0.000000    0.000000
  0.050661323   -5.713019  -52.583244 -103.601944    3.725144    0.000000    0.000000    0.000000    0.000000
  0.050861723   -5.725657  -54.220482 -103.909040   -6.247462    0.000000    0.000000    0.000000    0.000000
  0.051062124   -5.738136  -55.868820 -101.610293   -0.475675    0.000000    0.000000    0.000000    0.000000
  0.051262525   -5.750631  -57.442280 -103.165376    6.987007    0.000000    0.000000    0.000000    0.000000
  0.051462926   -5.766414  -59.001488 -102.144898   -1.620007    0.000000    0.000000    0.000000    0.000000
  0.051663327   -5.778021  -60.562569 -102.326324   14.578178    0.000000    0.000000    0.000000    0.000000
  0.051863727   -5.787051  -62.097752 -102.865934   10.560013    0.000000    0.000000    0.000000    0.000000
  0.052064128   -5.802256  -63.623207 -102.212654    6.177624    0.000000    0.000000    0.000000    0.000000
  0.052264529   -5.813145  -65.146179 -102.272200   -6.332115    0.000000    0.000000    0.000000    0.000000
  0.052464930   -5.827065  -66.674728 -102.577334   -0.711007    0.000000    0.000000    0.000000    0.000000
  0.052665331   -5.839277  -68.235039 -102.294085    3.114514    0.000000    0.000000    0.000000    0.000000
  0.052865731   -5.853357  -69.759941 -100.891867    2.628984    0.000000    0.000000    0.000000    0.000000
