! Anritsu VNA Master:                     Model: MS2036C/10/77
! SN:                                  1601066
! /bd0/18may07/256.ew.m3.s2p
! Existing Calibration Information:
! TYPE:                         Current Settings,       Active Cal Settings
! TIME:             	   05/07/2018 11:54:01 AM,    05/07/2018 11:47:21 AM
! INTERNAL TEMP:    	                   52.8 C,                    52.0 C
! # POINTS:         	                      500,                       500
! START FREQ:       	               20.000 MHz,                20.000 MHz
! STOP FREQ:        	              120.000 MHz,               120.000 MHz
! SOURCE POWER:     	                     High,                      High
! IFBW:             	                    50 Hz,                     50 Hz
! AVG FACTOR:       	                       1 ,                        1 
! REF PLANE 1:      	                     0 mm,                      0 mm
! REF PLANE 2:      	                     0 mm,                      0 mm
! CAL TYPE:         	                 Full S11,                  Full S11
! CAL METHOD:       	                     SOLT,                      SOLT
! CAL LINE TYPE:    	                     Coax,                      Coax
! DUT PORT 1:       	                K-Conn(F),                 K-Conn(F)
! DUT PORT 2:       	                K-Conn(F),                 K-Conn(F)
! CAL STATUS:       	        OK: Accuracy High,                        --
# GHZ S DB R 50.0
! FREQ.GHZ       S11DB        S11A       S21DB        S21A       S12DB        S12A       S22DB        S22A
  0.020000000   -0.623497 -125.813248  -91.497641   33.045746    0.000000    0.000000    0.000000    0.000000
  0.020200401   -0.620722 -127.268311  -91.374815   28.471296    0.000000    0.000000    0.000000    0.000000
  0.020400802   -0.621787 -128.721405  -91.468386   27.974258    0.000000    0.000000    0.000000    0.000000
  0.020601202   -0.623330 -130.182159  -91.861139   27.911219    0.000000    0.000000    0.000000    0.000000
  0.020801603   -0.628295 -131.670563  -91.907351   27.891546    0.000000    0.000000    0.000000    0.000000
  0.021002004   -0.635449 -133.182281  -92.844243   35.370583    0.000000    0.000000    0.000000    0.000000
  0.021202405   -0.644007 -134.717224  -92.822872   26.853268    0.000000    0.000000    0.000000    0.000000
  0.021402806   -0.647298 -136.246216  -93.203610   32.778000    0.000000    0.000000    0.000000    0.000000
  0.021603206   -0.652816 -137.777298  -93.950093   33.750484    0.000000    0.000000    0.000000    0.000000
  0.021803607   -0.658384 -139.310486  -93.419362   35.442730    0.000000    0.000000    0.000000    0.000000
  0.022004008   -0.663842 -140.853653  -93.182667   37.022331    0.000000    0.000000    0.000000    0.000000
  0.022204409   -0.670430 -142.410004  -93.671620   35.915524    0.000000    0.000000    0.000000    0.000000
  0.022404810   -0.677470 -143.980560  -92.723304   38.348526    0.000000    0.000000    0.000000    0.000000
  0.022605210   -0.683206 -145.569580  -93.632173   35.914066    0.000000    0.000000    0.000000    0.000000
  0.022805611   -0.683722 -147.167480  -93.728157   34.812012    0.000000    0.000000    0.000000    0.000000
  0.023006012   -0.687722 -148.763153  -93.238821   38.231915    0.000000    0.000000    0.000000    0.000000
  0.023206413   -0.690949 -150.357376  -93.008668   32.755390    0.000000    0.000000    0.000000    0.000000
  0.023406814   -0.694109 -151.924622  -93.437023   33.436718    0.000000    0.000000    0.000000    0.000000
  0.023607214   -0.701669 -153.515701  -92.641629   32.231602    0.000000    0.000000    0.000000    0.000000
  0.023807615   -0.708665 -155.115570  -92.700967   32.570492    0.000000    0.000000    0.000000    0.000000
  0.024008016   -0.718664 -156.736908  -92.948267   30.155899    0.000000    0.000000    0.000000    0.000000
  0.024208417   -0.728319 -158.374786  -93.065561   27.709129    0.000000    0.000000    0.000000    0.000000
  0.024408818   -0.737065 -160.022980  -92.900214   21.697460    0.000000    0.000000    0.000000    0.000000
  0.024609218   -0.747487 -161.668930  -93.435891   25.903685    0.000000    0.000000    0.000000    0.000000
  0.024809619   -0.757326 -163.326614  -92.964346   22.063454    0.000000    0.000000    0.000000    0.000000
  0.025010020   -0.768494 -164.977036  -93.321255   23.249329    0.000000    0.000000    0.000000    0.000000
  0.025210421   -0.781584 -166.634628  -94.059432   21.736069    0.000000    0.000000    0.000000    0.000000
  0.025410822   -0.794009 -168.315170  -94.224331   18.889914    0.000000    0.000000    0.000000    0.000000
  0.025611222   -0.809454 -170.008606  -94.197977   15.911047    0.000000    0.000000    0.000000    0.000000
  0.025811623   -0.822044 -171.731110  -94.015213   19.440939    0.000000    0.000000    0.000000    0.000000
  0.026012024   -0.833060 -173.460602  -95.126580   17.900942    0.000000    0.000000    0.000000    0.000000
  0.026212425   -0.844528 -175.177994  -95.126058   18.546980    0.000000    0.000000    0.000000    0.000000
  0.026412826   -0.857865 -176.909897  -95.833929   17.599678    0.000000    0.000000    0.000000    0.000000
  0.026613226   -0.873070 -178.650864  -95.920309   16.539461    0.000000    0.000000    0.000000    0.000000
  0.026813627   -0.889744  179.588226  -95.871015   16.467560    0.000000    0.000000    0.000000    0.000000
  0.027014028   -0.907883  177.822739  -95.967006   19.855295    0.000000    0.000000    0.000000    0.000000
  0.027214429   -0.924672  176.033966  -95.430742   14.838473    0.000000    0.000000    0.000000    0.000000
  0.027414830   -0.940974  174.243439  -96.450662   22.907038    0.000000    0.000000    0.000000    0.000000
  0.027615230   -0.958322  172.440308  -96.471720   22.774641    0.000000    0.000000    0.000000    0.000000
  0.027815631   -0.979839  170.626495  -95.972369   20.331129    0.000000    0.000000    0.000000    0.000000
  0.028016032   -1.000172  168.803345  -96.493191   17.798395    0.000000    0.000000    0.000000    0.000000
  0.028216433   -1.022209  166.974060  -96.725510   19.776766    0.000000    0.000000    0.000000    0.000000
  0.028416834   -1.044237  165.143234  -96.087516   25.311937    0.000000    0.000000    0.000000    0.000000
  0.028617234   -1.065822  163.299652  -96.681387   20.276505    0.000000    0.000000    0.000000    0.000000
  0.028817635   -1.084145  161.475876  -96.043032   25.614687    0.000000    0.000000    0.000000    0.000000
  0.029018036   -1.105717  159.656281  -95.557876   22.499296    0.000000    0.000000    0.000000    0.000000
  0.029218437   -1.127462  157.838837  -96.000398   22.443562    0.000000    0.000000    0.000000    0.000000
  0.029418838   -1.151588  156.025909  -96.144778   16.733608    0.000000    0.000000    0.000000    0.000000
  0.029619238   -1.176901  154.184174  -96.046205   13.255940    0.000000    0.000000    0.000000    0.000000
  0.029819639   -1.206716  152.319748  -96.341400   20.020901    0.000000    0.000000    0.000000    0.000000
  0.030020040   -1.238547  150.436798  -96.335178   16.943142    0.000000    0.000000    0.000000    0.000000
  0.030220441   -1.267431  148.531647  -96.347875   12.407228    0.000000    0.000000    0.000000    0.000000
  0.030420842   -1.297322  146.619659  -96.686202    6.823056    0.000000    0.000000    0.000000    0.000000
  0.030621242   -1.329433  144.719040  -96.666472   15.395634    0.000000    0.000000    0.000000    0.000000
  0.030821643   -1.359823  142.809174  -96.330640    9.683024    0.000000    0.000000    0.000000    0.000000
  0.031022044   -1.395839  140.903931  -96.843472    7.608912    0.000000    0.000000    0.000000    0.000000
  0.031222445   -1.427131  138.993851  -97.316285    7.918551    0.000000    0.000000    0.000000    0.000000
  0.031422846   -1.463523  137.028824  -97.099118    8.882990    0.000000    0.000000    0.000000    0.000000
  0.031623246   -1.502652  135.035690  -97.332837   14.808690    0.000000    0.000000    0.000000    0.000000
  0.031823647   -1.535615  133.027206  -97.226019   11.151619    0.000000    0.000000    0.000000    0.000000
  0.032024048   -1.573265  131.036652  -98.883845   12.728288    0.000000    0.000000    0.000000    0.000000
  0.032224449   -1.607855  129.027435  -97.026930    5.576705    0.000000    0.000000    0.000000    0.000000
  0.032424850   -1.643593  127.037544  -99.020591   14.147750    0.000000    0.000000    0.000000    0.000000
  0.032625251   -1.678400  125.055916  -97.475332   12.932943    0.000000    0.000000    0.000000    0.000000
  0.032825651   -1.717770  123.056282  -98.436007   11.000788    0.000000    0.000000    0.000000    0.000000
  0.033026052   -1.755733  121.078026  -98.562598    9.834017    0.000000    0.000000    0.000000    0.000000
  0.033226453   -1.800628  119.094536  -99.408410    4.931228    0.000000    0.000000    0.000000    0.000000
  0.033426854   -1.847799  117.099861  -97.176189   12.143714    0.000000    0.000000    0.000000    0.000000
  0.033627255   -1.900335  115.085739  -98.577452   19.719694    0.000000    0.000000    0.000000    0.000000
  0.033827655   -1.953945  113.059654  -98.598662   12.485239    0.000000    0.000000    0.000000    0.000000
  0.034028056   -2.004382  110.972847  -98.541484   14.570091    0.000000    0.000000    0.000000    0.000000
  0.034228457   -2.056664  108.864265  -99.392817    4.396655    0.000000    0.000000    0.000000    0.000000
  0.034428858   -2.106146  106.725220  -98.552540    9.693044    0.000000    0.000000    0.000000    0.000000
  0.034629259   -2.153975  104.590767  -97.348681   18.064445    0.000000    0.000000    0.000000    0.000000
  0.034829659   -2.199718  102.463638  -97.913759   19.442780    0.000000    0.000000    0.000000    0.000000
  0.035030060   -2.243619  100.349731  -98.197747    9.634776    0.000000    0.000000    0.000000    0.000000
  0.035230461   -2.285248   98.236076  -98.766514   10.856354    0.000000    0.000000    0.000000    0.000000
  0.035430862   -2.328424   96.132217  -97.673197    5.682768    0.000000    0.000000    0.000000    0.000000
  0.035631263   -2.373073   94.032539  -98.775688    5.759317    0.000000    0.000000    0.000000    0.000000
  0.035831663   -2.414263   91.966316  -99.883946    9.504090    0.000000    0.000000    0.000000    0.000000
  0.036032064   -2.460106   89.889931  -98.478596    0.367858    0.000000    0.000000    0.000000    0.000000
  0.036232465   -2.504446   87.834068  -98.066017   -4.587882    0.000000    0.000000    0.000000    0.000000
  0.036432866   -2.552763   85.800995  -98.447255    6.326232    0.000000    0.000000    0.000000    0.000000
  0.036633267   -2.604541   83.771347 -100.336076    9.936769    0.000000    0.000000    0.000000    0.000000
  0.036833667   -2.657745   81.726944  -99.021566    5.644119    0.000000    0.000000    0.000000    0.000000
  0.037034068   -2.717602   79.674469 -101.364209   12.754770    0.000000    0.000000    0.000000    0.000000
  0.037234469   -2.775440   77.594872 -100.171391   11.118322    0.000000    0.000000    0.000000    0.000000
  0.037434870   -2.836932   75.513596 -100.391578   10.054926    0.000000    0.000000    0.000000    0.000000
  0.037635271   -2.893776   73.409134 -100.463953    8.134035    0.000000    0.000000    0.000000    0.000000
  0.037835671   -2.955678   71.254585 -102.594102    2.650861    0.000000    0.000000    0.000000    0.000000
  0.038036072   -3.017185   69.090714  -99.427330    6.006019    0.000000    0.000000    0.000000    0.000000
  0.038236473   -3.077746   66.957909  -99.082980   11.722759    0.000000    0.000000    0.000000    0.000000
  0.038436874   -3.134038   64.781998  -98.603382   -0.038239    0.000000    0.000000    0.000000    0.000000
  0.038637275   -3.190461   62.645866 -100.006054   12.821690    0.000000    0.000000    0.000000    0.000000
  0.038837675   -3.235010   60.516575 -101.185779   26.062937    0.000000    0.000000    0.000000    0.000000
  0.039038076   -3.285412   58.425369 -101.294111   21.362600    0.000000    0.000000    0.000000    0.000000
  0.039238477   -3.330885   56.352398 -100.265164   17.637522    0.000000    0.000000    0.000000    0.000000
  0.039438878   -3.381643   54.307911 -100.804159    8.949753    0.000000    0.000000    0.000000    0.000000
  0.039639279   -3.436719   52.270622 -101.219587    7.409733    0.000000    0.000000    0.000000    0.000000
  0.039839679   -3.492571   50.218338 -100.745409    4.929017    0.000000    0.000000    0.000000    0.000000
  0.040040080   -3.554188   48.160580  -98.918381    9.548432    0.000000    0.000000    0.000000    0.000000
  0.040240481   -3.617687   46.096996 -100.936579   10.725902    0.000000    0.000000    0.000000    0.000000
  0.040440882   -3.676404   43.997593  -98.872173   -0.435875    0.000000    0.000000    0.000000    0.000000
  0.040641283   -3.737092   41.921642 -100.567010   -2.395467    0.000000    0.000000    0.000000    0.000000
  0.040841683   -3.797588   39.825947 -100.330568   -2.431984    0.000000    0.000000    0.000000    0.000000
  0.041042084   -3.854226   37.766758  -99.434665    2.482296    0.000000    0.000000    0.000000    0.000000
  0.041242485   -3.910387   35.680092  -99.803334   -2.621133    0.000000    0.000000    0.000000    0.000000
  0.041442886   -3.967039   33.606842 -100.501051    5.837904    0.000000    0.000000    0.000000    0.000000
  0.041643287   -4.021298   31.513247  -99.705675    2.901421    0.000000    0.000000    0.000000    0.000000
  0.041843687   -4.075654   29.431839 -101.758744    7.841853    0.000000    0.000000    0.000000    0.000000
  0.042044088   -4.126302   27.367962 -100.249642   -0.273022    0.000000    0.000000    0.000000    0.000000
  0.042244489   -4.177123   25.317770 -101.934466   -6.298466    0.000000    0.000000    0.000000    0.000000
  0.042444890   -4.226426   23.306852 -100.552058   -4.134004    0.000000    0.000000    0.000000    0.000000
  0.042645291   -4.279237   21.267801 -101.745267   -2.737693    0.000000    0.000000    0.000000    0.000000
  0.042845691   -4.329865   19.261406 -100.753920    0.541657    0.000000    0.000000    0.000000    0.000000
  0.043046092   -4.380384   17.247917 -101.474341    9.537374    0.000000    0.000000    0.000000    0.000000
  0.043246493   -4.428738   15.238978 -101.618343    1.146056    0.000000    0.000000    0.000000    0.000000
  0.043446894   -4.476249   13.240262 -102.318190   -0.844066    0.000000    0.000000    0.000000    0.000000
  0.043647295   -4.523935   11.229728 -104.846679    5.699816    0.000000    0.000000    0.000000    0.000000
  0.043847695   -4.572976    9.253352 -104.288040   -0.371095    0.000000    0.000000    0.000000    0.000000
  0.044048096   -4.619994    7.273743 -102.933351   13.902033    0.000000    0.000000    0.000000    0.000000
  0.044248497   -4.668712    5.299148 -104.803453    0.243620    0.000000    0.000000    0.000000    0.000000
  0.044448898   -4.714926    3.324347 -100.799564    8.206622    0.000000    0.000000    0.000000    0.000000
  0.044649299   -4.758755    1.385045 -104.264061    3.909352    0.000000    0.000000    0.000000    0.000000
  0.044849699   -4.802390   -0.561368 -103.623668   17.260387    0.000000    0.000000    0.000000    0.000000
  0.045050100   -4.842030   -2.523057 -101.132791   -3.794431    0.000000    0.000000    0.000000    0.000000
  0.045250501   -4.879296   -4.453274 -100.738375   16.344484    0.000000    0.000000    0.000000    0.000000
  0.045450902   -4.913908   -6.373974  -99.085668   10.531794    0.000000    0.000000    0.000000    0.000000
  0.045651303   -4.952401   -8.287330 -101.190845    7.485389    0.000000    0.000000    0.000000    0.000000
  0.045851703   -4.990615  -10.179408 -101.630100   19.706781    0.000000    0.000000    0.000000    0.000000
  0.046052104   -5.029602  -12.067366 -103.001801    5.858656    0.000000    0.000000    0.000000    0.000000
  0.046252505   -5.066792  -13.934342 -101.223121    5.267406    0.000000    0.000000    0.000000    0.000000
  0.046452906   -5.104111  -15.815525 -100.556041   10.804932    0.000000    0.000000    0.000000    0.000000
  0.046653307   -5.138123  -17.665329 -103.259414    1.935007    0.000000    0.000000    0.000000    0.000000
  0.046853707   -5.171747  -19.535374 -103.203202    3.770513    0.000000    0.000000    0.000000    0.000000
  0.047054108   -5.201535  -21.360773 -100.540921   -1.673256    0.000000    0.000000    0.000000    0.000000
  0.047254509   -5.232454  -23.195921 -101.395455    4.159905    0.000000    0.000000    0.000000    0.000000
  0.047454910   -5.259958  -24.994284 -101.525141    3.657027    0.000000    0.000000    0.000000    0.000000
  0.047655311   -5.287180  -26.806946 -102.484356  -17.573181    0.000000    0.000000    0.000000    0.000000
  0.047855711   -5.315627  -28.562937  -99.883614    4.040903    0.000000    0.000000    0.000000    0.000000
  0.048056112   -5.342867  -30.316765 -105.466538    4.140012    0.000000    0.000000    0.000000    0.000000
  0.048256513   -5.369150  -32.069592 -101.586452   -1.361279    0.000000    0.000000    0.000000    0.000000
  0.048456914   -5.400224  -33.802216 -101.874305    2.456716    0.000000    0.000000    0.000000    0.000000
  0.048657315   -5.429604  -35.557899 -102.775259    9.667124    0.000000    0.000000    0.000000    0.000000
  0.048857715   -5.455635  -37.290791 -102.555057   -4.163929    0.000000    0.000000    0.000000    0.000000
  0.049058116   -5.481773  -39.039753 -103.759592   -9.879345    0.000000    0.000000    0.000000    0.000000
  0.049258517   -5.503684  -40.761398 -106.195708   12.332752    0.000000    0.000000    0.000000    0.000000
  0.049458918   -5.529392  -42.478008 -105.560109    6.327008    0.000000    0.000000    0.000000    0.000000
  0.049659319   -5.554782  -44.162571 -102.727229  -10.878432    0.000000    0.000000    0.000000    0.000000
  0.049859719   -5.582661  -45.860538 -103.418089   21.169434    0.000000    0.000000    0.000000    0.000000
  0.050060120   -5.608170  -47.549545 -103.271595   -5.092883    0.000000    0.000000    0.000000    0.000000
  0.050260521   -5.628157  -49.266113 -103.362142   -6.841540    0.000000    0.000000    0.000000    0.000000
  0.050460922   -5.647264  -50.963089 -102.549122   10.785862    0.000000    0.000000    0.000000    0.000000
  0.050661323   -5.663641  -52.631481 -101.504330   17.114771    0.000000    0.000000    0.000000    0.000000
  0.050861723   -5.677035  -54.295212 -101.742035    5.927520    0.000000    0.000000    0.000000    0.000000
  0.051062124   -5.696294  -55.942741 -102.051417    9.572973    0.000000    0.000000    0.000000    0.000000
  0.051262525   -5.710817  -57.556240 -102.058362    6.410897    0.000000    0.000000    0.000000    0.000000
  0.051462926   -5.724353  -59.135006 -103.680922    2.747890    0.000000    0.000000    0.000000    0.000000
  0.051663327   -5.737068  -60.697765 -101.538882   11.236339    0.000000    0.000000    0.000000    0.000000
  0.051863727   -5.752854  -62.254948 -102.703373   -5.810009    0.000000    0.000000    0.000000    0.000000
  0.052064128   -5.766753  -63.787930 -100.869017    1.365329    0.000000    0.000000    0.000000    0.000000
  0.052264529   -5.782342  -65.334724 -102.271828    9.402246    0.000000    0.000000    0.000000    0.000000
  0.052464930   -5.797256  -66.858482 -103.054757  -11.303864    0.000000    0.000000    0.000000    0.000000
  0.052665331   -5.812238  -68.419136 -104.543371   11.066030    0.000000    0.000000    0.000000    0.000000
  0.052865731   -5.830052  -69.954315 -104.730425   -6.188014    0.000000    0.000000    0.000000    0.000000
