! Anritsu VNA Master:                     Model: MS2036C/10/77
! SN:                                  1601066
! /card0/usr/cable.55003a.alt.btw.series.adapter.s2p
! Existing Calibration Information:
! TYPE:                         Current Settings,       Active Cal Settings
! TIME:             	   05/23/2018 09:25:50 AM,    05/23/2018 09:10:45 AM
! INTERNAL TEMP:    	                   48.5 C,                    48.3 C
! # POINTS:         	                      500,                       500
! START FREQ:       	               20.000 MHz,                20.000 MHz
! STOP FREQ:        	              120.000 MHz,               120.000 MHz
! SOURCE POWER:     	                     High,                      High
! IFBW:             	                    50 Hz,                     50 Hz
! AVG FACTOR:       	                       1 ,                        1 
! REF PLANE 1:      	                     0 mm,                      0 mm
! REF PLANE 2:      	                     0 mm,                      0 mm
! CAL TYPE:         	                 Full S22,                  Full S22
! CAL METHOD:       	                     SOLT,                      SOLT
! CAL LINE TYPE:    	                     Coax,                      Coax
! DUT PORT 1:       	                K-Conn(M),                 K-Conn(M)
! DUT PORT 2:       	                K-Conn(M),                 K-Conn(M)
! CAL STATUS:       	        OK: Accuracy High,                        --
# GHZ S DB R 50.0
! FREQ.GHZ       S11DB        S11A       S21DB        S21A       S12DB        S12A       S22DB        S22A
  0.020000000   -1.204527  166.711533 -108.777496 -122.608902  -89.867129   46.459972  -48.482410  158.643829
  0.020200401   -1.203135  166.478546 -109.986910 -135.873505  -89.793030   42.599621  -49.315276  157.074692
  0.020400802   -1.205731  166.251236 -109.928190 -106.926491  -89.766923   41.413685  -50.062418  156.303375
  0.020601202   -1.203733  166.189468 -112.799897 -109.346016  -90.124275   42.653893  -51.295494  154.708191
  0.020801603   -1.207622  165.964127 -108.774964 -147.921539  -90.231739   39.527500  -52.742545  152.903046
  0.021002004   -1.206628  165.905701 -109.142500 -117.777824  -90.442624   44.121105  -54.451949  152.658585
  0.021202405   -1.209363  165.679428 -108.566599 -140.100464  -90.355908   41.165043  -56.565395  147.331116
  0.021402806   -1.205122  165.452698 -111.641260  -99.817207  -90.734792   42.184254  -58.620482  148.797318
  0.021603206   -1.205767  165.400787 -109.015729 -116.899368  -90.400457   39.343929  -62.405633  150.343155
  0.021803607   -1.210645  165.178726 -115.310451 -118.673195  -90.602987   39.278503  -66.864586  149.820038
  0.022004008   -1.211268  165.127869 -109.756680 -141.975906  -90.573089   43.410358  -80.751456  -19.970932
  0.022204409   -1.220216  164.902618 -112.611888 -119.873711  -91.070522   41.763626  -71.021026  -42.109604
  0.022404810   -1.226895  164.674225 -116.765249 -135.551651  -91.295564   40.055134  -62.999961  -51.620853
  0.022605210   -1.226931  164.609573 -111.609671 -134.858597  -90.976161   36.500103  -58.915096  -45.769299
  0.022805611   -1.233758  164.379013 -109.950543  -95.145210  -91.165573   39.308739  -56.120187  -49.986614
  0.023006012   -1.228525  164.341919 -108.077855  -89.828766  -91.342758   40.760826  -54.737213  -48.835453
  0.023206413   -1.235645  164.118286 -112.591184 -141.515869  -91.176041   38.988789  -52.909081  -50.980690
  0.023406814   -1.242246  163.899872 -109.023987 -120.944206  -91.038143   35.855888  -51.493653  -56.259323
  0.023607214   -1.244762  163.847778 -113.969119 -112.035416  -91.364568   37.176544  -50.507552  -56.860008
  0.023807615   -1.251645  163.623611 -110.252209 -141.446487  -91.905021   38.567245  -49.434732  -59.394157
  0.024008016   -1.254521  163.578354 -108.780401  -71.098167  -92.371430   35.840546  -48.600622  -60.340145
  0.024208417   -1.261561  163.367493 -108.982694 -126.401817  -92.296302   34.225460  -47.953630  -62.173901
  0.024408818   -1.260981  163.155563 -113.808679  -62.282700  -92.051335   33.152252  -47.253098  -64.555092
  0.024609218   -1.264694  163.117813 -107.193292 -138.205414  -92.085968   32.517113  -46.536947  -65.530571
  0.024809619   -1.270725  162.910797 -110.228027  -89.136108  -92.424456   31.801279  -45.863627  -67.617638
  0.025010020   -1.272365  162.874710 -111.746771  -90.977211  -92.141853   34.406895  -45.333523  -69.626030
  0.025210421   -1.267046  162.663071 -109.071549 -100.658730  -92.448072   34.610088  -44.715988  -72.038979
  0.025410822   -1.273690  162.454727 -113.153052 -124.218613  -92.736262   31.217657  -44.364214  -73.125290
  0.025611222   -1.277137  162.419281 -108.859051 -113.340683  -92.645318   35.264149  -43.891650  -75.146523
  0.025811623   -1.283210  162.209000 -108.248943 -102.427269  -92.678437   28.480255  -43.526245  -77.013153
  0.026012024   -1.286813  162.173950 -110.551244 -121.190262  -92.831374   33.281273  -43.028364  -78.914711
  0.026212425   -1.292649  161.965378 -114.925549 -103.213806  -92.477038   32.606613  -42.764799  -81.231277
  0.026412826   -1.298774  161.765839 -112.102863 -100.252434  -93.817685   29.846134  -42.466755  -82.851151
  0.026613226   -1.357233  161.719681 -108.512895 -106.906754  -93.222297   26.903397  -42.143342  -84.592552
  0.026813627   -1.362383  161.525894 -112.041985 -129.534119  -93.206838   27.629766  -41.933166  -85.596565
  0.027014028   -1.362002  161.510757 -111.187312  -98.796738  -93.485175   29.749077  -41.635940  -88.352814
  0.027214429   -1.366408  161.321609 -112.509067  -86.203201  -93.424069   28.952806  -41.363189  -90.148460
  0.027414830   -1.359860  161.133316 -108.384131 -115.868546  -93.836439   26.794193  -41.025751  -91.321907
  0.027615230   -1.360661  161.109406 -111.739757 -103.382942  -93.507966   31.953238  -40.870853  -93.996391
  0.027815631   -1.366462  160.917953 -106.628253 -104.416847  -94.259861   31.585270  -40.667181  -95.773636
  0.028016032   -1.368335  160.894592 -107.743438 -115.207832  -93.829758   32.737934  -40.450704  -97.778503
  0.028216433   -1.373636  160.701675 -109.904694 -117.671112  -93.767226   33.349907  -40.277871  -99.262489
  0.028416834   -1.379146  160.506104 -108.703150  -97.772591  -94.230121   32.298004  -40.125438 -100.981926
  0.028617234   -1.380612  160.481506 -110.864098 -110.062363  -94.114836   27.064812  -39.943088 -102.955963
  0.028817635   -1.385375  160.293869 -111.616208  -86.398666  -94.402314   24.890465  -39.747068 -104.596466
  0.029018036   -1.384920  160.269958 -111.398773 -115.404556  -94.148646   27.366802  -39.701389 -107.117210
  0.029218437   -1.387957  160.088272 -109.864023  -81.089920  -93.925421   28.166533  -39.513692 -108.553383
  0.029418838   -1.391463  159.909637 -111.927372 -116.546539  -94.243364   27.326828  -39.467140 -110.000732
  0.029619238   -1.384360  159.897781 -107.478106 -115.206169  -94.819612   30.798443  -39.355148 -111.805908
  0.029819639   -1.388729  159.717529 -112.729390 -112.718857  -94.640499   28.274481  -39.235852 -113.500595
  0.030020040   -1.388127  159.697708 -109.834571  -89.480247  -94.177954   28.794783  -39.140341 -115.766312
  0.030220441   -1.392224  159.501862 -112.325623 -111.577423  -93.976855   27.182077  -39.067511 -117.225441
  0.030420842   -1.397936  159.287003 -109.124712 -107.081459  -94.460070   28.529217  -39.009130 -119.223755
  0.030621242   -1.399132  159.232422 -112.677227  -93.724823  -95.154492   26.951958  -38.972768 -120.964439
  0.030821643   -1.404133  159.011505 -110.603199 -118.907936  -94.237767   22.832054  -38.913981 -122.601852
  0.031022044   -1.404789  158.956665 -111.273543 -103.346298  -94.492647   27.084557  -38.914673 -124.627647
  0.031222445   -1.308504  158.990829 -114.486953 -104.009300  -94.437019   25.871103  -38.850856 -125.835815
  0.031422846   -1.313650  158.787384 -106.917422 -155.042740  -93.855025   31.119270  -38.844191 -127.875168
  0.031623246   -1.314992  158.757706 -116.181474 -113.696472  -94.687880   26.975340  -38.860440 -130.136749
  0.031823647   -1.319933  158.553680 -116.385317  178.680679  -95.831739   25.483753  -38.920412 -131.529434
  0.032024048   -1.320121  158.530746 -104.324844  -87.900620  -95.372432   19.922178  -38.882280 -133.176300
  0.032224449   -1.325006  158.324814 -114.093705 -117.805763  -95.099049   25.690847  -38.945622 -135.058853
  0.032424850   -1.320465  158.125549 -110.756541 -102.436050  -95.329910   20.436411  -38.955173 -137.085190
  0.032625251   -1.320794  158.082825 -109.851958 -130.610687  -95.950384   25.171225  -38.968356 -138.523193
  0.032825651   -1.325801  157.879028 -108.682348  -97.533234  -95.342289   29.680494  -38.998951 -140.542114
  0.033026052   -1.325426  157.841782 -110.051676 -112.238197  -94.379143   22.756374  -39.072141 -142.540482
  0.033226453   -1.329381  157.623260 -111.961748 -129.605484  -95.433332   21.510504  -39.142844 -144.270874
  0.033426854   -1.334698  157.415619 -111.528411 -151.380020  -96.236323   26.509563  -39.241215 -146.142654
  0.033627255   -1.334925  157.366714 -111.115165 -103.031784  -96.268322   21.513798  -39.284262 -147.498169
  0.033827655   -1.337932  157.150589 -107.605323 -103.217804  -96.009666   16.660662  -39.421459 -149.614349
  0.034028056   -1.337913  157.109360 -112.176274 -122.366463  -95.606098   21.132677  -39.659985 -151.085205
  0.034228457   -1.341180  156.888290 -113.788121 -132.361572  -96.037352   28.448555  -39.735910 -152.791138
  0.034428858   -1.344949  156.672272 -111.256071 -113.798073  -95.521766   21.191654  -39.791949 -155.029221
  0.034629259   -1.344962  156.625900 -112.265916 -140.043213  -96.006096   24.179598  -40.033128 -156.591171
  0.034829659   -1.339226  156.418304 -107.316467 -113.132790  -96.257155   26.407911  -40.150549 -157.842133
  0.035030060   -1.336533  156.370621 -115.963571 -112.768875  -97.505251   20.749899  -40.336195 -160.256531
  0.035230461   -1.339748  156.163437 -113.410224 -152.474182  -95.488747   21.660677  -40.564349 -161.701019
  0.035430862   -1.341520  155.955322 -110.822165  -99.827385  -96.627542   26.319527  -40.734582 -163.735474
  0.035631263   -1.337817  155.917175 -109.647999 -144.558365  -96.597747   30.779154  -40.943218 -165.563721
  0.035831663   -1.339592  155.711884 -114.594208  -91.867210  -96.904085   20.713825  -41.147400 -166.750183
  0.036032064   -1.336336  155.678299 -107.015049 -119.866531  -96.645496   19.293043  -41.550816 -169.018158
  0.036232465   -1.336872  155.481766 -110.207255 -116.086220  -97.457561   11.761062  -41.739897 -170.852310
  0.036432866   -1.337649  155.275269 -107.282040 -106.445045  -96.538734   23.704887  -42.058009 -172.127228
  0.036633267   -1.341163  155.238541 -118.031629 -142.715393  -97.522864   24.854212  -42.374708 -174.057938
  0.036833667   -1.341532  155.036072 -115.618592 -123.141434  -97.313360   29.555233  -42.791572 -175.697845
  0.037034068   -1.337228  154.994949 -107.475464  -98.862923  -96.030558   21.588291  -43.134396 -177.818665
  0.037234469   -1.337422  154.782074 -109.960120 -112.310181  -97.447008   23.793118  -43.383642 -179.457230
  0.037434870   -1.338266  154.570557 -110.131838  -91.564980  -97.436808   22.815472  -43.848117  178.656937
  0.037635271   -1.334321  154.533279 -114.931040 -138.283936  -97.203462   26.219538  -44.383447  178.119965
  0.037835671   -1.336259  154.323456 -110.977564  -98.714714  -96.202527   19.757124  -44.952709  176.228775
  0.038036072   -1.332174  154.287354 -110.550063  -92.218727  -97.446198   28.924255  -45.414063  174.949036
  0.038236473   -1.331741  154.088913 -111.272231 -137.531876  -96.991541   25.193092  -46.142011  173.422287
  0.038436874   -1.331206  153.884491 -108.653502 -132.608856  -97.690976   28.417578  -46.878136  170.792419
  0.038637275   -1.326335  153.865814 -113.029807 -119.674164  -97.423319   26.535910  -47.430764  169.585052
  0.038837675   -1.327875  153.675583 -112.892691 -128.574295  -98.617316   28.056879  -48.319336  168.418686
  0.039038076   -1.324905  153.656754 -107.396793 -114.055626  -96.857176   30.336214  -49.331953  167.347397
  0.039238477   -1.324654  153.481033 -106.470088 -122.085571  -97.677239   29.117916  -50.562331  165.550705
  0.039438878   -1.325880  153.292892 -111.626541 -127.649963  -97.645153   29.088665  -51.605281  165.219742
  0.039639279   -1.314676  153.276474 -107.929110 -148.714066  -98.026174   26.518995  -53.015838  164.989197
  0.039839679   -1.316826  153.081116 -108.575435 -119.251907  -99.105202   26.994005  -55.028480  163.162140
  0.040040080   -1.313662  153.061966 -110.206698 -101.124718  -97.443462   28.081602  -57.361581  167.259003
  0.040240481   -1.315649  152.862274 -112.986945 -125.718536  -97.602089   27.390280  -60.838509  166.706467
  0.040440882   -1.316358  152.667999 -111.044470  -69.613525  -98.437671   29.449348  -64.404149 -175.888718
  0.040641283   -1.313249  152.633118 -112.296399 -118.326431  -98.185008   29.136463  -69.065343 -131.848434
  0.040841683   -1.315349  152.431870 -112.571578 -135.777267  -98.094250   23.064714  -66.352269  -70.067787
  0.041042084   -1.312298  152.399979 -111.846485 -100.215134  -98.229085   33.490196  -61.007514  -52.052593
  0.041242485   -1.314077  152.187088 -109.407017 -132.546173  -97.194200   26.326422  -57.049602  -47.998020
  0.041442886   -1.316016  151.979721 -114.198059 -139.299789  -97.618500   30.010008  -55.092635  -44.575840
  0.041643287   -1.312866  151.947372 -111.116093 -140.486389  -97.757423   30.934763  -53.429951  -49.164806
  0.041843687   -1.315500  151.743774 -110.511187 -136.219238  -98.169333   35.373806  -51.590868  -46.197800
  0.042044088   -1.305629  151.713577 -105.698015 -120.619751  -97.644141   24.565447  -49.983046  -48.203854
  0.042244489   -1.307002  151.515732 -125.440561 -164.505524  -97.684518   27.247553  -48.733307  -49.261684
  0.042444890   -1.309195  151.314651 -108.087849  -90.288559  -97.712775   29.775284  -47.797942  -50.751770
  0.042645291   -1.306572  151.288895 -113.102574 -113.858505  -98.110041   25.700840  -47.104944  -51.015392
  0.042845691   -1.309166  151.084488 -113.820502  -91.441208  -97.760821   29.718149  -46.056472  -53.612949
  0.043046092   -1.307197  151.054535 -114.075596 -116.578789 -100.202646   32.688286  -45.152376  -55.554420
  0.043246493   -1.310926  150.853500 -108.236513 -130.101746  -99.801833   23.958570  -44.666343  -56.507603
  0.043446894   -1.313427  150.650406 -112.152029  -87.264214  -99.217846   30.495716  -43.897614  -58.389984
  0.043647295   -1.310921  150.625916 -115.336610 -144.480194  -99.124739   29.212784  -43.342932  -60.109871
  0.043847695   -1.313011  150.416031 -108.983318 -138.534958  -97.377135   32.091877  -42.710499  -61.707447
  0.044048096   -1.309898  150.383408 -108.863714 -139.965836  -99.313240   37.747257  -42.262794  -63.079185
  0.044248497   -1.311925  150.175537 -111.391529 -135.927261  -98.626091   37.432392  -41.691045  -64.608292
  0.044448898   -1.301895  149.967026 -106.978992 -109.647469  -98.809919   35.824417  -41.246167  -66.597237
  0.044649299   -1.299973  149.926376 -111.296699 -114.827881  -99.615492   34.705826  -40.862989  -68.005440
  0.044849699   -1.301244  149.710861 -111.709410 -144.170532  -98.220882   30.125393  -40.482793  -70.100784
  0.045050100   -1.297857  149.665268 -112.858221 -132.870316  -99.403990   25.764811  -40.029258  -71.384995
  0.045250501   -1.299273  149.449631 -112.764688  -85.412186  -98.672720   42.309555  -39.648562  -73.265694
  0.045450902   -1.301479  149.238861 -113.101416 -132.555099  -99.022368   30.768301  -39.319113  -74.979225
  0.045651303   -1.300416  149.205231 -110.267518 -132.197174  -98.220167   33.447056  -38.972875  -76.543777
  0.045851703   -1.303302  148.999451 -119.235042 -101.949219  -99.194140   38.734764  -38.652285  -78.818947
  0.046052104   -1.299871  148.965683 -111.467985  -91.204803 -100.064957   35.220592  -38.386803  -80.138039
  0.046252505   -1.303101  148.763474 -110.602942 -101.999123 -100.220448   36.413334  -38.068233  -81.680473
  0.046452906   -1.305347  148.563248 -114.518885 -149.629257  -98.510193   34.161617  -37.834346  -83.457825
  0.046653307   -1.303204  148.528030 -112.341085 -127.821678  -98.222330   33.472042  -37.592756  -85.337219
  0.046853707   -1.306610  148.327911 -118.520167  -71.657356 -100.924374   30.142393  -37.316415  -86.679413
  0.047054108   -1.319209  148.291641 -108.722278 -125.652763  -97.869670   34.386524  -37.057782  -88.513756
  0.047254509   -1.321318  148.084656 -113.974773  -94.153534 -100.733137   26.629229  -36.796899  -90.457336
  0.047454910   -1.324914  147.875687 -113.717082 -147.167770  -98.940630   36.345413  -36.602436  -92.814484
  0.047655311   -1.322469  147.844360 -116.373255 -141.555908  -98.842010   27.191177  -36.455804  -93.969772
  0.047855711   -1.325589  147.639938 -110.703032 -131.236359  -98.595648   30.350178  -36.190468  -95.591385
  0.048056112   -1.323852  147.604294 -113.453291  -68.174904  -98.200365   38.962334  -36.021080  -97.296028
  0.048256513   -1.327386  147.403488 -117.362883  -92.370743  -99.708317   26.862356  -35.813982  -99.086960
  0.048456914   -1.330003  147.203583 -106.687829 -110.356689  -99.071195   29.418806  -35.750898 -101.085854
  0.048657315   -1.328375  147.173492 -109.895748 -139.683945 -100.273705   32.595436  -35.525652 -102.548347
  0.048857715   -1.331204  146.976990 -112.469769 -128.168747  -98.439594   28.749363  -35.371213 -104.364899
  0.049058116   -1.329648  146.944794 -112.349539 -118.480995  -98.167319   32.265194  -35.192759 -106.379791
  0.049258517   -1.333148  146.743835 -109.421656 -126.295441  -99.869738   28.805929  -35.095693 -107.183395
  0.049458918   -1.336419  146.545746 -109.796562 -108.597374 -100.113832   41.248672  -34.994920 -109.228142
  0.049659319   -1.334091  146.520813 -113.732253  -82.531822  -98.745933   30.539631  -34.872818 -111.471138
  0.049859719   -1.337251  146.326035 -109.178357 -149.031387  -99.574373   24.274704  -34.733484 -112.959183
  0.050060120   -1.336275  146.300842 -108.973797 -124.016785  -98.343399   30.921694  -34.691234 -114.593742
  0.050260521   -1.338989  146.107086 -109.978556 -103.229019  -98.819341   49.641296  -34.551068 -116.605415
  0.050460922   -1.328487  145.907349 -115.404953 -122.588959  -98.976823   33.016468  -34.448777 -117.996803
  0.050661323   -1.327141  145.877808 -106.235952 -102.531448  -98.084549   29.780537  -34.390854 -119.795464
  0.050861723   -1.330213  145.685822 -110.369802  -81.182007  -99.010469   37.475201  -34.279110 -121.620262
  0.051062124   -1.328694  145.655869 -111.186492 -111.286530  -99.614184   26.345097  -34.209549 -123.415764
  0.051262525   -1.331962  145.459549 -112.901279  -96.126144  -99.522435   33.599613  -34.163687 -125.080055
  0.051462926   -1.334878  145.258453 -110.803693  -99.472214 -100.633169   28.488625  -34.123244 -126.976616
  0.051663327   -1.332329  145.225082 -105.400693 -114.203491  -99.111476   44.741375  -34.062362 -128.707108
  0.051863727   -1.335398  145.024887 -114.392919 -117.732216  -99.569385   29.979038  -33.974090 -130.389755
  0.052064128   -1.333577  144.987473 -108.685075 -115.733665  -99.424958   35.544075  -33.920142 -132.155151
  0.052264529   -1.336278  144.793930 -108.001015 -124.793236 -100.513120   35.534687  -33.893014 -133.898621
  0.052464930   -1.340199  144.590607 -110.448866 -149.400146  -99.509727   34.605762  -33.847814 -135.680023
  0.052665331   -1.338289  144.569794 -107.506626 -112.216057  -99.504116   40.296032  -33.872062 -137.091125
  0.052865731   -1.341118  144.372040 -108.887492 -145.830597  -99.848666   29.622654  -33.819456 -139.247498
