! Anritsu VNA Master:                     Model: MS2036C/10/77
! SN:                                  1601066
! /bd0/18may26.balun/4b.66.s2p
! Existing Calibration Information:
! TYPE:                         Current Settings,       Active Cal Settings
! TIME:             	   05/26/2018 04:37:51 PM,    05/26/2018 04:28:16 PM
! INTERNAL TEMP:    	                   55.8 C,                    56.3 C
! # POINTS:         	                      500,                       500
! START FREQ:       	               20.000 MHz,                20.000 MHz
! STOP FREQ:        	              120.000 MHz,               120.000 MHz
! SOURCE POWER:     	                     High,                      High
! IFBW:             	                    50 Hz,                     50 Hz
! AVG FACTOR:       	                       1 ,                        1 
! REF PLANE 1:      	                     0 mm,                      0 mm
! REF PLANE 2:      	                     0 mm,                      0 mm
! CAL TYPE:         	                 Full S11,                  Full S11
! CAL METHOD:       	                     SOLT,                      SOLT
! CAL LINE TYPE:    	                     Coax,                      Coax
! DUT PORT 1:       	                K-Conn(M),                 K-Conn(M)
! DUT PORT 2:       	                K-Conn(M),                 K-Conn(M)
! CAL STATUS:       	        OK: Accuracy High,                        --
# GHZ S DB R 50.0
! FREQ.GHZ       S11DB        S11A       S21DB        S21A       S12DB        S12A       S22DB        S22A
  0.020000000   -0.025800  -68.090553  -90.396660   36.189034    0.000000    0.000000    0.000000    0.000000
  0.020200401   -0.023562  -68.732880  -90.564624   31.125313    0.000000    0.000000    0.000000    0.000000
  0.020400802   -0.020960  -69.377403  -90.477871   31.620707    0.000000    0.000000    0.000000    0.000000
  0.020601202   -0.021912  -70.002167  -91.582164   28.136869    0.000000    0.000000    0.000000    0.000000
  0.020801603   -0.021351  -70.657143  -91.560344   29.600882    0.000000    0.000000    0.000000    0.000000
  0.021002004   -0.020841  -71.306763  -91.842625   28.584843    0.000000    0.000000    0.000000    0.000000
  0.021202405   -0.023123  -71.969879  -92.200685   28.415741    0.000000    0.000000    0.000000    0.000000
  0.021402806   -0.030669  -72.607521  -92.250602   26.511189    0.000000    0.000000    0.000000    0.000000
  0.021603206   -0.033358  -73.238861  -92.698390   22.494864    0.000000    0.000000    0.000000    0.000000
  0.021803607   -0.039976  -73.875450  -92.561211   28.253706    0.000000    0.000000    0.000000    0.000000
  0.022004008   -0.044505  -74.505058  -92.755045   23.844851    0.000000    0.000000    0.000000    0.000000
  0.022204409   -0.046620  -75.146629  -92.756028   32.238979    0.000000    0.000000    0.000000    0.000000
  0.022404810   -0.047432  -75.822845  -93.407219   31.202446    0.000000    0.000000    0.000000    0.000000
  0.022605210   -0.048591  -76.462906  -93.290725   29.456184    0.000000    0.000000    0.000000    0.000000
  0.022805611   -0.047345  -77.125740  -93.596966   28.471296    0.000000    0.000000    0.000000    0.000000
  0.023006012   -0.038636  -77.771194  -93.305221   33.126740    0.000000    0.000000    0.000000    0.000000
  0.023206413   -0.027529  -78.435944  -93.745398   30.021042    0.000000    0.000000    0.000000    0.000000
  0.023406814   -0.022262  -79.070831  -93.257499   30.026686    0.000000    0.000000    0.000000    0.000000
  0.023607214   -0.020494  -79.703728  -93.531098   37.336174    0.000000    0.000000    0.000000    0.000000
  0.023807615   -0.019799  -80.285660  -92.846829   30.854609    0.000000    0.000000    0.000000    0.000000
  0.024008016   -0.027041  -80.878723  -93.526560   28.936861    0.000000    0.000000    0.000000    0.000000
  0.024208417   -0.032588  -81.425148  -93.357396   28.922245    0.000000    0.000000    0.000000    0.000000
  0.024408818   -0.039329  -81.988281  -92.793263   28.005615    0.000000    0.000000    0.000000    0.000000
  0.024609218   -0.044307  -82.570343  -93.088749   26.740139    0.000000    0.000000    0.000000    0.000000
  0.024809619   -0.047535  -83.196503  -93.835320   21.129467    0.000000    0.000000    0.000000    0.000000
  0.025010020   -0.051755  -83.825203  -93.203272   20.918125    0.000000    0.000000    0.000000    0.000000
  0.025210421   -0.054800  -84.455116  -93.613930   23.890255    0.000000    0.000000    0.000000    0.000000
  0.025410822   -0.057140  -85.124092  -94.057847   20.135471    0.000000    0.000000    0.000000    0.000000
  0.025611222   -0.057342  -85.774010  -94.025663   20.001850    0.000000    0.000000    0.000000    0.000000
  0.025811623   -0.053520  -86.416420  -94.205668   19.542711    0.000000    0.000000    0.000000    0.000000
  0.026012024   -0.051141  -87.023209  -95.262833   17.972475    0.000000    0.000000    0.000000    0.000000
  0.026212425   -0.047961  -87.612106  -95.023987   19.824297    0.000000    0.000000    0.000000    0.000000
  0.026412826   -0.050077  -88.222801  -96.007684   15.613439    0.000000    0.000000    0.000000    0.000000
  0.026613226   -0.055428  -88.780930  -95.248597   19.540052    0.000000    0.000000    0.000000    0.000000
  0.026813627   -0.060610  -89.373512  -96.458162   16.197701    0.000000    0.000000    0.000000    0.000000
  0.027014028   -0.068858  -89.926186  -96.831257   15.533674    0.000000    0.000000    0.000000    0.000000
  0.027214429   -0.080586  -90.495697  -96.390727   24.210554    0.000000    0.000000    0.000000    0.000000
  0.027414830   -0.090242  -91.126556  -96.123221   20.256119    0.000000    0.000000    0.000000    0.000000
  0.027615230   -0.095770  -91.793594  -96.650248   24.799643    0.000000    0.000000    0.000000    0.000000
  0.027815631   -0.098883  -92.469536  -95.752579   27.651688    0.000000    0.000000    0.000000    0.000000
  0.028016032   -0.096501  -93.155472  -95.660339   26.631344    0.000000    0.000000    0.000000    0.000000
  0.028216433   -0.087709  -93.832588  -95.970196   21.348215    0.000000    0.000000    0.000000    0.000000
  0.028416834   -0.079923  -94.518555  -96.938439   15.759459    0.000000    0.000000    0.000000    0.000000
  0.028617234   -0.071057  -95.148453  -95.310045   25.306717    0.000000    0.000000    0.000000    0.000000
  0.028817635   -0.061715  -95.746605  -96.611468   20.165304    0.000000    0.000000    0.000000    0.000000
  0.029018036   -0.053545  -96.312302  -95.765667   19.889509    0.000000    0.000000    0.000000    0.000000
  0.029218437   -0.045483  -96.836624  -95.542350   16.928272    0.000000    0.000000    0.000000    0.000000
  0.029418838   -0.041610  -97.337128  -95.787742   11.640024    0.000000    0.000000    0.000000    0.000000
  0.029619238   -0.038580  -97.829620  -96.657729   16.927643    0.000000    0.000000    0.000000    0.000000
  0.029819639   -0.039467  -98.349228  -95.456647   10.563502    0.000000    0.000000    0.000000    0.000000
  0.030020040   -0.045678  -98.897385  -96.555719   14.225657    0.000000    0.000000    0.000000    0.000000
  0.030220441   -0.055563  -99.462051  -97.240710   12.087155    0.000000    0.000000    0.000000    0.000000
  0.030420842   -0.066894 -100.058167  -97.727660   15.273695    0.000000    0.000000    0.000000    0.000000
  0.030621242   -0.075728 -100.697533  -98.167112   12.221048    0.000000    0.000000    0.000000    0.000000
  0.030821643   -0.075846 -101.348595  -96.719433   10.378595    0.000000    0.000000    0.000000    0.000000
  0.031022044   -0.075280 -101.970428  -97.739351   12.861260    0.000000    0.000000    0.000000    0.000000
  0.031222445   -0.066463 -102.582703  -98.361406   12.681309    0.000000    0.000000    0.000000    0.000000
  0.031422846   -0.065262 -103.176010  -97.776990    6.000360    0.000000    0.000000    0.000000    0.000000
  0.031623246   -0.066696 -103.744904  -97.418964   11.529695    0.000000    0.000000    0.000000    0.000000
  0.031823647   -0.068390 -104.299767  -97.753893   10.981752    0.000000    0.000000    0.000000    0.000000
  0.032024048   -0.068264 -104.823654  -97.265272   14.871278    0.000000    0.000000    0.000000    0.000000
  0.032224449   -0.075888 -105.328842  -97.881042    8.252468    0.000000    0.000000    0.000000    0.000000
  0.032424850   -0.086571 -105.858833  -97.604553    9.171983    0.000000    0.000000    0.000000    0.000000
  0.032625251   -0.099412 -106.427902  -97.852541    7.042410    0.000000    0.000000    0.000000    0.000000
  0.032825651   -0.111091 -107.013222  -97.065412   17.579187    0.000000    0.000000    0.000000    0.000000
  0.033026052   -0.114009 -107.641243  -99.292390   13.411891    0.000000    0.000000    0.000000    0.000000
  0.033226453   -0.117610 -108.256416  -96.929148   13.630156    0.000000    0.000000    0.000000    0.000000
  0.033426854   -0.121895 -108.883148  -98.434574   15.094891    0.000000    0.000000    0.000000    0.000000
  0.033627255   -0.122438 -109.525246  -98.533939    9.983763    0.000000    0.000000    0.000000    0.000000
  0.033827655   -0.123126 -110.158272  -97.684061   11.329427    0.000000    0.000000    0.000000    0.000000
  0.034028056   -0.120417 -110.779564  -96.900415   10.389383    0.000000    0.000000    0.000000    0.000000
  0.034228457   -0.114506 -111.403542  -97.986157    8.770300    0.000000    0.000000    0.000000    0.000000
  0.034428858   -0.107131 -111.975563  -98.282950   10.760116    0.000000    0.000000    0.000000    0.000000
  0.034629259   -0.094810 -112.523575  -99.413295   11.987372    0.000000    0.000000    0.000000    0.000000
  0.034829659   -0.086193 -113.042694  -98.626175    5.719987    0.000000    0.000000    0.000000    0.000000
  0.035030060   -0.082534 -113.569588  -99.902788    8.394722    0.000000    0.000000    0.000000    0.000000
  0.035230461   -0.079431 -114.048615 -100.225646   -2.397675    0.000000    0.000000    0.000000    0.000000
  0.035430862   -0.078263 -114.567398  -98.785557    5.653585    0.000000    0.000000    0.000000    0.000000
  0.035631263   -0.084157 -115.088425  -99.683950   12.367661    0.000000    0.000000    0.000000    0.000000
  0.035831663   -0.092283 -115.620338 -101.144040   -3.130405    0.000000    0.000000    0.000000    0.000000
  0.036032064   -0.098994 -116.183624 -100.554287    7.762000    0.000000    0.000000    0.000000    0.000000
  0.036232465   -0.108550 -116.783432 -100.781272    9.121319    0.000000    0.000000    0.000000    0.000000
  0.036432866   -0.114983 -117.396088 -100.491901    3.887725    0.000000    0.000000    0.000000    0.000000
  0.036633267   -0.113898 -118.032639 -101.321998    6.793603    0.000000    0.000000    0.000000    0.000000
  0.036833667   -0.112396 -118.606316 -101.994944   15.016121    0.000000    0.000000    0.000000    0.000000
  0.037034068   -0.103459 -119.195869  -98.840584   17.013117    0.000000    0.000000    0.000000    0.000000
  0.037234469   -0.091699 -119.698303 -100.668868   13.913623    0.000000    0.000000    0.000000    0.000000
  0.037434870   -0.086827 -120.163528  -99.575399    6.218334    0.000000    0.000000    0.000000    0.000000
  0.037635271   -0.089755 -120.641083 -100.481565    0.757393    0.000000    0.000000    0.000000    0.000000
  0.037835671   -0.094925 -121.133759 -100.320665   10.552761    0.000000    0.000000    0.000000    0.000000
  0.038036072   -0.104922 -121.669029  -99.893897   21.415180    0.000000    0.000000    0.000000    0.000000
  0.038236473   -0.113209 -122.213371  -98.707436    7.415114    0.000000    0.000000    0.000000    0.000000
  0.038436874   -0.119542 -122.761734  -99.704567    8.289051    0.000000    0.000000    0.000000    0.000000
  0.038637275   -0.122779 -123.296829  -98.403978    1.390657    0.000000    0.000000    0.000000    0.000000
  0.038837675   -0.131651 -123.842888  -99.070192    3.416267    0.000000    0.000000    0.000000    0.000000
  0.039038076   -0.140261 -124.424561  -98.245031   14.397326    0.000000    0.000000    0.000000    0.000000
  0.039238477   -0.144080 -125.008141  -99.506459    2.194463    0.000000    0.000000    0.000000    0.000000
  0.039438878   -0.149026 -125.574875 -100.310886    2.450031    0.000000    0.000000    0.000000    0.000000
  0.039639279   -0.145155 -126.133339  -99.183339   -0.662587    0.000000    0.000000    0.000000    0.000000
  0.039839679   -0.138148 -126.673058 -100.562831   -2.824337    0.000000    0.000000    0.000000    0.000000
  0.040040080   -0.133904 -127.193504 -100.301357   -3.227425    0.000000    0.000000    0.000000    0.000000
  0.040240481   -0.129947 -127.717255 -100.018940    0.611549    0.000000    0.000000    0.000000    0.000000
  0.040440882   -0.125652 -128.233017 -101.979385    5.956457    0.000000    0.000000    0.000000    0.000000
  0.040641283   -0.124510 -128.771240 -102.357151    5.683132    0.000000    0.000000    0.000000    0.000000
  0.040841683   -0.124328 -129.268280 -103.936350   -7.275208    0.000000    0.000000    0.000000    0.000000
  0.041042084   -0.125382 -129.784195 -103.882376    9.515549    0.000000    0.000000    0.000000    0.000000
  0.041242485   -0.132311 -130.278107 -100.770719    9.317504    0.000000    0.000000    0.000000    0.000000
  0.041442886   -0.144961 -130.793686  -99.762041   11.113849    0.000000    0.000000    0.000000    0.000000
  0.041643287   -0.152057 -131.372284 -103.084939   21.325472    0.000000    0.000000    0.000000    0.000000
  0.041843687   -0.157334 -131.943726 -102.842746   14.195894    0.000000    0.000000    0.000000    0.000000
  0.042044088   -0.153080 -132.540756 -101.210590   10.975030    0.000000    0.000000    0.000000    0.000000
  0.042244489   -0.143446 -133.095032 -101.397112   17.501745    0.000000    0.000000    0.000000    0.000000
  0.042444890   -0.133841 -133.597778 -101.232877   17.173048    0.000000    0.000000    0.000000    0.000000
  0.042645291   -0.127285 -134.077972  -99.330577    4.212494    0.000000    0.000000    0.000000    0.000000
  0.042845691   -0.126555 -134.552032 -101.813201    7.252948    0.000000    0.000000    0.000000    0.000000
  0.043046092   -0.128235 -135.024506  -99.927893    6.626526    0.000000    0.000000    0.000000    0.000000
  0.043246493   -0.132421 -135.517090  -99.776869    7.497425    0.000000    0.000000    0.000000    0.000000
  0.043446894   -0.135288 -136.013794  -98.958912   -4.317211    0.000000    0.000000    0.000000    0.000000
  0.043647295   -0.139497 -136.481674 -100.949136    4.444949    0.000000    0.000000    0.000000    0.000000
  0.043847695   -0.145571 -136.967316 -100.536191    9.588243    0.000000    0.000000    0.000000    0.000000
  0.044048096   -0.154009 -137.462646 -101.488840    1.707061    0.000000    0.000000    0.000000    0.000000
  0.044248497   -0.159000 -137.987457 -100.927597   -3.490483    0.000000    0.000000    0.000000    0.000000
  0.044448898   -0.165051 -138.522278 -101.941189    4.791520    0.000000    0.000000    0.000000    0.000000
  0.044649299   -0.164649 -139.051193 -100.666584   -2.682059    0.000000    0.000000    0.000000    0.000000
  0.044849699   -0.164586 -139.556305 -101.263030   -7.127244    0.000000    0.000000    0.000000    0.000000
  0.045050100   -0.167071 -140.062866 -101.747308  -13.428453    0.000000    0.000000    0.000000    0.000000
  0.045250501   -0.167219 -140.555359 -100.770409  -11.461269    0.000000    0.000000    0.000000    0.000000
  0.045450902   -0.169578 -141.069061 -101.026408   -5.278011    0.000000    0.000000    0.000000    0.000000
  0.045651303   -0.171970 -141.604156 -103.389753   -8.118145    0.000000    0.000000    0.000000    0.000000
  0.045851703   -0.168529 -142.137268 -103.198084   -2.622383    0.000000    0.000000    0.000000    0.000000
  0.046052104   -0.166664 -142.649963 -102.257105    0.579449    0.000000    0.000000    0.000000    0.000000
  0.046252505   -0.165243 -143.153625 -106.061412   23.540565    0.000000    0.000000    0.000000    0.000000
  0.046452906   -0.171078 -143.635498 -104.696618   27.458189    0.000000    0.000000    0.000000    0.000000
  0.046653307   -0.178207 -144.113815 -102.410467    9.280813    0.000000    0.000000    0.000000    0.000000
  0.046853707   -0.186443 -144.658112 -102.992199    8.881423    0.000000    0.000000    0.000000    0.000000
  0.047054108   -0.189961 -145.208649 -103.336145   -3.816764    0.000000    0.000000    0.000000    0.000000
  0.047254509   -0.188994 -145.765884 -101.576584   17.813374    0.000000    0.000000    0.000000    0.000000
  0.047454910   -0.182318 -146.307144 -101.295757    8.910250    0.000000    0.000000    0.000000    0.000000
  0.047655311   -0.175272 -146.820663 -100.906359    9.129024    0.000000    0.000000    0.000000    0.000000
  0.047855711   -0.172957 -147.306259 -103.076750    4.932579    0.000000    0.000000    0.000000    0.000000
  0.048056112   -0.169209 -147.799438 -102.366509   18.843405    0.000000    0.000000    0.000000    0.000000
  0.048256513   -0.169397 -148.283783 -100.980265   11.778647    0.000000    0.000000    0.000000    0.000000
  0.048456914   -0.168873 -148.764862 -101.204060    0.586200    0.000000    0.000000    0.000000    0.000000
  0.048657315   -0.166767 -149.218323 -100.951391   -0.369142    0.000000    0.000000    0.000000    0.000000
  0.048857715   -0.170067 -149.672684 -102.787552  -10.026032    0.000000    0.000000    0.000000    0.000000
  0.049058116   -0.175941 -150.141937 -101.919193  -15.221637    0.000000    0.000000    0.000000    0.000000
  0.049258517   -0.180379 -150.615265 -101.678435   -4.495162    0.000000    0.000000    0.000000    0.000000
  0.049458918   -0.185250 -151.101624 -102.196428   -1.743417    0.000000    0.000000    0.000000    0.000000
  0.049659319   -0.186248 -151.589493 -104.033492  -11.008264    0.000000    0.000000    0.000000    0.000000
  0.049859719   -0.185064 -152.068375 -101.271807   -5.653047    0.000000    0.000000    0.000000    0.000000
  0.050060120   -0.185821 -152.522186 -105.312196   -3.403904    0.000000    0.000000    0.000000    0.000000
  0.050260521   -0.189174 -152.986252 -105.844715  -10.714229    0.000000    0.000000    0.000000    0.000000
  0.050460922   -0.190941 -153.456085 -105.734788   -4.710549    0.000000    0.000000    0.000000    0.000000
  0.050661323   -0.192963 -153.937012 -103.830831   -3.773063    0.000000    0.000000    0.000000    0.000000
  0.050861723   -0.192662 -154.443527 -102.867796   -4.357230    0.000000    0.000000    0.000000    0.000000
  0.051062124   -0.191022 -154.940109 -105.047104    8.023420    0.000000    0.000000    0.000000    0.000000
  0.051262525   -0.189951 -155.412811 -105.386571   -2.292996    0.000000    0.000000    0.000000    0.000000
  0.051462926   -0.190814 -155.884018 -103.746006   21.942036    0.000000    0.000000    0.000000    0.000000
  0.051663327   -0.194370 -156.338837 -108.805103   -1.171143    0.000000    0.000000    0.000000    0.000000
  0.051863727   -0.199620 -156.813751 -104.122181   23.407103    0.000000    0.000000    0.000000    0.000000
  0.052064128   -0.204061 -157.291763 -105.492006    6.348214    0.000000    0.000000    0.000000    0.000000
  0.052264529   -0.208277 -157.791718 -104.369643   32.651852    0.000000    0.000000    0.000000    0.000000
  0.052464930   -0.207687 -158.299408 -103.722364    9.069784    0.000000    0.000000    0.000000    0.000000
  0.052665331   -0.207562 -158.791794 -103.141761   10.451866    0.000000    0.000000    0.000000    0.000000
  0.052865731   -0.203529 -159.280029 -102.432286   13.122440    0.000000    0.000000    0.000000    0.000000
