! Anritsu VNA Master:                     Model: MS2036C/10/77
! SN:                                  1601066
! /bd0/18may26.balun/4b.r200.s2p
! Existing Calibration Information:
! TYPE:                         Current Settings,       Active Cal Settings
! TIME:             	   05/26/2018 04:45:09 PM,    05/26/2018 04:28:16 PM
! INTERNAL TEMP:    	                   55.0 C,                    56.3 C
! # POINTS:         	                      500,                       500
! START FREQ:       	               20.000 MHz,                20.000 MHz
! STOP FREQ:        	              120.000 MHz,               120.000 MHz
! SOURCE POWER:     	                     High,                      High
! IFBW:             	                    50 Hz,                     50 Hz
! AVG FACTOR:       	                       1 ,                        1 
! REF PLANE 1:      	                     0 mm,                      0 mm
! REF PLANE 2:      	                     0 mm,                      0 mm
! CAL TYPE:         	                 Full S11,                  Full S11
! CAL METHOD:       	                     SOLT,                      SOLT
! CAL LINE TYPE:    	                     Coax,                      Coax
! DUT PORT 1:       	                K-Conn(M),                 K-Conn(M)
! DUT PORT 2:       	                K-Conn(M),                 K-Conn(M)
! CAL STATUS:       	        OK: Accuracy High,                        --
# GHZ S DB R 50.0
! FREQ.GHZ       S11DB        S11A       S21DB        S21A       S12DB        S12A       S22DB        S22A
  0.020000000   -4.519113  -22.781076  -90.719108   36.859818    0.000000    0.000000    0.000000    0.000000
  0.020200401   -4.518341  -22.998344  -91.146460   34.660515    0.000000    0.000000    0.000000    0.000000
  0.020400802   -4.520458  -23.242571  -91.363628   34.839214    0.000000    0.000000    0.000000    0.000000
  0.020601202   -4.523812  -23.487539  -91.110082   36.819130    0.000000    0.000000    0.000000    0.000000
  0.020801603   -4.521620  -23.728449  -91.175362   34.384453    0.000000    0.000000    0.000000    0.000000
  0.021002004   -4.521731  -23.985937  -91.245487   31.515602    0.000000    0.000000    0.000000    0.000000
  0.021202405   -4.523350  -24.260593  -91.302409   33.318119    0.000000    0.000000    0.000000    0.000000
  0.021402806   -4.524531  -24.506001  -92.308427   27.390882    0.000000    0.000000    0.000000    0.000000
  0.021603206   -4.526315  -24.737108  -91.748265   28.508474    0.000000    0.000000    0.000000    0.000000
  0.021803607   -4.530404  -24.967514  -92.345125   27.550642    0.000000    0.000000    0.000000    0.000000
  0.022004008   -4.533677  -25.201479  -92.573090   28.903898    0.000000    0.000000    0.000000    0.000000
  0.022204409   -4.532355  -25.413736  -92.711285   23.652931    0.000000    0.000000    0.000000    0.000000
  0.022404810   -4.529378  -25.648802  -93.280587   30.630512    0.000000    0.000000    0.000000    0.000000
  0.022605210   -4.527929  -25.897638  -93.892188   31.698044    0.000000    0.000000    0.000000    0.000000
  0.022805611   -4.532575  -26.147945  -92.715224   29.423727    0.000000    0.000000    0.000000    0.000000
  0.023006012   -4.532515  -26.362633  -93.749624   24.771679    0.000000    0.000000    0.000000    0.000000
  0.023206413   -4.530054  -26.592892  -94.306599   28.791990    0.000000    0.000000    0.000000    0.000000
  0.023406814   -4.528015  -26.827698  -93.391215   32.465771    0.000000    0.000000    0.000000    0.000000
  0.023607214   -4.522127  -27.058681  -93.002255   29.811880    0.000000    0.000000    0.000000    0.000000
  0.023807615   -4.519499  -27.293215  -93.128314   33.840702    0.000000    0.000000    0.000000    0.000000
  0.024008016   -4.523956  -27.535391  -94.255003   27.804941    0.000000    0.000000    0.000000    0.000000
  0.024208417   -4.527481  -27.719818  -93.652754   28.372602    0.000000    0.000000    0.000000    0.000000
  0.024408818   -4.527355  -27.912048  -93.768551   34.693687    0.000000    0.000000    0.000000    0.000000
  0.024609218   -4.532366  -28.122389  -93.458027   26.851917    0.000000    0.000000    0.000000    0.000000
  0.024809619   -4.537777  -28.340727  -94.164371   27.531816    0.000000    0.000000    0.000000    0.000000
  0.025010020   -4.541259  -28.559784  -93.912882   24.857691    0.000000    0.000000    0.000000    0.000000
  0.025210421   -4.545651  -28.791265  -93.866750   25.581648    0.000000    0.000000    0.000000    0.000000
  0.025410822   -4.550915  -29.049030  -93.383644   22.182091    0.000000    0.000000    0.000000    0.000000
  0.025611222   -4.549169  -29.294552  -93.684627   16.782875    0.000000    0.000000    0.000000    0.000000
  0.025811623   -4.548847  -29.565464  -94.174891   17.195707    0.000000    0.000000    0.000000    0.000000
  0.026012024   -4.551172  -29.814753  -95.084132   19.787613    0.000000    0.000000    0.000000    0.000000
  0.026212425   -4.550907  -30.084650  -94.149785   20.278141    0.000000    0.000000    0.000000    0.000000
  0.026412826   -4.548117  -30.362223  -94.928960   19.031818    0.000000    0.000000    0.000000    0.000000
  0.026613226   -4.542500  -30.615534  -95.220844   18.441334    0.000000    0.000000    0.000000    0.000000
  0.026813627   -4.535604  -30.831280  -95.510027   23.270828    0.000000    0.000000    0.000000    0.000000
  0.027014028   -4.533545  -31.034122  -95.470462   19.590584    0.000000    0.000000    0.000000    0.000000
  0.027214429   -4.534283  -31.204679  -94.943045   21.491014    0.000000    0.000000    0.000000    0.000000
  0.027414830   -4.533407  -31.389097  -95.755019   17.771290    0.000000    0.000000    0.000000    0.000000
  0.027615230   -4.534195  -31.594303  -96.015252   24.325747    0.000000    0.000000    0.000000    0.000000
  0.027815631   -4.538658  -31.810951  -96.242165   21.466272    0.000000    0.000000    0.000000    0.000000
  0.028016032   -4.547387  -32.045006  -95.326803   21.627213    0.000000    0.000000    0.000000    0.000000
  0.028216433   -4.548851  -32.278217  -96.767691   22.736063    0.000000    0.000000    0.000000    0.000000
  0.028416834   -4.547242  -32.554935  -95.716996   23.462961    0.000000    0.000000    0.000000    0.000000
  0.028617234   -4.542887  -32.792782  -95.535618   20.340290    0.000000    0.000000    0.000000    0.000000
  0.028817635   -4.538061  -33.048927  -96.458478   16.368631    0.000000    0.000000    0.000000    0.000000
  0.029018036   -4.539503  -33.278477  -96.569174   24.454027    0.000000    0.000000    0.000000    0.000000
  0.029218437   -4.535787  -33.498589  -97.055883   20.123606    0.000000    0.000000    0.000000    0.000000
  0.029418838   -4.534909  -33.670033  -96.208510   18.582821    0.000000    0.000000    0.000000    0.000000
  0.029619238   -4.531175  -33.854031  -97.305745   16.522776    0.000000    0.000000    0.000000    0.000000
  0.029819639   -4.528984  -34.020561  -97.479874   12.850029    0.000000    0.000000    0.000000    0.000000
  0.030020040   -4.528687  -34.181820  -96.740637   21.782402    0.000000    0.000000    0.000000    0.000000
  0.030220441   -4.533206  -34.382992  -96.421226   17.718983    0.000000    0.000000    0.000000    0.000000
  0.030420842   -4.540995  -34.613693  -96.472281   15.224338    0.000000    0.000000    0.000000    0.000000
  0.030621242   -4.548839  -34.853340  -97.130007   17.873697    0.000000    0.000000    0.000000    0.000000
  0.030821643   -4.554631  -35.108120  -96.947324   14.359850    0.000000    0.000000    0.000000    0.000000
  0.031022044   -4.558305  -35.373821  -98.076032   17.764393    0.000000    0.000000    0.000000    0.000000
  0.031222445   -4.545381  -35.586121  -96.860342   14.275266    0.000000    0.000000    0.000000    0.000000
  0.031422846   -4.551597  -35.856636  -98.418225   14.327271    0.000000    0.000000    0.000000    0.000000
  0.031623246   -4.550669  -36.135384  -97.879090   11.039529    0.000000    0.000000    0.000000    0.000000
  0.031823647   -4.558003  -36.414974  -98.139049   14.705312    0.000000    0.000000    0.000000    0.000000
  0.032024048   -4.559884  -36.676346  -97.979567    9.073554    0.000000    0.000000    0.000000    0.000000
  0.032224449   -4.557763  -36.920578  -98.006899   12.278815    0.000000    0.000000    0.000000    0.000000
  0.032424850   -4.550836  -37.154198  -98.481942   12.261004    0.000000    0.000000    0.000000    0.000000
  0.032625251   -4.538741  -37.398697  -98.958474   10.037355    0.000000    0.000000    0.000000    0.000000
  0.032825651   -4.538792  -37.585262  -97.955103   17.130453    0.000000    0.000000    0.000000    0.000000
  0.033026052   -4.537054  -37.761818  -98.269894   16.188356    0.000000    0.000000    0.000000    0.000000
  0.033226453   -4.539702  -37.937267  -98.412842    3.961362    0.000000    0.000000    0.000000    0.000000
  0.033426854   -4.544423  -38.136993  -98.467610   16.015663    0.000000    0.000000    0.000000    0.000000
  0.033627255   -4.550861  -38.386917  -98.870735   13.014068    0.000000    0.000000    0.000000    0.000000
  0.033827655   -4.555535  -38.612137  -99.431236    2.290235    0.000000    0.000000    0.000000    0.000000
  0.034028056   -4.561794  -38.881439  -98.543449    9.579999    0.000000    0.000000    0.000000    0.000000
  0.034228457   -4.568804  -39.137531  -98.471247   10.838816    0.000000    0.000000    0.000000    0.000000
  0.034428858   -4.567534  -39.378334  -97.987293   12.045324    0.000000    0.000000    0.000000    0.000000
  0.034629259   -4.565597  -39.625450  -99.608622    8.664907    0.000000    0.000000    0.000000    0.000000
  0.034829659   -4.561203  -39.874565  -99.303155   11.051348    0.000000    0.000000    0.000000    0.000000
  0.035030060   -4.553385  -40.114407  -98.035320   11.388485    0.000000    0.000000    0.000000    0.000000
  0.035230461   -4.550875  -40.318626  -99.418599   10.281035    0.000000    0.000000    0.000000    0.000000
  0.035430862   -4.548090  -40.522812  -97.792796   16.775349    0.000000    0.000000    0.000000    0.000000
  0.035631263   -4.545181  -40.722824  -98.101943   -0.292999    0.000000    0.000000    0.000000    0.000000
  0.035831663   -4.549151  -40.904396  -99.687563    7.266433    0.000000    0.000000    0.000000    0.000000
  0.036032064   -4.552748  -41.143192 -100.412174    3.070480    0.000000    0.000000    0.000000    0.000000
  0.036232465   -4.556616  -41.380360  -98.659925    6.590117    0.000000    0.000000    0.000000    0.000000
  0.036432866   -4.564716  -41.632912  -99.767547    0.773039    0.000000    0.000000    0.000000    0.000000
  0.036633267   -4.566251  -41.927624  -99.268941   18.486000    0.000000    0.000000    0.000000    0.000000
  0.036833667   -4.573134  -42.189953  -98.933772    4.213879    0.000000    0.000000    0.000000    0.000000
  0.037034068   -4.574137  -42.462608  -99.329690   -1.300175    0.000000    0.000000    0.000000    0.000000
  0.037234469   -4.575267  -42.702545 -100.219689    2.569828    0.000000    0.000000    0.000000    0.000000
  0.037434870   -4.570577  -42.968178  -99.845633   -2.818095    0.000000    0.000000    0.000000    0.000000
  0.037635271   -4.566287  -43.218380  -99.762238    0.916609    0.000000    0.000000    0.000000    0.000000
  0.037835671   -4.557582  -43.492985  -98.904673   11.483970    0.000000    0.000000    0.000000    0.000000
  0.038036072   -4.555057  -43.745247  -99.489014   12.445966    0.000000    0.000000    0.000000    0.000000
  0.038236473   -4.543935  -43.970436 -100.010400    0.149036    0.000000    0.000000    0.000000    0.000000
  0.038436874   -4.539238  -44.107731 -101.368902   17.742447    0.000000    0.000000    0.000000    0.000000
  0.038637275   -4.538313  -44.287239 -100.627555    6.414170    0.000000    0.000000    0.000000    0.000000
  0.038837675   -4.543989  -44.433075 -100.126233    9.761141    0.000000    0.000000    0.000000    0.000000
  0.039038076   -4.552613  -44.653679  -99.881436   16.640238    0.000000    0.000000    0.000000    0.000000
  0.039238477   -4.560156  -44.861584  -98.944668    9.302044    0.000000    0.000000    0.000000    0.000000
  0.039438878   -4.575072  -45.087887  -99.939657    3.780707    0.000000    0.000000    0.000000    0.000000
  0.039639279   -4.580583  -45.311947  -99.689983    6.575257    0.000000    0.000000    0.000000    0.000000
  0.039839679   -4.577132  -45.561199  -98.636556   -1.612395    0.000000    0.000000    0.000000    0.000000
  0.040040080   -4.578234  -45.818317  -99.983389    1.265144    0.000000    0.000000    0.000000    0.000000
  0.040240481   -4.580146  -46.058167 -100.331204   10.197800    0.000000    0.000000    0.000000    0.000000
  0.040440882   -4.568981  -46.308609 -100.965083   -0.668478    0.000000    0.000000    0.000000    0.000000
  0.040641283   -4.565633  -46.527538 -100.475594    5.656166    0.000000    0.000000    0.000000    0.000000
  0.040841683   -4.564617  -46.724926 -101.533479   15.179031    0.000000    0.000000    0.000000    0.000000
  0.041042084   -4.565594  -46.933353 -100.659897    2.205804    0.000000    0.000000    0.000000    0.000000
  0.041242485   -4.574584  -47.144588 -100.387044    9.297645    0.000000    0.000000    0.000000    0.000000
  0.041442886   -4.581999  -47.357510 -101.427407   16.095470    0.000000    0.000000    0.000000    0.000000
  0.041643287   -4.589084  -47.635525 -101.425735   14.356771    0.000000    0.000000    0.000000    0.000000
  0.041843687   -4.589618  -47.883438 -101.285930    5.403048    0.000000    0.000000    0.000000    0.000000
  0.042044088   -4.593484  -48.175468 -102.265744   13.830811    0.000000    0.000000    0.000000    0.000000
  0.042244489   -4.595814  -48.419140 -100.840938   12.454094    0.000000    0.000000    0.000000    0.000000
  0.042444890   -4.596506  -48.661686 -102.467795   13.338662    0.000000    0.000000    0.000000    0.000000
  0.042645291   -4.600272  -48.931515 -101.778783   13.546606    0.000000    0.000000    0.000000    0.000000
  0.042845691   -4.602637  -49.198299 -101.805154    2.994750    0.000000    0.000000    0.000000    0.000000
  0.043046092   -4.596291  -49.468487 -101.097006    7.010750    0.000000    0.000000    0.000000    0.000000
  0.043246493   -4.590331  -49.756596 -103.148065    4.027794    0.000000    0.000000    0.000000    0.000000
  0.043446894   -4.580468  -50.010582 -102.334816  -10.553596    0.000000    0.000000    0.000000    0.000000
  0.043647295   -4.575795  -50.202827 -101.088800   15.837146    0.000000    0.000000    0.000000    0.000000
  0.043847695   -4.575035  -50.392120 -100.175608   22.037525    0.000000    0.000000    0.000000    0.000000
  0.044048096   -4.574682  -50.548134 -100.427920   12.110050    0.000000    0.000000    0.000000    0.000000
  0.044248497   -4.582985  -50.742733 -101.897247    9.419127    0.000000    0.000000    0.000000    0.000000
  0.044448898   -4.588478  -50.953869 -100.050581   12.628016    0.000000    0.000000    0.000000    0.000000
  0.044649299   -4.599795  -51.190681 -100.688386   -2.913292    0.000000    0.000000    0.000000    0.000000
  0.044849699   -4.603456  -51.433670  -99.617703   11.110683    0.000000    0.000000    0.000000    0.000000
  0.045050100   -4.610861  -51.690552  -99.790363    6.867007    0.000000    0.000000    0.000000    0.000000
  0.045250501   -4.615027  -51.959007 -101.470115    7.786714    0.000000    0.000000    0.000000    0.000000
  0.045450902   -4.617132  -52.208916 -102.046812  -12.890127    0.000000    0.000000    0.000000    0.000000
  0.045651303   -4.613017  -52.481514 -101.408139    4.930764    0.000000    0.000000    0.000000    0.000000
  0.045851703   -4.608315  -52.749321 -100.901622    2.392434    0.000000    0.000000    0.000000    0.000000
  0.046052104   -4.607442  -52.974812 -100.729869   -0.331384    0.000000    0.000000    0.000000    0.000000
  0.046252505   -4.605054  -53.188576 -100.741807   -6.881166    0.000000    0.000000    0.000000    0.000000
  0.046452906   -4.609325  -53.414257 -101.568043   -5.809417    0.000000    0.000000    0.000000    0.000000
  0.046653307   -4.611563  -53.622158 -105.462260   -1.132458    0.000000    0.000000    0.000000    0.000000
  0.046853707   -4.615419  -53.857189 -104.663466    0.206966    0.000000    0.000000    0.000000    0.000000
  0.047054108   -4.616487  -54.113583 -103.853474   -0.160739    0.000000    0.000000    0.000000    0.000000
  0.047254509   -4.621621  -54.361992 -104.427990   10.071811    0.000000    0.000000    0.000000    0.000000
  0.047454910   -4.619985  -54.603245 -103.015298   -5.981856    0.000000    0.000000    0.000000    0.000000
  0.047655311   -4.622361  -54.860722 -103.124593   14.723822    0.000000    0.000000    0.000000    0.000000
  0.047855711   -4.626717  -55.109726 -108.045656    7.385025    0.000000    0.000000    0.000000    0.000000
  0.048056112   -4.623880  -55.356743 -101.812205    4.355576    0.000000    0.000000    0.000000    0.000000
  0.048256513   -4.620766  -55.622677 -103.618744    8.588754    0.000000    0.000000    0.000000    0.000000
  0.048456914   -4.613311  -55.890720 -104.741063    5.383750    0.000000    0.000000    0.000000    0.000000
  0.048657315   -4.607080  -56.140827 -100.745199   19.862848    0.000000    0.000000    0.000000    0.000000
  0.048857715   -4.600810  -56.368069 -102.511826   15.290985    0.000000    0.000000    0.000000    0.000000
  0.049058116   -4.598897  -56.562149 -101.555252   -1.781078    0.000000    0.000000    0.000000    0.000000
  0.049258517   -4.599635  -56.723305 -101.949488   17.763199    0.000000    0.000000    0.000000    0.000000
  0.049458918   -4.599087  -56.909229 -101.450596    1.209376    0.000000    0.000000    0.000000    0.000000
  0.049659319   -4.605969  -57.095490 -103.145348   11.421444    0.000000    0.000000    0.000000    0.000000
  0.049859719   -4.609964  -57.306641 -101.836963   -9.586998    0.000000    0.000000    0.000000    0.000000
  0.050060120   -4.617276  -57.509457 -101.766737    0.493852    0.000000    0.000000    0.000000    0.000000
  0.050260521   -4.627028  -57.751423 -103.072114   -7.891220    0.000000    0.000000    0.000000    0.000000
  0.050460922   -4.630807  -58.000786 -101.319451  -10.107999    0.000000    0.000000    0.000000    0.000000
  0.050661323   -4.634105  -58.264992 -101.625157   -8.908718    0.000000    0.000000    0.000000    0.000000
  0.050861723   -4.634363  -58.543320 -103.681047   -1.496540    0.000000    0.000000    0.000000    0.000000
  0.051062124   -4.631377  -58.825905 -101.878133   -0.642192    0.000000    0.000000    0.000000    0.000000
  0.051262525   -4.627476  -59.040878 -104.615171   -9.360510    0.000000    0.000000    0.000000    0.000000
  0.051462926   -4.627667  -59.314857 -103.483814   -6.678468    0.000000    0.000000    0.000000    0.000000
  0.051663327   -4.627170  -59.521111 -104.048035    8.911635    0.000000    0.000000    0.000000    0.000000
  0.051863727   -4.627613  -59.761135 -104.070177    5.026673    0.000000    0.000000    0.000000    0.000000
  0.052064128   -4.632011  -59.977421 -104.024153    4.448167    0.000000    0.000000    0.000000    0.000000
  0.052264529   -4.633874  -60.237698 -103.914414    9.382853    0.000000    0.000000    0.000000    0.000000
  0.052464930   -4.633890  -60.460411 -100.964508   -1.091240    0.000000    0.000000    0.000000    0.000000
  0.052665331   -4.634052  -60.711338 -103.221740   13.096810    0.000000    0.000000    0.000000    0.000000
  0.052865731   -4.639615  -60.947685 -104.370205    8.821409    0.000000    0.000000    0.000000    0.000000
