! Anritsu VNA Master:                     Model: MS2036C/10/77
! SN:                                  1601066
! /bd0/18may26.balun/4b.r20.3.s2p
! Existing Calibration Information:
! TYPE:                         Current Settings,       Active Cal Settings
! TIME:             	   05/26/2018 05:18:35 PM,    05/26/2018 05:08:07 PM
! INTERNAL TEMP:    	                   52.8 C,                    52.5 C
! # POINTS:         	                      500,                       500
! START FREQ:       	               20.000 MHz,                20.000 MHz
! STOP FREQ:        	              120.000 MHz,               120.000 MHz
! SOURCE POWER:     	                     High,                      High
! IFBW:             	                    50 Hz,                     50 Hz
! AVG FACTOR:       	                       1 ,                        1 
! REF PLANE 1:      	                     0 mm,                      0 mm
! REF PLANE 2:      	                     0 mm,                      0 mm
! CAL TYPE:         	                 Full S11,                  Full S11
! CAL METHOD:       	                     SOLT,                      SOLT
! CAL LINE TYPE:    	                     Coax,                      Coax
! DUT PORT 1:       	                K-Conn(M),                 K-Conn(M)
! DUT PORT 2:       	                K-Conn(M),                 K-Conn(M)
! CAL STATUS:       	        OK: Accuracy High,                        --
# GHZ S DB R 50.0
! FREQ.GHZ       S11DB        S11A       S21DB        S21A       S12DB        S12A       S22DB        S22A
  0.020000000   -7.288677  154.443436  -91.394954   34.324696    0.000000    0.000000    0.000000    0.000000
  0.020200401   -7.287133  154.223251  -91.876640   34.518322    0.000000    0.000000    0.000000    0.000000
  0.020400802   -7.282908  153.978943  -92.249179   33.518711    0.000000    0.000000    0.000000    0.000000
  0.020601202   -7.280219  153.731110  -91.944360   37.286148    0.000000    0.000000    0.000000    0.000000
  0.020801603   -7.278311  153.489090  -92.238546   35.569294    0.000000    0.000000    0.000000    0.000000
  0.021002004   -7.276069  153.249847  -91.975033   34.596275    0.000000    0.000000    0.000000    0.000000
  0.021202405   -7.273858  153.011307  -91.935520   36.441433    0.000000    0.000000    0.000000    0.000000
  0.021402806   -7.280968  152.762924  -91.987498   31.768389    0.000000    0.000000    0.000000    0.000000
  0.021603206   -7.279759  152.577789  -92.884417   33.100075    0.000000    0.000000    0.000000    0.000000
  0.021803607   -7.283047  152.335190  -92.258307   35.858429    0.000000    0.000000    0.000000    0.000000
  0.022004008   -7.292159  152.084091  -92.389980   32.335808    0.000000    0.000000    0.000000    0.000000
  0.022204409   -7.293131  151.850266  -91.941621   30.365822    0.000000    0.000000    0.000000    0.000000
  0.022404810   -7.296451  151.610535  -92.229877   30.198982    0.000000    0.000000    0.000000    0.000000
  0.022605210   -7.298292  151.358459  -92.763580   31.144176    0.000000    0.000000    0.000000    0.000000
  0.022805611   -7.301703  151.092972  -92.716049   27.100876    0.000000    0.000000    0.000000    0.000000
  0.023006012   -7.298260  150.839203  -92.819100   31.606598    0.000000    0.000000    0.000000    0.000000
  0.023206413   -7.300381  150.576233  -92.730168   23.471462    0.000000    0.000000    0.000000    0.000000
  0.023406814   -7.301113  150.280960  -92.431996   27.395319    0.000000    0.000000    0.000000    0.000000
  0.023607214   -7.299068  150.031982  -92.180712   22.787754    0.000000    0.000000    0.000000    0.000000
  0.023807615   -7.300024  149.745926  -93.885596   22.348600    0.000000    0.000000    0.000000    0.000000
  0.024008016   -7.295043  149.476822  -93.280233   17.998600    0.000000    0.000000    0.000000    0.000000
  0.024208417   -7.296747  149.231522  -93.612046   20.006838    0.000000    0.000000    0.000000    0.000000
  0.024408818   -7.301116  148.998322  -95.366121   26.266024    0.000000    0.000000    0.000000    0.000000
  0.024609218   -7.300468  148.795105  -93.880162   23.100134    0.000000    0.000000    0.000000    0.000000
  0.024809619   -7.302427  148.573364  -93.842419   23.093191    0.000000    0.000000    0.000000    0.000000
  0.025010020   -7.299195  148.328247  -94.290571   19.234835    0.000000    0.000000    0.000000    0.000000
  0.025210421   -7.301840  148.079178  -94.723219   20.173752    0.000000    0.000000    0.000000    0.000000
  0.025410822   -7.305846  147.825989  -95.134358   20.177809    0.000000    0.000000    0.000000    0.000000
  0.025611222   -7.306719  147.571762  -95.252294   24.822701    0.000000    0.000000    0.000000    0.000000
  0.025811623   -7.301335  147.297501  -94.850642   21.581869    0.000000    0.000000    0.000000    0.000000
  0.026012024   -7.298829  147.039215  -95.059609   26.846836    0.000000    0.000000    0.000000    0.000000
  0.026212425   -7.297918  146.778839  -95.619011   26.702766    0.000000    0.000000    0.000000    0.000000
  0.026412826   -7.298844  146.536453  -96.135514   23.257761    0.000000    0.000000    0.000000    0.000000
  0.026613226   -7.296741  146.301239  -95.856820   21.215054    0.000000    0.000000    0.000000    0.000000
  0.026813627   -7.295948  146.093750  -95.255602   20.439566    0.000000    0.000000    0.000000    0.000000
  0.027014028   -7.298564  145.891739  -95.603718   20.769867    0.000000    0.000000    0.000000    0.000000
  0.027214429   -7.302716  145.708542  -95.255859   21.468819    0.000000    0.000000    0.000000    0.000000
  0.027414830   -7.308395  145.495163  -95.436310   19.988087    0.000000    0.000000    0.000000    0.000000
  0.027615230   -7.309286  145.262711  -95.591609   16.733107    0.000000    0.000000    0.000000    0.000000
  0.027815631   -7.320669  144.995911  -94.838931   18.248970    0.000000    0.000000    0.000000    0.000000
  0.028016032   -7.325355  144.729645  -95.824801   18.171783    0.000000    0.000000    0.000000    0.000000
  0.028216433   -7.329763  144.429474  -95.946328   19.270123    0.000000    0.000000    0.000000    0.000000
  0.028416834   -7.331607  144.138947  -96.142994   16.087961    0.000000    0.000000    0.000000    0.000000
  0.028617234   -7.331310  143.824860  -96.184735   18.646435    0.000000    0.000000    0.000000    0.000000
  0.028817635   -7.333645  143.521393  -95.626321   16.821270    0.000000    0.000000    0.000000    0.000000
  0.029018036   -7.332726  143.215469  -96.077500   16.609875    0.000000    0.000000    0.000000    0.000000
  0.029218437   -7.331003  142.924438  -97.228158   16.261696    0.000000    0.000000    0.000000    0.000000
  0.029418838   -7.323901  142.669540  -96.888450   16.870274    0.000000    0.000000    0.000000    0.000000
  0.029619238   -7.318898  142.437958  -97.265283   16.577753    0.000000    0.000000    0.000000    0.000000
  0.029819639   -7.315574  142.220596  -97.737019   20.797852    0.000000    0.000000    0.000000    0.000000
  0.030020040   -7.311517  142.022888  -96.931312   17.301723    0.000000    0.000000    0.000000    0.000000
  0.030220441   -7.310019  141.805313  -97.751582   16.643242    0.000000    0.000000    0.000000    0.000000
  0.030420842   -7.312421  141.583206  -97.195253   15.124153    0.000000    0.000000    0.000000    0.000000
  0.030621242   -7.322188  141.327591  -96.440631   14.935937    0.000000    0.000000    0.000000    0.000000
  0.030821643   -7.325183  141.064499  -98.451228   15.903161    0.000000    0.000000    0.000000    0.000000
  0.031022044   -7.323643  140.763290  -97.068769   17.805674    0.000000    0.000000    0.000000    0.000000
  0.031222445   -7.312492  140.539688  -97.154114    8.242860    0.000000    0.000000    0.000000    0.000000
  0.031422846   -7.311903  140.243652  -97.924190    9.773424    0.000000    0.000000    0.000000    0.000000
  0.031623246   -7.311425  139.994354  -98.213392   17.248594    0.000000    0.000000    0.000000    0.000000
  0.031823647   -7.305035  139.732620  -97.588438    5.565560    0.000000    0.000000    0.000000    0.000000
  0.032024048   -7.299691  139.498291  -97.534504   13.609591    0.000000    0.000000    0.000000    0.000000
  0.032224449   -7.292904  139.275833  -98.700017   23.724905    0.000000    0.000000    0.000000    0.000000
  0.032424850   -7.287277  139.044067  -96.556328   14.974741    0.000000    0.000000    0.000000    0.000000
  0.032625251   -7.282851  138.830780  -99.400721   14.113258    0.000000    0.000000    0.000000    0.000000
  0.032825651   -7.282304  138.626785  -97.141863    5.054784    0.000000    0.000000    0.000000    0.000000
  0.033026052   -7.285151  138.424118  -98.092616   10.802571    0.000000    0.000000    0.000000    0.000000
  0.033226453   -7.288822  138.180237  -97.208907    8.241059    0.000000    0.000000    0.000000    0.000000
  0.033426854   -7.296340  137.924820  -99.598005   11.429234    0.000000    0.000000    0.000000    0.000000
  0.033627255   -7.300583  137.671494  -97.921302   10.681832    0.000000    0.000000    0.000000    0.000000
  0.033827655   -7.306469  137.402069  -98.650989    6.834816    0.000000    0.000000    0.000000    0.000000
  0.034028056   -7.309602  137.085754  -98.621042    7.146323    0.000000    0.000000    0.000000    0.000000
  0.034228457   -7.314036  136.800400  -98.422798   21.059706    0.000000    0.000000    0.000000    0.000000
  0.034428858   -7.317450  136.509521  -98.138737   10.993504    0.000000    0.000000    0.000000    0.000000
  0.034629259   -7.314305  136.240799  -99.920984   -1.689131    0.000000    0.000000    0.000000    0.000000
  0.034829659   -7.310327  135.973602  -98.735874    8.994044    0.000000    0.000000    0.000000    0.000000
  0.035030060   -7.300244  135.696121  -98.044682   11.301499    0.000000    0.000000    0.000000    0.000000
  0.035230461   -7.291644  135.458115  -99.771310    7.346729    0.000000    0.000000    0.000000    0.000000
  0.035430862   -7.282294  135.217285  -98.439978   12.530027    0.000000    0.000000    0.000000    0.000000
  0.035631263   -7.275469  135.019104  -99.492471   16.397713    0.000000    0.000000    0.000000    0.000000
  0.035831663   -7.275399  134.852722  -99.656844    2.981502    0.000000    0.000000    0.000000    0.000000
  0.036032064   -7.276288  134.666107  -98.805128   11.472439    0.000000    0.000000    0.000000    0.000000
  0.036232465   -7.285128  134.452621  -99.537564   11.196201    0.000000    0.000000    0.000000    0.000000
  0.036432866   -7.291307  134.222717  -99.371302    8.952018    0.000000    0.000000    0.000000    0.000000
  0.036633267   -7.297730  133.949326  -99.356599   10.625996    0.000000    0.000000    0.000000    0.000000
  0.036833667   -7.301725  133.667542  -99.649017    1.433755    0.000000    0.000000    0.000000    0.000000
  0.037034068   -7.305996  133.454010  -99.428918   13.634951    0.000000    0.000000    0.000000    0.000000
  0.037234469   -7.306477  133.160660  -98.534886    0.699698    0.000000    0.000000    0.000000    0.000000
  0.037434870   -7.303544  132.901230 -100.786756   12.340548    0.000000    0.000000    0.000000    0.000000
  0.037635271   -7.296073  132.653030  -99.757867   11.244530    0.000000    0.000000    0.000000    0.000000
  0.037835671   -7.289693  132.419250  -99.649542    9.099504    0.000000    0.000000    0.000000    0.000000
  0.038036072   -7.286119  132.197357  -99.957372   15.116529    0.000000    0.000000    0.000000    0.000000
  0.038236473   -7.282691  131.995621 -101.331059    1.735520    0.000000    0.000000    0.000000    0.000000
  0.038436874   -7.288533  131.795837 -100.377050    1.963529    0.000000    0.000000    0.000000    0.000000
  0.038637275   -7.295921  131.580948 -100.536343    2.021260    0.000000    0.000000    0.000000    0.000000
  0.038837675   -7.305388  131.325714  -99.917747    2.141064    0.000000    0.000000    0.000000    0.000000
  0.039038076   -7.310115  131.040619  -99.732572    7.712018    0.000000    0.000000    0.000000    0.000000
  0.039238477   -7.318406  130.768082 -100.358968    7.699957    0.000000    0.000000    0.000000    0.000000
  0.039438878   -7.325257  130.463669 -100.419754   10.417192    0.000000    0.000000    0.000000    0.000000
  0.039639279   -7.328355  130.181076 -100.616440    1.560569    0.000000    0.000000    0.000000    0.000000
  0.039839679   -7.327332  129.882614 -100.913563    9.869734    0.000000    0.000000    0.000000    0.000000
  0.040040080   -7.321331  129.589478 -101.059224    2.446295    0.000000    0.000000    0.000000    0.000000
  0.040240481   -7.316138  129.290955 -101.441196    5.606754    0.000000    0.000000    0.000000    0.000000
  0.040440882   -7.307851  128.997528 -100.991442   13.326123    0.000000    0.000000    0.000000    0.000000
  0.040641283   -7.301446  128.692474 -100.962496    1.457196    0.000000    0.000000    0.000000    0.000000
  0.040841683   -7.290701  128.458038 -101.430809   18.250650    0.000000    0.000000    0.000000    0.000000
  0.041042084   -7.285969  128.234177  -99.912753   13.884211    0.000000    0.000000    0.000000    0.000000
  0.041242485   -7.280913  128.048752 -101.807913   11.868389    0.000000    0.000000    0.000000    0.000000
  0.041442886   -7.283474  127.854736 -100.757189   11.489212    0.000000    0.000000    0.000000    0.000000
  0.041643287   -7.288157  127.611633  -98.776628   -1.876252    0.000000    0.000000    0.000000    0.000000
  0.041843687   -7.290675  127.359642 -101.825845    8.540460    0.000000    0.000000    0.000000    0.000000
  0.042044088   -7.291863  127.108192 -101.364278    5.887942    0.000000    0.000000    0.000000    0.000000
  0.042244489   -7.292738  126.881844 -100.325405    6.821375    0.000000    0.000000    0.000000    0.000000
  0.042444890   -7.290152  126.616478 -100.219475   12.128592    0.000000    0.000000    0.000000    0.000000
  0.042645291   -7.287114  126.362831  -99.777706   10.145853    0.000000    0.000000    0.000000    0.000000
  0.042845691   -7.281598  126.129562 -101.858585   10.648942    0.000000    0.000000    0.000000    0.000000
  0.043046092   -7.275438  125.850594 -100.809190  -11.334761    0.000000    0.000000    0.000000    0.000000
  0.043246493   -7.267996  125.657379  -99.993924    6.158309    0.000000    0.000000    0.000000    0.000000
  0.043446894   -7.263268  125.456749 -100.918184    1.997459    0.000000    0.000000    0.000000    0.000000
  0.043647295   -7.257253  125.240150 -103.078570   -3.103230    0.000000    0.000000    0.000000    0.000000
  0.043847695   -7.262627  125.054344 -102.520434    1.633774    0.000000    0.000000    0.000000    0.000000
  0.044048096   -7.270189  124.873604 -101.779983    8.940686    0.000000    0.000000    0.000000    0.000000
  0.044248497   -7.271642  124.650223 -100.619735   11.886028    0.000000    0.000000    0.000000    0.000000
  0.044448898   -7.276099  124.392815 -103.421288  -11.127862    0.000000    0.000000    0.000000    0.000000
  0.044649299   -7.284248  124.181580 -101.805194    8.984812    0.000000    0.000000    0.000000    0.000000
  0.044849699   -7.289285  123.920967 -103.233905    0.871556    0.000000    0.000000    0.000000    0.000000
  0.045050100   -7.290198  123.682419 -103.291364    9.072730    0.000000    0.000000    0.000000    0.000000
  0.045250501   -7.294189  123.418770 -102.319733   10.026100    0.000000    0.000000    0.000000    0.000000
  0.045450902   -7.293176  123.159157 -102.056523   20.211372    0.000000    0.000000    0.000000    0.000000
  0.045651303   -7.291536  122.863411 -102.235751    5.812557    0.000000    0.000000    0.000000    0.000000
  0.045851703   -7.286914  122.582619 -104.275671    5.362859    0.000000    0.000000    0.000000    0.000000
  0.046052104   -7.282334  122.326080 -100.742256   -1.906190    0.000000    0.000000    0.000000    0.000000
  0.046252505   -7.279156  122.085686 -101.913577    7.112257    0.000000    0.000000    0.000000    0.000000
  0.046452906   -7.278719  121.882744 -102.211187    9.936037    0.000000    0.000000    0.000000    0.000000
  0.046653307   -7.281853  121.712875 -100.588100    9.810793    0.000000    0.000000    0.000000    0.000000
  0.046853707   -7.286194  121.465683 -101.419314   11.578104    0.000000    0.000000    0.000000    0.000000
  0.047054108   -7.294622  121.220642 -100.023605    4.503437    0.000000    0.000000    0.000000    0.000000
  0.047254509   -7.298274  120.954498 -100.739215   -0.261389    0.000000    0.000000    0.000000    0.000000
  0.047454910   -7.303444  120.721214 -101.141706   -2.316643    0.000000    0.000000    0.000000    0.000000
  0.047655311   -7.305270  120.428696 -100.914257   -0.964266    0.000000    0.000000    0.000000    0.000000
  0.047855711   -7.305786  120.153412 -102.028504   -2.840538    0.000000    0.000000    0.000000    0.000000
  0.048056112   -7.306266  119.862320 -102.817930    0.674478    0.000000    0.000000    0.000000    0.000000
  0.048256513   -7.297512  119.551094 -103.546911   -0.674142    0.000000    0.000000    0.000000    0.000000
  0.048456914   -7.290150  119.305550 -102.045645   -3.366905    0.000000    0.000000    0.000000    0.000000
  0.048657315   -7.285240  119.057098 -101.712570    0.353605    0.000000    0.000000    0.000000    0.000000
  0.048857715   -7.281655  118.836983 -104.080672    7.254643    0.000000    0.000000    0.000000    0.000000
  0.049058116   -7.281508  118.599403 -102.994722  -13.139668    0.000000    0.000000    0.000000    0.000000
  0.049258517   -7.280411  118.408684 -103.648957    9.621252    0.000000    0.000000    0.000000    0.000000
  0.049458918   -7.282073  118.176697 -103.930350    0.032278    0.000000    0.000000    0.000000    0.000000
  0.049659319   -7.285107  117.928925 -101.969367   -3.273407    0.000000    0.000000    0.000000    0.000000
  0.049859719   -7.287561  117.712479 -103.765097    4.815195    0.000000    0.000000    0.000000    0.000000
  0.050060120   -7.287386  117.457878 -102.790181   16.327820    0.000000    0.000000    0.000000    0.000000
  0.050260521   -7.289819  117.212265 -104.455186    5.909905    0.000000    0.000000    0.000000    0.000000
  0.050460922   -7.287139  116.983658 -102.977852    9.319483    0.000000    0.000000    0.000000    0.000000
  0.050661323   -7.291061  116.718506 -102.901466   10.555040    0.000000    0.000000    0.000000    0.000000
  0.050861723   -7.286149  116.451103 -103.034860   -0.105267    0.000000    0.000000    0.000000    0.000000
  0.051062124   -7.277270  116.158775 -103.394274   -5.316010    0.000000    0.000000    0.000000    0.000000
  0.051262525   -7.273558  115.901764 -103.681781   11.825484    0.000000    0.000000    0.000000    0.000000
  0.051462926   -7.267855  115.668732 -103.315375   13.309964    0.000000    0.000000    0.000000    0.000000
  0.051663327   -7.264351  115.484512 -103.021993   19.012981    0.000000    0.000000    0.000000    0.000000
  0.051863727   -7.262546  115.274849 -100.588512   16.349060    0.000000    0.000000    0.000000    0.000000
  0.052064128   -7.266582  115.084259 -103.218889    4.827739    0.000000    0.000000    0.000000    0.000000
  0.052264529   -7.270324  114.868675 -103.509569   -1.520421    0.000000    0.000000    0.000000    0.000000
  0.052464930   -7.272792  114.629456 -102.285380    5.710193    0.000000    0.000000    0.000000    0.000000
  0.052665331   -7.277355  114.391739 -102.076320   -5.577184    0.000000    0.000000    0.000000    0.000000
  0.052865731   -7.282233  114.124947 -104.027657  -14.403211    0.000000    0.000000    0.000000    0.000000
