! Anritsu VNA Master:                     Model: MS2036C/10/77
! SN:                                  1601066
! /bd0/18may26.balun/4b.r200.3.s2p
! Existing Calibration Information:
! TYPE:                         Current Settings,       Active Cal Settings
! TIME:             	   05/26/2018 05:21:37 PM,    05/26/2018 05:08:07 PM
! INTERNAL TEMP:    	                   52.8 C,                    52.5 C
! # POINTS:         	                      500,                       500
! START FREQ:       	               20.000 MHz,                20.000 MHz
! STOP FREQ:        	              120.000 MHz,               120.000 MHz
! SOURCE POWER:     	                     High,                      High
! IFBW:             	                    50 Hz,                     50 Hz
! AVG FACTOR:       	                       1 ,                        1 
! REF PLANE 1:      	                     0 mm,                      0 mm
! REF PLANE 2:      	                     0 mm,                      0 mm
! CAL TYPE:         	                 Full S11,                  Full S11
! CAL METHOD:       	                     SOLT,                      SOLT
! CAL LINE TYPE:    	                     Coax,                      Coax
! DUT PORT 1:       	                K-Conn(M),                 K-Conn(M)
! DUT PORT 2:       	                K-Conn(M),                 K-Conn(M)
! CAL STATUS:       	        OK: Accuracy High,                        --
# GHZ S DB R 50.0
! FREQ.GHZ       S11DB        S11A       S21DB        S21A       S12DB        S12A       S22DB        S22A
  0.020000000   -4.544654  -22.479055  -90.683242   40.551674    0.000000    0.000000    0.000000    0.000000
  0.020200401   -4.543969  -22.720863  -91.266124   34.833073    0.000000    0.000000    0.000000    0.000000
  0.020400802   -4.546869  -22.955225  -91.244728   35.150066    0.000000    0.000000    0.000000    0.000000
  0.020601202   -4.545423  -23.194706  -91.855378   37.306183    0.000000    0.000000    0.000000    0.000000
  0.020801603   -4.544498  -23.429487  -91.790695   32.982254    0.000000    0.000000    0.000000    0.000000
  0.021002004   -4.543335  -23.679571  -91.665716   30.555038    0.000000    0.000000    0.000000    0.000000
  0.021202405   -4.547365  -23.935749  -91.658450   27.566353    0.000000    0.000000    0.000000    0.000000
  0.021402806   -4.544944  -24.177906  -91.984906   30.427191    0.000000    0.000000    0.000000    0.000000
  0.021603206   -4.546768  -24.420786  -91.938112   26.908106    0.000000    0.000000    0.000000    0.000000
  0.021803607   -4.550270  -24.635784  -92.577630   30.331682    0.000000    0.000000    0.000000    0.000000
  0.022004008   -4.551103  -24.866734  -92.679816   24.855976    0.000000    0.000000    0.000000    0.000000
  0.022204409   -4.550120  -25.077280  -93.193182   26.515266    0.000000    0.000000    0.000000    0.000000
  0.022404810   -4.549085  -25.302738  -92.831320   24.895748    0.000000    0.000000    0.000000    0.000000
  0.022605210   -4.549018  -25.538260  -93.418792   27.525997    0.000000    0.000000    0.000000    0.000000
  0.022805611   -4.550404  -25.777262  -93.941427   28.128065    0.000000    0.000000    0.000000    0.000000
  0.023006012   -4.549553  -25.998211  -93.586893   28.691753    0.000000    0.000000    0.000000    0.000000
  0.023206413   -4.547263  -26.232533  -93.405277   30.131937    0.000000    0.000000    0.000000    0.000000
  0.023406814   -4.544044  -26.457352  -93.209669   25.203905    0.000000    0.000000    0.000000    0.000000
  0.023607214   -4.540708  -26.711695  -93.561587   31.830959    0.000000    0.000000    0.000000    0.000000
  0.023807615   -4.539062  -26.934031  -93.103562   31.031406    0.000000    0.000000    0.000000    0.000000
  0.024008016   -4.544700  -27.154318  -93.781299   28.740364    0.000000    0.000000    0.000000    0.000000
  0.024208417   -4.541614  -27.367302  -93.561241   32.022541    0.000000    0.000000    0.000000    0.000000
  0.024408818   -4.547514  -27.558271  -93.708218   32.782974    0.000000    0.000000    0.000000    0.000000
  0.024609218   -4.550285  -27.769030  -93.785938   30.824749    0.000000    0.000000    0.000000    0.000000
  0.024809619   -4.553468  -27.972347  -93.322704   25.595600    0.000000    0.000000    0.000000    0.000000
  0.025010020   -4.556646  -28.209354  -94.014031   24.168509    0.000000    0.000000    0.000000    0.000000
  0.025210421   -4.561401  -28.434290  -93.816304   23.579908    0.000000    0.000000    0.000000    0.000000
  0.025410822   -4.564361  -28.688601  -93.575702   18.664698    0.000000    0.000000    0.000000    0.000000
  0.025611222   -4.562828  -28.936609  -94.139413   24.069506    0.000000    0.000000    0.000000    0.000000
  0.025811623   -4.564126  -29.195230  -94.169877   22.337196    0.000000    0.000000    0.000000    0.000000
  0.026012024   -4.565131  -29.455484  -95.131912   23.848660    0.000000    0.000000    0.000000    0.000000
  0.026212425   -4.565097  -29.716356  -93.903521   21.945219    0.000000    0.000000    0.000000    0.000000
  0.026412826   -4.561214  -29.995697  -94.001415   17.277584    0.000000    0.000000    0.000000    0.000000
  0.026613226   -4.558107  -30.236404  -94.928724   14.628693    0.000000    0.000000    0.000000    0.000000
  0.026813627   -4.554408  -30.462418  -95.563353   15.085514    0.000000    0.000000    0.000000    0.000000
  0.027014028   -4.550210  -30.653404  -96.041839   16.711596    0.000000    0.000000    0.000000    0.000000
  0.027214429   -4.552770  -30.833223  -95.598583   16.960970    0.000000    0.000000    0.000000    0.000000
  0.027414830   -4.551322  -31.014301  -95.495170   20.565506    0.000000    0.000000    0.000000    0.000000
  0.027615230   -4.553852  -31.221853  -96.358199   14.255699    0.000000    0.000000    0.000000    0.000000
  0.027815631   -4.558608  -31.428398  -95.480328   14.708703    0.000000    0.000000    0.000000    0.000000
  0.028016032   -4.565411  -31.678556  -96.180550   17.938282    0.000000    0.000000    0.000000    0.000000
  0.028216433   -4.565805  -31.924665  -96.200311   20.540268    0.000000    0.000000    0.000000    0.000000
  0.028416834   -4.562568  -32.180428  -96.266027   14.565037    0.000000    0.000000    0.000000    0.000000
  0.028617234   -4.558936  -32.421177  -96.668491   16.292440    0.000000    0.000000    0.000000    0.000000
  0.028817635   -4.555095  -32.683098  -96.319065   17.810675    0.000000    0.000000    0.000000    0.000000
  0.029018036   -4.554225  -32.906822  -96.564630   23.122316    0.000000    0.000000    0.000000    0.000000
  0.029218437   -4.550030  -33.120789  -96.611298   18.854900    0.000000    0.000000    0.000000    0.000000
  0.029418838   -4.546966  -33.299126  -96.139477   17.033560    0.000000    0.000000    0.000000    0.000000
  0.029619238   -4.545021  -33.473068  -96.319283   15.614735    0.000000    0.000000    0.000000    0.000000
  0.029819639   -4.542764  -33.622349  -96.033089   17.604956    0.000000    0.000000    0.000000    0.000000
  0.030020040   -4.540685  -33.803978  -96.639666   18.989525    0.000000    0.000000    0.000000    0.000000
  0.030220441   -4.545472  -33.984745  -96.429883   17.397532    0.000000    0.000000    0.000000    0.000000
  0.030420842   -4.552942  -34.224075  -97.532975   10.797140    0.000000    0.000000    0.000000    0.000000
  0.030621242   -4.558552  -34.457352  -96.851531   18.272009    0.000000    0.000000    0.000000    0.000000
  0.030821643   -4.559331  -34.704140  -96.836194   19.074095    0.000000    0.000000    0.000000    0.000000
  0.031022044   -4.565794  -34.943989  -97.259124    5.951611    0.000000    0.000000    0.000000    0.000000
  0.031222445   -4.559508  -35.155621  -98.273744   16.535263    0.000000    0.000000    0.000000    0.000000
  0.031422846   -4.565330  -35.418991  -96.688570   13.814773    0.000000    0.000000    0.000000    0.000000
  0.031623246   -4.568661  -35.689308  -97.009921   16.963078    0.000000    0.000000    0.000000    0.000000
  0.031823647   -4.570819  -35.955376  -96.826811   14.338128    0.000000    0.000000    0.000000    0.000000
  0.032024048   -4.570580  -36.207172  -98.832069   -0.430456    0.000000    0.000000    0.000000    0.000000
  0.032224449   -4.565908  -36.450691  -96.120299   17.707148    0.000000    0.000000    0.000000    0.000000
  0.032424850   -4.561443  -36.680862  -98.551132   11.270750    0.000000    0.000000    0.000000    0.000000
  0.032625251   -4.554889  -36.917118  -98.877531   16.800423    0.000000    0.000000    0.000000    0.000000
  0.032825651   -4.551217  -37.107922  -97.242148    7.547788    0.000000    0.000000    0.000000    0.000000
  0.033026052   -4.553545  -37.286495  -98.561320   18.111385    0.000000    0.000000    0.000000    0.000000
  0.033226453   -4.555595  -37.466988  -98.507961   11.583370    0.000000    0.000000    0.000000    0.000000
  0.033426854   -4.560285  -37.687508  -99.761489   10.711653    0.000000    0.000000    0.000000    0.000000
  0.033627255   -4.566642  -37.925091  -98.302429   18.245142    0.000000    0.000000    0.000000    0.000000
  0.033827655   -4.568179  -38.191570  -96.942713    3.276711    0.000000    0.000000    0.000000    0.000000
  0.034028056   -4.575770  -38.457767  -98.564387    2.874808    0.000000    0.000000    0.000000    0.000000
  0.034228457   -4.578106  -38.714016  -98.837810   13.487273    0.000000    0.000000    0.000000    0.000000
  0.034428858   -4.575215  -38.966393  -97.705535   13.042537    0.000000    0.000000    0.000000    0.000000
  0.034629259   -4.572514  -39.195618  -99.918910   10.292483    0.000000    0.000000    0.000000    0.000000
  0.034829659   -4.569956  -39.452961  -97.719809    7.995167    0.000000    0.000000    0.000000    0.000000
  0.035030060   -4.564125  -39.677570  -98.751323    8.053117    0.000000    0.000000    0.000000    0.000000
  0.035230461   -4.558675  -39.901913  -98.950158    6.563112    0.000000    0.000000    0.000000    0.000000
  0.035430862   -4.555647  -40.085716  -97.864366    5.358554    0.000000    0.000000    0.000000    0.000000
  0.035631263   -4.555652  -40.260204  -98.146092   16.826033    0.000000    0.000000    0.000000    0.000000
  0.035831663   -4.560324  -40.449295  -98.573513    6.105980    0.000000    0.000000    0.000000    0.000000
  0.036032064   -4.565938  -40.675873  -99.345248   10.815723    0.000000    0.000000    0.000000    0.000000
  0.036232465   -4.569524  -40.919231  -99.189784    9.961128    0.000000    0.000000    0.000000    0.000000
  0.036432866   -4.573481  -41.181808 -100.272753    0.920676    0.000000    0.000000    0.000000    0.000000
  0.036633267   -4.578276  -41.435535  -99.087520    5.492354    0.000000    0.000000    0.000000    0.000000
  0.036833667   -4.582856  -41.712669 -100.239287    9.084645    0.000000    0.000000    0.000000    0.000000
  0.037034068   -4.585629  -41.975857 -100.573418    1.352428    0.000000    0.000000    0.000000    0.000000
  0.037234469   -4.587408  -42.209679  -99.898569    1.338682    0.000000    0.000000    0.000000    0.000000
  0.037434870   -4.584257  -42.451054  -99.553175   -0.341784    0.000000    0.000000    0.000000    0.000000
  0.037635271   -4.582397  -42.713989  -98.861811   11.043853    0.000000    0.000000    0.000000    0.000000
  0.037835671   -4.573495  -42.978817 -101.637930    4.128991    0.000000    0.000000    0.000000    0.000000
  0.038036072   -4.566928  -43.224350 -101.016763    8.919759    0.000000    0.000000    0.000000    0.000000
  0.038236473   -4.559694  -43.455482 -100.494860    8.494622    0.000000    0.000000    0.000000    0.000000
  0.038436874   -4.553647  -43.603748  -98.513597   12.431779    0.000000    0.000000    0.000000    0.000000
  0.038637275   -4.553770  -43.783360  -99.592922   10.218350    0.000000    0.000000    0.000000    0.000000
  0.038837675   -4.557906  -43.940086  -98.109304    5.460889    0.000000    0.000000    0.000000    0.000000
  0.039038076   -4.568487  -44.148190 -100.157078    6.897779    0.000000    0.000000    0.000000    0.000000
  0.039238477   -4.575133  -44.384453  -99.531092    4.894536    0.000000    0.000000    0.000000    0.000000
  0.039438878   -4.582069  -44.628265  -99.329665    9.476414    0.000000    0.000000    0.000000    0.000000
  0.039639279   -4.586064  -44.848259 -100.610979    3.572610    0.000000    0.000000    0.000000    0.000000
  0.039839679   -4.589275  -45.111324  -99.511867    6.175072    0.000000    0.000000    0.000000    0.000000
  0.040040080   -4.585725  -45.336998  -99.032776    6.254095    0.000000    0.000000    0.000000    0.000000
  0.040240481   -4.583262  -45.581924  -99.168162    9.068171    0.000000    0.000000    0.000000    0.000000
  0.040440882   -4.576047  -45.819344 -100.332916    4.985346    0.000000    0.000000    0.000000    0.000000
  0.040641283   -4.571963  -46.022739 -100.611785   -3.422067    0.000000    0.000000    0.000000    0.000000
  0.040841683   -4.567657  -46.222496 -102.227461    9.909231    0.000000    0.000000    0.000000    0.000000
  0.041042084   -4.568390  -46.389641 -100.583155    2.702586    0.000000    0.000000    0.000000    0.000000
  0.041242485   -4.574474  -46.607330 -101.866053    4.519842    0.000000    0.000000    0.000000    0.000000
  0.041442886   -4.581377  -46.789528 -100.921857    2.538197    0.000000    0.000000    0.000000    0.000000
  0.041643287   -4.588242  -47.021179 -103.853109   -4.638130    0.000000    0.000000    0.000000    0.000000
  0.041843687   -4.592786  -47.265839 -101.518282   -5.789732    0.000000    0.000000    0.000000    0.000000
  0.042044088   -4.601007  -47.524529 -101.585146    6.924487    0.000000    0.000000    0.000000    0.000000
  0.042244489   -4.605173  -47.776329 -103.454279    1.603818    0.000000    0.000000    0.000000    0.000000
  0.042444890   -4.605354  -48.011864 -101.881869    1.758268    0.000000    0.000000    0.000000    0.000000
  0.042645291   -4.605303  -48.267982 -103.233895    7.544325    0.000000    0.000000    0.000000    0.000000
  0.042845691   -4.608749  -48.514145 -101.190681   14.007698    0.000000    0.000000    0.000000    0.000000
  0.043046092   -4.604980  -48.788200 -101.604330   16.865641    0.000000    0.000000    0.000000    0.000000
  0.043246493   -4.600704  -49.085670 -101.722903   11.785327    0.000000    0.000000    0.000000    0.000000
  0.043446894   -4.594668  -49.316898 -100.557865    8.146588    0.000000    0.000000    0.000000    0.000000
  0.043647295   -4.590635  -49.527206 -102.260287   10.527111    0.000000    0.000000    0.000000    0.000000
  0.043847695   -4.587893  -49.722713 -102.452650   18.342169    0.000000    0.000000    0.000000    0.000000
  0.044048096   -4.591569  -49.900822 -100.718618   12.903436    0.000000    0.000000    0.000000    0.000000
  0.044248497   -4.599151  -50.113884 -101.517533   15.612713    0.000000    0.000000    0.000000    0.000000
  0.044448898   -4.606600  -50.333866 -100.775745    9.065599    0.000000    0.000000    0.000000    0.000000
  0.044649299   -4.610385  -50.599297 -100.013072    6.976178    0.000000    0.000000    0.000000    0.000000
  0.044849699   -4.616224  -50.845890 -101.462880   -3.426430    0.000000    0.000000    0.000000    0.000000
  0.045050100   -4.620110  -51.086830 -101.677831   -1.888889    0.000000    0.000000    0.000000    0.000000
  0.045250501   -4.621295  -51.365540 -100.037751    7.041292    0.000000    0.000000    0.000000    0.000000
  0.045450902   -4.620881  -51.655949 -101.004321    6.360742    0.000000    0.000000    0.000000    0.000000
  0.045651303   -4.615947  -51.929752 -101.609990   -3.556140    0.000000    0.000000    0.000000    0.000000
  0.045851703   -4.609849  -52.164173  -99.926379   -0.814822    0.000000    0.000000    0.000000    0.000000
  0.046052104   -4.604042  -52.371979 -100.468851   -1.615346    0.000000    0.000000    0.000000    0.000000
  0.046252505   -4.601462  -52.599785 -101.849738   -2.359679    0.000000    0.000000    0.000000    0.000000
  0.046452906   -4.601529  -52.790184 -103.779611    2.206007    0.000000    0.000000    0.000000    0.000000
  0.046653307   -4.603300  -52.997120 -103.311058   10.651686    0.000000    0.000000    0.000000    0.000000
  0.046853707   -4.604274  -53.223793 -102.410706   -9.901465    0.000000    0.000000    0.000000    0.000000
  0.047054108   -4.608125  -53.454929 -101.564295    1.627509    0.000000    0.000000    0.000000    0.000000
  0.047254509   -4.609593  -53.677807 -101.741673    2.339625    0.000000    0.000000    0.000000    0.000000
  0.047454910   -4.608933  -53.894440 -101.831740    2.536750    0.000000    0.000000    0.000000    0.000000
  0.047655311   -4.610740  -54.121037 -105.661980    9.976936    0.000000    0.000000    0.000000    0.000000
  0.047855711   -4.613800  -54.353630 -102.805440   11.386806    0.000000    0.000000    0.000000    0.000000
  0.048056112   -4.611577  -54.573185 -102.684768    5.703169    0.000000    0.000000    0.000000    0.000000
  0.048256513   -4.609983  -54.832138 -103.186168   11.753023    0.000000    0.000000    0.000000    0.000000
  0.048456914   -4.605783  -55.106678 -103.773900    9.932440    0.000000    0.000000    0.000000    0.000000
  0.048657315   -4.598479  -55.325119 -103.225324   11.659960    0.000000    0.000000    0.000000    0.000000
  0.048857715   -4.597280  -55.568329 -102.034509   -6.142742    0.000000    0.000000    0.000000    0.000000
  0.049058116   -4.592393  -55.739704 -106.062805   16.181608    0.000000    0.000000    0.000000    0.000000
  0.049258517   -4.597758  -55.916672 -104.531888    1.048603    0.000000    0.000000    0.000000    0.000000
  0.049458918   -4.598630  -56.102520 -100.620134   16.847210    0.000000    0.000000    0.000000    0.000000
  0.049659319   -4.601698  -56.311554 -103.266905    6.127668    0.000000    0.000000    0.000000    0.000000
  0.049859719   -4.608341  -56.539894 -101.241873    9.072188    0.000000    0.000000    0.000000    0.000000
  0.050060120   -4.616987  -56.740814 -102.911980    4.452552    0.000000    0.000000    0.000000    0.000000
  0.050260521   -4.621355  -57.017529 -102.900989    6.013947    0.000000    0.000000    0.000000    0.000000
  0.050460922   -4.629592  -57.268570 -103.158095    0.511773    0.000000    0.000000    0.000000    0.000000
  0.050661323   -4.630803  -57.531536 -104.087966    3.582598    0.000000    0.000000    0.000000    0.000000
  0.050861723   -4.629253  -57.812435 -103.780607  -23.804831    0.000000    0.000000    0.000000    0.000000
  0.051062124   -4.628241  -58.069004 -100.753910    3.471072    0.000000    0.000000    0.000000    0.000000
  0.051262525   -4.622308  -58.317883 -103.265205   -8.242993    0.000000    0.000000    0.000000    0.000000
  0.051462926   -4.621142  -58.564610 -105.368041    0.945418    0.000000    0.000000    0.000000    0.000000
  0.051663327   -4.622251  -58.797321 -103.900258  -13.328876    0.000000    0.000000    0.000000    0.000000
  0.051863727   -4.623342  -58.983150 -104.702282    7.698481    0.000000    0.000000    0.000000    0.000000
  0.052064128   -4.621116  -59.229534 -103.401005    2.370976    0.000000    0.000000    0.000000    0.000000
  0.052264529   -4.624015  -59.450233 -104.041911    1.468278    0.000000    0.000000    0.000000    0.000000
  0.052464930   -4.626981  -59.684681 -107.082742   15.432513    0.000000    0.000000    0.000000    0.000000
  0.052665331   -4.628070  -59.906956 -104.234952    9.073653    0.000000    0.000000    0.000000    0.000000
  0.052865731   -4.632066  -60.124973 -104.373721   11.806062    0.000000    0.000000    0.000000    0.000000
