! Anritsu VNA Master:                     Model: MS2036C/10/77
! SN:                                  1601066
! /bd0/18may26.balun/4b.r20.s2p
! Existing Calibration Information:
! TYPE:                         Current Settings,       Active Cal Settings
! TIME:             	   05/26/2018 04:41:35 PM,    05/26/2018 04:28:16 PM
! INTERNAL TEMP:    	                   55.5 C,                    56.3 C
! # POINTS:         	                      500,                       500
! START FREQ:       	               20.000 MHz,                20.000 MHz
! STOP FREQ:        	              120.000 MHz,               120.000 MHz
! SOURCE POWER:     	                     High,                      High
! IFBW:             	                    50 Hz,                     50 Hz
! AVG FACTOR:       	                       1 ,                        1 
! REF PLANE 1:      	                     0 mm,                      0 mm
! REF PLANE 2:      	                     0 mm,                      0 mm
! CAL TYPE:         	                 Full S11,                  Full S11
! CAL METHOD:       	                     SOLT,                      SOLT
! CAL LINE TYPE:    	                     Coax,                      Coax
! DUT PORT 1:       	                K-Conn(M),                 K-Conn(M)
! DUT PORT 2:       	                K-Conn(M),                 K-Conn(M)
! CAL STATUS:       	        OK: Accuracy High,                        --
# GHZ S DB R 50.0
! FREQ.GHZ       S11DB        S11A       S21DB        S21A       S12DB        S12A       S22DB        S22A
  0.020000000   -7.274765  154.296570  -91.688446   38.511478    0.000000    0.000000    0.000000    0.000000
  0.020200401   -7.275572  154.019913  -91.602616   33.808762    0.000000    0.000000    0.000000    0.000000
  0.020400802   -7.272605  153.774765  -91.907201   30.989651    0.000000    0.000000    0.000000    0.000000
  0.020601202   -7.269124  153.522690  -91.973223   40.712460    0.000000    0.000000    0.000000    0.000000
  0.020801603   -7.265832  153.268448  -92.099287   33.570984    0.000000    0.000000    0.000000    0.000000
  0.021002004   -7.261369  153.015686  -92.628064   35.462681    0.000000    0.000000    0.000000    0.000000
  0.021202405   -7.262061  152.777679  -92.452054   35.309971    0.000000    0.000000    0.000000    0.000000
  0.021402806   -7.260729  152.523880  -91.736256   35.046799    0.000000    0.000000    0.000000    0.000000
  0.021603206   -7.264226  152.320465  -92.297322   34.091969    0.000000    0.000000    0.000000    0.000000
  0.021803607   -7.267809  152.060532  -92.566941   31.849419    0.000000    0.000000    0.000000    0.000000
  0.022004008   -7.272439  151.845154  -92.435118   31.851131    0.000000    0.000000    0.000000    0.000000
  0.022204409   -7.274058  151.622406  -92.679904   37.677181    0.000000    0.000000    0.000000    0.000000
  0.022404810   -7.271287  151.356384  -92.125211   31.433176    0.000000    0.000000    0.000000    0.000000
  0.022605210   -7.276561  151.094116  -92.676824   27.779385    0.000000    0.000000    0.000000    0.000000
  0.022805611   -7.278463  150.860123  -93.037688   26.760014    0.000000    0.000000    0.000000    0.000000
  0.023006012   -7.280751  150.616623  -92.487103   24.754436    0.000000    0.000000    0.000000    0.000000
  0.023206413   -7.282100  150.359604  -92.983311   24.323076    0.000000    0.000000    0.000000    0.000000
  0.023406814   -7.280683  150.088226  -93.406658   24.254515    0.000000    0.000000    0.000000    0.000000
  0.023607214   -7.275500  149.789856  -93.222598   22.380064    0.000000    0.000000    0.000000    0.000000
  0.023807615   -7.278585  149.526291  -93.607656   20.401915    0.000000    0.000000    0.000000    0.000000
  0.024008016   -7.277844  149.276840  -93.381874   21.429319    0.000000    0.000000    0.000000    0.000000
  0.024208417   -7.278379  149.019577  -93.699951   20.699881    0.000000    0.000000    0.000000    0.000000
  0.024408818   -7.281367  148.778870  -93.582042   19.695278    0.000000    0.000000    0.000000    0.000000
  0.024609218   -7.286861  148.563629  -93.845241   26.747950    0.000000    0.000000    0.000000    0.000000
  0.024809619   -7.287475  148.351761  -94.580428   18.910185    0.000000    0.000000    0.000000    0.000000
  0.025010020   -7.288567  148.098999  -94.201660   22.729090    0.000000    0.000000    0.000000    0.000000
  0.025210421   -7.294105  147.859467  -95.498184   23.441393    0.000000    0.000000    0.000000    0.000000
  0.025410822   -7.297787  147.590469  -95.540094   18.528887    0.000000    0.000000    0.000000    0.000000
  0.025611222   -7.295518  147.293274  -94.893292   20.019695    0.000000    0.000000    0.000000    0.000000
  0.025811623   -7.292920  147.035233  -95.760877   18.521473    0.000000    0.000000    0.000000    0.000000
  0.026012024   -7.290289  146.748520  -95.514850   21.611719    0.000000    0.000000    0.000000    0.000000
  0.026212425   -7.289200  146.480698  -95.370191   25.465544    0.000000    0.000000    0.000000    0.000000
  0.026412826   -7.287833  146.215424  -94.417354   22.820824    0.000000    0.000000    0.000000    0.000000
  0.026613226   -7.286183  145.972260  -95.352435   20.771587    0.000000    0.000000    0.000000    0.000000
  0.026813627   -7.285119  145.751694  -95.566191   20.334530    0.000000    0.000000    0.000000    0.000000
  0.027014028   -7.287473  145.548386  -95.245064   25.009586    0.000000    0.000000    0.000000    0.000000
  0.027214429   -7.288025  145.349792  -95.179068   17.971724    0.000000    0.000000    0.000000    0.000000
  0.027414830   -7.289757  145.139465  -95.160694   20.994068    0.000000    0.000000    0.000000    0.000000
  0.027615230   -7.296230  144.905426  -95.245689   20.020470    0.000000    0.000000    0.000000    0.000000
  0.027815631   -7.300917  144.633469  -95.612822   19.261166    0.000000    0.000000    0.000000    0.000000
  0.028016032   -7.306165  144.353577  -95.605788   17.325884    0.000000    0.000000    0.000000    0.000000
  0.028216433   -7.308535  144.049011  -96.143299   15.994507    0.000000    0.000000    0.000000    0.000000
  0.028416834   -7.308801  143.759720  -95.263349   18.983973    0.000000    0.000000    0.000000    0.000000
  0.028617234   -7.310536  143.460007  -96.585943   19.463728    0.000000    0.000000    0.000000    0.000000
  0.028817635   -7.311873  143.144363  -96.265420   18.099791    0.000000    0.000000    0.000000    0.000000
  0.029018036   -7.309429  142.840698  -96.856105   11.886313    0.000000    0.000000    0.000000    0.000000
  0.029218437   -7.303818  142.564056  -97.344918   17.700069    0.000000    0.000000    0.000000    0.000000
  0.029418838   -7.298158  142.302948  -96.785116   12.579699    0.000000    0.000000    0.000000    0.000000
  0.029619238   -7.293859  142.067245  -96.565069   18.079023    0.000000    0.000000    0.000000    0.000000
  0.029819639   -7.288793  141.859634  -97.893602   16.324907    0.000000    0.000000    0.000000    0.000000
  0.030020040   -7.284636  141.663330  -97.460964   17.563972    0.000000    0.000000    0.000000    0.000000
  0.030220441   -7.283346  141.452652  -97.474105   12.789380    0.000000    0.000000    0.000000    0.000000
  0.030420842   -7.285627  141.240189  -98.487272   19.530899    0.000000    0.000000    0.000000    0.000000
  0.030621242   -7.294339  140.992630  -97.811498   23.863615    0.000000    0.000000    0.000000    0.000000
  0.030821643   -7.297105  140.715271  -97.845410   11.449434    0.000000    0.000000    0.000000    0.000000
  0.031022044   -7.296616  140.443176  -97.703527   14.311836    0.000000    0.000000    0.000000    0.000000
  0.031222445   -7.283983  140.212646  -98.200423   11.958683    0.000000    0.000000    0.000000    0.000000
  0.031422846   -7.283423  139.918991  -97.530729   20.638819    0.000000    0.000000    0.000000    0.000000
  0.031623246   -7.284736  139.644547  -97.351771   11.479292    0.000000    0.000000    0.000000    0.000000
  0.031823647   -7.277412  139.404846  -97.301717   18.191879    0.000000    0.000000    0.000000    0.000000
  0.032024048   -7.272609  139.191788  -97.700197   15.154469    0.000000    0.000000    0.000000    0.000000
  0.032224449   -7.268101  138.920654  -96.822302   14.826652    0.000000    0.000000    0.000000    0.000000
  0.032424850   -7.260532  138.709564  -97.258975   10.281115    0.000000    0.000000    0.000000    0.000000
  0.032625251   -7.255865  138.502777  -98.461282    8.979770    0.000000    0.000000    0.000000    0.000000
  0.032825651   -7.253006  138.269730  -98.119699    6.311162    0.000000    0.000000    0.000000    0.000000
  0.033026052   -7.259042  138.062271  -97.208342    9.987593    0.000000    0.000000    0.000000    0.000000
  0.033226453   -7.263696  137.840912  -98.035082    4.349417    0.000000    0.000000    0.000000    0.000000
  0.033426854   -7.266538  137.573029  -98.698780   18.545630    0.000000    0.000000    0.000000    0.000000
  0.033627255   -7.272468  137.317093  -98.654665    7.514316    0.000000    0.000000    0.000000    0.000000
  0.033827655   -7.276545  137.020111  -98.038813    9.843951    0.000000    0.000000    0.000000    0.000000
  0.034028056   -7.283180  136.731018  -98.292689    9.102976    0.000000    0.000000    0.000000    0.000000
  0.034228457   -7.287145  136.443512  -98.978327    0.097099    0.000000    0.000000    0.000000    0.000000
  0.034428858   -7.287522  136.160934  -98.841599    8.666883    0.000000    0.000000    0.000000    0.000000
  0.034629259   -7.289034  135.874146  -98.889107    6.592863    0.000000    0.000000    0.000000    0.000000
  0.034829659   -7.283849  135.612061  -97.398501    4.107568    0.000000    0.000000    0.000000    0.000000
  0.035030060   -7.275538  135.346970  -99.552402   -0.974962    0.000000    0.000000    0.000000    0.000000
  0.035230461   -7.268442  135.062576  -99.145710   11.862375    0.000000    0.000000    0.000000    0.000000
  0.035430862   -7.258127  134.846481  -99.202661    5.200639    0.000000    0.000000    0.000000    0.000000
  0.035631263   -7.249205  134.666306  -99.045474    5.293179    0.000000    0.000000    0.000000    0.000000
  0.035831663   -7.249820  134.463333  -99.217013    5.496994    0.000000    0.000000    0.000000    0.000000
  0.036032064   -7.253616  134.300140  -99.709784    8.310250    0.000000    0.000000    0.000000    0.000000
  0.036232465   -7.260436  134.073196 -100.216308    9.430377    0.000000    0.000000    0.000000    0.000000
  0.036432866   -7.265630  133.816467  -98.846547   14.717069    0.000000    0.000000    0.000000    0.000000
  0.036633267   -7.277633  133.562286 -100.097900    1.601212    0.000000    0.000000    0.000000    0.000000
  0.036833667   -7.279528  133.290894  -98.170266    7.013646    0.000000    0.000000    0.000000    0.000000
  0.037034068   -7.278707  133.037018  -99.537587    9.531431    0.000000    0.000000    0.000000    0.000000
  0.037234469   -7.281605  132.741791  -99.795967    6.864245    0.000000    0.000000    0.000000    0.000000
  0.037434870   -7.278000  132.477661  -98.589947    5.642010    0.000000    0.000000    0.000000    0.000000
  0.037635271   -7.272139  132.229218  -99.490563    1.544296    0.000000    0.000000    0.000000    0.000000
  0.037835671   -7.265077  131.969772 -100.310545   -4.267190    0.000000    0.000000    0.000000    0.000000
  0.038036072   -7.261071  131.741089  -99.468883   10.691780    0.000000    0.000000    0.000000    0.000000
  0.038236473   -7.255313  131.528030  -98.995410   -2.309117    0.000000    0.000000    0.000000    0.000000
  0.038436874   -7.258124  131.312714 -100.924977    0.047585    0.000000    0.000000    0.000000    0.000000
  0.038637275   -7.263778  131.079056 -100.266564    1.457743    0.000000    0.000000    0.000000    0.000000
  0.038837675   -7.267147  130.832520 -101.357891    8.117985    0.000000    0.000000    0.000000    0.000000
  0.039038076   -7.272110  130.573914 -100.793767   11.282440    0.000000    0.000000    0.000000    0.000000
  0.039238477   -7.275798  130.277100 -101.079228    8.644332    0.000000    0.000000    0.000000    0.000000
  0.039438878   -7.277824  129.966782  -99.918778    5.354643    0.000000    0.000000    0.000000    0.000000
  0.039639279   -7.282308  129.735565 -101.369356   11.837932    0.000000    0.000000    0.000000    0.000000
  0.039839679   -7.282314  129.436081 -101.666587   -9.310854    0.000000    0.000000    0.000000    0.000000
  0.040040080   -7.277619  129.154327  -99.982229   10.722236    0.000000    0.000000    0.000000    0.000000
  0.040240481   -7.273231  128.907242 -101.007204    6.124697    0.000000    0.000000    0.000000    0.000000
  0.040440882   -7.267431  128.604004  -99.521520    6.744712    0.000000    0.000000    0.000000    0.000000
  0.040641283   -7.253495  128.341537  -99.976493    1.023420    0.000000    0.000000    0.000000    0.000000
  0.040841683   -7.242184  128.105194 -101.076941    6.169856    0.000000    0.000000    0.000000    0.000000
  0.041042084   -7.240327  127.913353  -99.573432   10.385147    0.000000    0.000000    0.000000    0.000000
  0.041242485   -7.236225  127.753456 -100.070702    5.218431    0.000000    0.000000    0.000000    0.000000
  0.041442886   -7.240412  127.545639  -99.384692   16.895008    0.000000    0.000000    0.000000    0.000000
  0.041643287   -7.247252  127.352211 -101.292772    6.721331    0.000000    0.000000    0.000000    0.000000
  0.041843687   -7.252224  127.096283  -99.920094   10.182503    0.000000    0.000000    0.000000    0.000000
  0.042044088   -7.259228  126.866486 -102.243339    8.005241    0.000000    0.000000    0.000000    0.000000
  0.042244489   -7.261439  126.609192 -100.858597   -0.116931    0.000000    0.000000    0.000000    0.000000
  0.042444890   -7.267321  126.321518 -100.590715    6.319278    0.000000    0.000000    0.000000    0.000000
  0.042645291   -7.265814  126.093269 -101.006987   -0.440132    0.000000    0.000000    0.000000    0.000000
  0.042845691   -7.262329  125.833817 -101.236865    1.962800    0.000000    0.000000    0.000000    0.000000
  0.043046092   -7.259433  125.540024 -101.481032    5.323047    0.000000    0.000000    0.000000    0.000000
  0.043246493   -7.250495  125.297920 -101.543185    1.988651    0.000000    0.000000    0.000000    0.000000
  0.043446894   -7.248625  125.086815 -101.799220   -2.004914    0.000000    0.000000    0.000000    0.000000
  0.043647295   -7.247359  124.821404 -101.853600   -5.366630    0.000000    0.000000    0.000000    0.000000
  0.043847695   -7.249441  124.594559 -101.820943    3.046487    0.000000    0.000000    0.000000    0.000000
  0.044048096   -7.254047  124.373550 -102.682568    1.791115    0.000000    0.000000    0.000000    0.000000
  0.044248497   -7.261098  124.125641 -102.955424    2.205905    0.000000    0.000000    0.000000    0.000000
  0.044448898   -7.264749  123.840370 -100.373677   -1.976807    0.000000    0.000000    0.000000    0.000000
  0.044649299   -7.266466  123.551620 -102.452057   22.019493    0.000000    0.000000    0.000000    0.000000
  0.044849699   -7.269190  123.265396 -103.811506   -0.576000    0.000000    0.000000    0.000000    0.000000
  0.045050100   -7.266346  123.006859 -101.943864    6.895863    0.000000    0.000000    0.000000    0.000000
  0.045250501   -7.269113  122.733421 -101.383083    4.355118    0.000000    0.000000    0.000000    0.000000
  0.045450902   -7.270728  122.441849 -102.242943    3.229623    0.000000    0.000000    0.000000    0.000000
  0.045651303   -7.261063  122.150116 -102.308228   12.421228    0.000000    0.000000    0.000000    0.000000
  0.045851703   -7.251892  121.879059 -100.703595   22.699694    0.000000    0.000000    0.000000    0.000000
  0.046052104   -7.240755  121.627647 -102.011154   16.537374    0.000000    0.000000    0.000000    0.000000
  0.046252505   -7.230062  121.403061 -102.789299   19.587191    0.000000    0.000000    0.000000    0.000000
  0.046452906   -7.223246  121.218056 -101.790581    7.343017    0.000000    0.000000    0.000000    0.000000
  0.046653307   -7.226559  121.034439 -102.679069    2.585227    0.000000    0.000000    0.000000    0.000000
  0.046853707   -7.223618  120.837112 -100.580878    8.276849    0.000000    0.000000    0.000000    0.000000
  0.047054108   -7.229818  120.634102 -104.448027   11.492911    0.000000    0.000000    0.000000    0.000000
  0.047254509   -7.236553  120.427803 -104.277820   -1.214760    0.000000    0.000000    0.000000    0.000000
  0.047454910   -7.240161  120.178299 -101.861636    7.900133    0.000000    0.000000    0.000000    0.000000
  0.047655311   -7.246999  119.943161 -101.782271   -8.270791    0.000000    0.000000    0.000000    0.000000
  0.047855711   -7.243886  119.716621 -102.310278    2.438491    0.000000    0.000000    0.000000    0.000000
  0.048056112   -7.242521  119.458641 -102.768551   -4.609540    0.000000    0.000000    0.000000    0.000000
  0.048256513   -7.239657  119.170944 -103.205855    4.459155    0.000000    0.000000    0.000000    0.000000
  0.048456914   -7.239575  118.913345 -102.705812    0.107841    0.000000    0.000000    0.000000    0.000000
  0.048657315   -7.231583  118.708359 -101.712509   -4.064793    0.000000    0.000000    0.000000    0.000000
  0.048857715   -7.235092  118.477585 -104.675735    7.994931    0.000000    0.000000    0.000000    0.000000
  0.049058116   -7.233003  118.273781 -102.753818    5.495955    0.000000    0.000000    0.000000    0.000000
  0.049258517   -7.233690  118.013077 -103.202261  -12.333182    0.000000    0.000000    0.000000    0.000000
  0.049458918   -7.243534  117.787872 -104.133891  -13.996722    0.000000    0.000000    0.000000    0.000000
  0.049659319   -7.244668  117.553154 -104.406381   10.620210    0.000000    0.000000    0.000000    0.000000
  0.049859719   -7.249401  117.288666 -104.469886   10.167567    0.000000    0.000000    0.000000    0.000000
  0.050060120   -7.253520  117.024803 -104.152809    5.793045    0.000000    0.000000    0.000000    0.000000
  0.050260521   -7.253043  116.776482 -103.163639    5.352372    0.000000    0.000000    0.000000    0.000000
  0.050460922   -7.257001  116.503479 -104.287544    4.875461    0.000000    0.000000    0.000000    0.000000
  0.050661323   -7.256767  116.219749 -104.179095   15.555908    0.000000    0.000000    0.000000    0.000000
  0.050861723   -7.249847  115.941422 -102.834277   18.008738    0.000000    0.000000    0.000000    0.000000
  0.051062124   -7.246562  115.646851 -102.079129    9.364889    0.000000    0.000000    0.000000    0.000000
  0.051262525   -7.237169  115.368126 -102.180596   -2.742577    0.000000    0.000000    0.000000    0.000000
  0.051462926   -7.228843  115.146416 -103.425454    4.808562    0.000000    0.000000    0.000000    0.000000
  0.051663327   -7.223479  114.936623 -102.925390    4.459809    0.000000    0.000000    0.000000    0.000000
  0.051863727   -7.222777  114.728844 -103.144210    6.128180    0.000000    0.000000    0.000000    0.000000
  0.052064128   -7.218375  114.518417 -100.585883    0.280983    0.000000    0.000000    0.000000    0.000000
  0.052264529   -7.223735  114.328552 -102.109733    0.210131    0.000000    0.000000    0.000000    0.000000
  0.052464930   -7.226247  114.123955 -103.007451    1.288128    0.000000    0.000000    0.000000    0.000000
  0.052665331   -7.234477  113.879951 -101.504936   12.669518    0.000000    0.000000    0.000000    0.000000
  0.052865731   -7.233045  113.679810 -102.092482    5.098485    0.000000    0.000000    0.000000    0.000000
