! Anritsu VNA Master:                     Model: MS2036C/10/77
! SN:                                  1601066
! /bd0/18may09/254.ns.m2.s2p
! Existing Calibration Information:
! TYPE:                         Current Settings,       Active Cal Settings
! TIME:             	   05/09/2018 12:42:52 PM,    05/09/2018 12:35:56 PM
! INTERNAL TEMP:    	                   57.8 C,                    56.8 C
! # POINTS:         	                      494,                       494
! START FREQ:       	               20.000 MHz,                20.000 MHz
! STOP FREQ:        	          118.797 594 MHz,           118.797 594 MHz
! SOURCE POWER:     	                     High,                      High
! IFBW:             	                    50 Hz,                     50 Hz
! AVG FACTOR:       	                       1 ,                        1 
! REF PLANE 1:      	                     0 mm,                      0 mm
! REF PLANE 2:      	                     0 mm,                      0 mm
! CAL TYPE:         	                 Full S22,                  Full S22
! CAL METHOD:       	                     SOLT,                      SOLT
! CAL LINE TYPE:    	                     Coax,                      Coax
! DUT PORT 1:       	                K-Conn(M),                 K-Conn(M)
! DUT PORT 2:       	                K-Conn(M),                 K-Conn(M)
! CAL STATUS:       	        OK: Accuracy High,                        --
# GHZ S DB R 50.0
! FREQ.GHZ       S11DB        S11A       S21DB        S21A       S12DB        S12A       S22DB        S22A
  0.020000000    0.000000    0.000000    0.000000    0.000000  -89.353918   35.278313   -0.635955 -126.540909
  0.020200401    0.000000    0.000000    0.000000    0.000000  -90.078544   33.785145   -0.640014 -128.000641
  0.020400802    0.000000    0.000000    0.000000    0.000000  -89.918890   31.509323   -0.642283 -129.469620
  0.020601202    0.000000    0.000000    0.000000    0.000000  -90.252027   31.461237   -0.647245 -130.986954
  0.020801603    0.000000    0.000000    0.000000    0.000000  -90.672000   34.111717   -0.649009 -132.483246
  0.021002004    0.000000    0.000000    0.000000    0.000000  -91.303146   32.720757   -0.650898 -134.033646
  0.021202405    0.000000    0.000000    0.000000    0.000000  -91.329381   31.731003   -0.654078 -135.575806
  0.021402806    0.000000    0.000000    0.000000    0.000000  -91.381227   35.708378   -0.656481 -137.125900
  0.021603206    0.000000    0.000000    0.000000    0.000000  -91.554514   36.941799   -0.659027 -138.665176
  0.021803607    0.000000    0.000000    0.000000    0.000000  -92.356580   38.681152   -0.664363 -140.216095
  0.022004008    0.000000    0.000000    0.000000    0.000000  -91.860128   40.344254   -0.671746 -141.767044
  0.022204409    0.000000    0.000000    0.000000    0.000000  -92.347581   37.660072   -0.675800 -143.359314
  0.022404810    0.000000    0.000000    0.000000    0.000000  -92.335550   38.732414   -0.680200 -144.972672
  0.022605210    0.000000    0.000000    0.000000    0.000000  -91.817981   44.412117   -0.682499 -146.590729
  0.022805611    0.000000    0.000000    0.000000    0.000000  -91.963737   41.913197   -0.689899 -148.219772
  0.023006012    0.000000    0.000000    0.000000    0.000000  -91.137096   43.497837   -0.696274 -149.825638
  0.023206413    0.000000    0.000000    0.000000    0.000000  -91.471077   39.804005   -0.702285 -151.429871
  0.023406814    0.000000    0.000000    0.000000    0.000000  -90.844486   43.890671   -0.706891 -153.049973
  0.023607214    0.000000    0.000000    0.000000    0.000000  -91.384031   37.868702   -0.714135 -154.683777
  0.023807615    0.000000    0.000000    0.000000    0.000000  -91.817056   37.937412   -0.722841 -156.308899
  0.024008016    0.000000    0.000000    0.000000    0.000000  -91.204229   36.869568   -0.733263 -157.969421
  0.024208417    0.000000    0.000000    0.000000    0.000000  -91.157037   39.344795   -0.742219 -159.640366
  0.024408818    0.000000    0.000000    0.000000    0.000000  -90.937665   32.899773   -0.747123 -161.304291
  0.024609218    0.000000    0.000000    0.000000    0.000000  -91.303875   29.506912   -0.755042 -162.979858
  0.024809619    0.000000    0.000000    0.000000    0.000000  -91.406572   32.397587   -0.763521 -164.642715
  0.025010020    0.000000    0.000000    0.000000    0.000000  -92.154313   29.213324   -0.774010 -166.329224
  0.025210421    0.000000    0.000000    0.000000    0.000000  -91.242818   28.839487   -0.783991 -168.026001
  0.025410822    0.000000    0.000000    0.000000    0.000000  -92.408857   25.140230   -0.793250 -169.720245
  0.025611222    0.000000    0.000000    0.000000    0.000000  -92.809827   25.428097   -0.804167 -171.426910
  0.025811623    0.000000    0.000000    0.000000    0.000000  -92.124004   23.649134   -0.815230 -173.143433
  0.026012024    0.000000    0.000000    0.000000    0.000000  -93.081512   27.168154   -0.826434 -174.885956
  0.026212425    0.000000    0.000000    0.000000    0.000000  -93.112129   25.766644   -0.838809 -176.628937
  0.026412826    0.000000    0.000000    0.000000    0.000000  -93.468387   21.070456   -0.849619 -178.386215
  0.026613226    0.000000    0.000000    0.000000    0.000000  -94.292196   24.873989   -0.863782  179.844696
  0.026813627    0.000000    0.000000    0.000000    0.000000  -94.335828   33.466965   -0.879376  178.075989
  0.027014028    0.000000    0.000000    0.000000    0.000000  -93.716011   24.527100   -0.894465  176.296646
  0.027214429    0.000000    0.000000    0.000000    0.000000  -93.719109   26.509201   -0.910880  174.515244
  0.027414830    0.000000    0.000000    0.000000    0.000000  -94.296242   23.872105   -0.927717  172.713425
  0.027615230    0.000000    0.000000    0.000000    0.000000  -95.127373   30.404030   -0.943763  170.892822
  0.027815631    0.000000    0.000000    0.000000    0.000000  -95.479969   28.909622   -0.962472  169.079681
  0.028016032    0.000000    0.000000    0.000000    0.000000  -94.796977   33.274693   -0.980318  167.245132
  0.028216433    0.000000    0.000000    0.000000    0.000000  -94.332309   33.609470   -1.000030  165.404663
  0.028416834    0.000000    0.000000    0.000000    0.000000  -94.020702   29.520102   -1.020575  163.538574
  0.028617234    0.000000    0.000000    0.000000    0.000000  -94.086755   33.911610   -1.040972  161.681442
  0.028817635    0.000000    0.000000    0.000000    0.000000  -94.772860   31.055992   -1.062599  159.814590
  0.029018036    0.000000    0.000000    0.000000    0.000000  -94.772371   36.190678   -1.085858  157.955078
  0.029218437    0.000000    0.000000    0.000000    0.000000  -94.578381   36.048763   -1.109661  156.076553
  0.029418838    0.000000    0.000000    0.000000    0.000000  -94.400590   28.312120   -1.134263  154.175720
  0.029619238    0.000000    0.000000    0.000000    0.000000  -94.354912   32.811180   -1.160511  152.271774
  0.029819639    0.000000    0.000000    0.000000    0.000000  -94.272019   29.250252   -1.185883  150.364349
  0.030020040    0.000000    0.000000    0.000000    0.000000  -93.990333   27.392349   -1.213353  148.443207
  0.030220441    0.000000    0.000000    0.000000    0.000000  -94.176231   28.322155   -1.238579  146.528809
  0.030420842    0.000000    0.000000    0.000000    0.000000  -93.629376   23.104971   -1.266938  144.610703
  0.030621242    0.000000    0.000000    0.000000    0.000000  -94.519490   24.609743   -1.295594  142.695480
  0.030821643    0.000000    0.000000    0.000000    0.000000  -94.742171   24.660049   -1.326292  140.780502
  0.031022044    0.000000    0.000000    0.000000    0.000000  -94.167058   20.099621   -1.357162  138.843109
  0.031222445    0.000000    0.000000    0.000000    0.000000  -94.584811   20.715368   -1.384063  136.907852
  0.031422846    0.000000    0.000000    0.000000    0.000000  -94.173061   19.090765   -1.416542  134.933136
  0.031623246    0.000000    0.000000    0.000000    0.000000  -94.228934   20.786133   -1.449648  132.950638
  0.031823647    0.000000    0.000000    0.000000    0.000000  -95.230569   11.127500   -1.483535  130.973770
  0.032024048    0.000000    0.000000    0.000000    0.000000  -96.071186   18.829617   -1.518425  128.972687
  0.032224449    0.000000    0.000000    0.000000    0.000000  -95.421429   12.265455   -1.553544  126.981613
  0.032424850    0.000000    0.000000    0.000000    0.000000  -95.699295   19.804598   -1.589208  124.988731
  0.032625250    0.000000    0.000000    0.000000    0.000000  -96.661122   21.566776   -1.625709  122.979973
  0.032825651    0.000000    0.000000    0.000000    0.000000  -96.272435   20.774704   -1.662388  120.943512
  0.033026052    0.000000    0.000000    0.000000    0.000000  -95.174759   15.968102   -1.699526  118.921410
  0.033226453    0.000000    0.000000    0.000000    0.000000  -95.902437   18.703846   -1.734624  116.858017
  0.033426854    0.000000    0.000000    0.000000    0.000000  -96.011051   24.477097   -1.768040  114.830002
  0.033627254    0.000000    0.000000    0.000000    0.000000  -96.186228   21.787693   -1.812422  112.793388
  0.033827655    0.000000    0.000000    0.000000    0.000000  -96.162506   25.075462   -1.848806  110.748871
  0.034028056    0.000000    0.000000    0.000000    0.000000  -97.239704   23.568098   -1.888186  108.694466
  0.034228457    0.000000    0.000000    0.000000    0.000000  -95.302258   25.445372   -1.930008  106.631638
  0.034428858    0.000000    0.000000    0.000000    0.000000  -96.284020   25.365334   -1.970619  104.563812
  0.034629258    0.000000    0.000000    0.000000    0.000000  -95.767753   22.426329   -2.011520  102.464767
  0.034829659    0.000000    0.000000    0.000000    0.000000  -96.401699   33.413498   -2.055692  100.388046
  0.035030060    0.000000    0.000000    0.000000    0.000000  -96.914739   24.537128   -2.100697   98.300774
  0.035230461    0.000000    0.000000    0.000000    0.000000  -95.956962   25.001356   -2.147104   96.218880
  0.035430862    0.000000    0.000000    0.000000    0.000000  -95.950787   36.124020   -2.194544   94.131874
  0.035631262    0.000000    0.000000    0.000000    0.000000  -96.299529   20.021820   -2.240371   92.033562
  0.035831663    0.000000    0.000000    0.000000    0.000000  -95.888443   23.446234   -2.289729   89.941704
  0.036032064    0.000000    0.000000    0.000000    0.000000  -96.396663   29.524801   -2.336211   87.839767
  0.036232465    0.000000    0.000000    0.000000    0.000000  -96.087209   23.762577   -2.383456   85.766418
  0.036432866    0.000000    0.000000    0.000000    0.000000  -96.973591   25.330187   -2.431780   83.667763
  0.036633266    0.000000    0.000000    0.000000    0.000000  -96.559145   22.857063   -2.482796   81.570091
  0.036833667    0.000000    0.000000    0.000000    0.000000  -95.883429   25.189110   -2.533252   79.493774
  0.037034068    0.000000    0.000000    0.000000    0.000000  -95.976761   13.787532   -2.587480   77.394470
  0.037234469    0.000000    0.000000    0.000000    0.000000  -96.977740   21.848591   -2.637533   75.283569
  0.037434870    0.000000    0.000000    0.000000    0.000000  -97.461515   17.596399   -2.691357   73.203629
  0.037635270    0.000000    0.000000    0.000000    0.000000  -96.969208   14.509930   -2.743732   71.093063
  0.037835671    0.000000    0.000000    0.000000    0.000000  -96.735592   20.241154   -2.808673   68.995979
  0.038036072    0.000000    0.000000    0.000000    0.000000  -97.120518   19.345287   -2.869346   66.950256
  0.038236473    0.000000    0.000000    0.000000    0.000000  -98.112312   26.236477   -2.925574   64.893661
  0.038436874    0.000000    0.000000    0.000000    0.000000  -97.493500   16.313631   -2.980699   62.806484
  0.038637274    0.000000    0.000000    0.000000    0.000000  -97.869394   24.414337   -3.034919   60.739239
  0.038837675    0.000000    0.000000    0.000000    0.000000  -97.495922   19.363535   -3.085928   58.680847
  0.039038076    0.000000    0.000000    0.000000    0.000000  -98.189319   24.904533   -3.138863   56.606373
  0.039238477    0.000000    0.000000    0.000000    0.000000  -98.307722   30.003016   -3.190101   54.556515
  0.039438878    0.000000    0.000000    0.000000    0.000000  -98.638249   25.399212   -3.245057   52.479954
  0.039639278    0.000000    0.000000    0.000000    0.000000  -98.144180   31.567207   -3.298975   50.426537
  0.039839679    0.000000    0.000000    0.000000    0.000000  -98.095223   24.814680   -3.353632   48.366154
  0.040040080    0.000000    0.000000    0.000000    0.000000  -97.817897   30.657568   -3.401575   46.279259
  0.040240481    0.000000    0.000000    0.000000    0.000000  -98.269894   30.906391   -3.454752   44.221695
  0.040440882    0.000000    0.000000    0.000000    0.000000  -98.149217   27.531120   -3.506565   42.161308
  0.040641283    0.000000    0.000000    0.000000    0.000000  -98.134426   34.916439   -3.559250   40.117435
  0.040841683    0.000000    0.000000    0.000000    0.000000 -100.215165   33.279160   -3.607388   38.086327
  0.041042084    0.000000    0.000000    0.000000    0.000000  -98.366073   34.320007   -3.658167   36.068672
  0.041242485    0.000000    0.000000    0.000000    0.000000  -97.942366   24.774384   -3.709453   34.049408
  0.041442886    0.000000    0.000000    0.000000    0.000000  -97.973878   32.018402   -3.757888   32.010159
  0.041643287    0.000000    0.000000    0.000000    0.000000  -98.272674   27.776316   -3.806299   29.962261
  0.041843687    0.000000    0.000000    0.000000    0.000000  -98.216050   23.867912   -3.855101   27.930080
  0.042044088    0.000000    0.000000    0.000000    0.000000  -98.046836   29.507479   -3.903000   25.930120
  0.042244489    0.000000    0.000000    0.000000    0.000000  -98.413198   28.581551   -3.948575   23.914415
  0.042444890    0.000000    0.000000    0.000000    0.000000  -98.302574   31.293015   -3.994697   21.935892
  0.042645291    0.000000    0.000000    0.000000    0.000000  -98.642700   33.663456   -4.042559   19.938799
  0.042845691    0.000000    0.000000    0.000000    0.000000  -97.536269   30.470509   -4.087083   17.955399
  0.043046092    0.000000    0.000000    0.000000    0.000000  -99.021823   21.332596   -4.133930   15.978191
  0.043246493    0.000000    0.000000    0.000000    0.000000  -99.494200   15.133894   -4.178772   14.005939
  0.043446894    0.000000    0.000000    0.000000    0.000000  -97.630989   27.361151   -4.219891   12.053797
  0.043647295    0.000000    0.000000    0.000000    0.000000  -97.975391   33.607449   -4.261929   10.083457
  0.043847695    0.000000    0.000000    0.000000    0.000000  -97.473399   21.553398   -4.304212    8.159398
  0.044048096    0.000000    0.000000    0.000000    0.000000  -99.955616   34.233921   -4.348259    6.236021
  0.044248497    0.000000    0.000000    0.000000    0.000000  -99.284293   18.628265   -4.389717    4.328090
  0.044448898    0.000000    0.000000    0.000000    0.000000 -100.052776   30.527781   -4.428035    2.436200
  0.044649299    0.000000    0.000000    0.000000    0.000000  -97.732626   28.943699   -4.470261    0.534632
  0.044849699    0.000000    0.000000    0.000000    0.000000  -98.339335   28.783924   -4.508126   -1.345528
  0.045050100    0.000000    0.000000    0.000000    0.000000  -98.025759   32.346142   -4.546847   -3.238415
  0.045250501    0.000000    0.000000    0.000000    0.000000  -98.210549   28.264473   -4.585042   -5.101534
  0.045450902    0.000000    0.000000    0.000000    0.000000  -98.566667   21.452023   -4.625634   -6.959255
  0.045651303    0.000000    0.000000    0.000000    0.000000  -97.087095   29.576805   -4.663964   -8.821426
  0.045851703    0.000000    0.000000    0.000000    0.000000  -99.221154   33.202587   -4.699015  -10.667610
  0.046052104    0.000000    0.000000    0.000000    0.000000  -98.687772   22.220331   -4.736444  -12.492035
  0.046252505    0.000000    0.000000    0.000000    0.000000  -98.809575   33.187817   -4.771860  -14.327213
  0.046452906    0.000000    0.000000    0.000000    0.000000  -98.587522   24.110554   -4.806023  -16.143942
  0.046653307    0.000000    0.000000    0.000000    0.000000  -98.718297   27.866009   -4.840723  -17.975391
  0.046853707    0.000000    0.000000    0.000000    0.000000  -98.653957   37.973248   -4.874387  -19.780243
  0.047054108    0.000000    0.000000    0.000000    0.000000  -98.502589   23.433767   -4.908242  -21.620373
  0.047254509    0.000000    0.000000    0.000000    0.000000  -98.516246   26.034422   -4.940236  -23.438084
  0.047454910    0.000000    0.000000    0.000000    0.000000  -98.366509   31.590673   -4.970349  -25.242086
  0.047655311    0.000000    0.000000    0.000000    0.000000  -98.003512   32.614864   -5.002648  -27.034115
  0.047855711    0.000000    0.000000    0.000000    0.000000  -99.763176   28.617331   -5.033608  -28.823015
  0.048056112    0.000000    0.000000    0.000000    0.000000  -99.027456   27.789757   -5.065917  -30.601688
  0.048256513    0.000000    0.000000    0.000000    0.000000  -98.767959   30.044708   -5.093571  -32.362320
  0.048456914    0.000000    0.000000    0.000000    0.000000  -98.506211   28.758717   -5.121797  -34.126266
  0.048657315    0.000000    0.000000    0.000000    0.000000 -100.754366   32.344727   -5.148614  -35.884319
  0.048857715    0.000000    0.000000    0.000000    0.000000  -98.366681   26.201912   -5.170417  -37.644253
  0.049058116    0.000000    0.000000    0.000000    0.000000  -98.769900   15.627257   -5.194745  -39.410454
  0.049258517    0.000000    0.000000    0.000000    0.000000 -100.468391   19.766254   -5.217896  -41.156166
  0.049458918    0.000000    0.000000    0.000000    0.000000  -98.621639   37.850800   -5.240839  -42.863514
  0.049659319    0.000000    0.000000    0.000000    0.000000 -100.306829   38.555378   -5.263360  -44.590950
  0.049859719    0.000000    0.000000    0.000000    0.000000 -100.724270   31.575911   -5.281567  -46.273418
  0.050060120    0.000000    0.000000    0.000000    0.000000 -100.109788   26.397186   -5.304439  -47.945404
  0.050260521    0.000000    0.000000    0.000000    0.000000 -100.142587   25.960892   -5.321518  -49.633892
  0.050460922    0.000000    0.000000    0.000000    0.000000  -99.129458   34.801655   -5.337759  -51.310844
  0.050661323    0.000000    0.000000    0.000000    0.000000  -99.654491   34.537624   -5.354163  -52.963692
  0.050861723    0.000000    0.000000    0.000000    0.000000  -99.075656   36.566216   -5.368238  -54.606926
  0.051062124    0.000000    0.000000    0.000000    0.000000  -98.178849   31.912300   -5.384523  -56.226429
  0.051262525    0.000000    0.000000    0.000000    0.000000  -98.747010   32.852634   -5.399495  -57.802792
  0.051462926    0.000000    0.000000    0.000000    0.000000  -99.508083   42.618500   -5.416138  -59.385967
  0.051663327    0.000000    0.000000    0.000000    0.000000  -99.388334   41.158848   -5.428891  -60.961639
  0.051863727    0.000000    0.000000    0.000000    0.000000  -98.217127   36.429016   -5.442294  -62.507629
  0.052064128    0.000000    0.000000    0.000000    0.000000  -98.559632   37.090633   -5.453336  -64.074509
  0.052264529    0.000000    0.000000    0.000000    0.000000  -98.796258   39.645271   -5.463635  -65.616615
  0.052464930    0.000000    0.000000    0.000000    0.000000  -98.501425   24.963703   -5.476932  -67.136948
  0.052665331    0.000000    0.000000    0.000000    0.000000  -98.329520   27.076235   -5.489786  -68.668449
  0.052865731    0.000000    0.000000    0.000000    0.000000  -99.308529   22.218355   -5.498911  -70.152084
