! Anritsu VNA Master:                     Model: MS2036C/10/77
! SN:                                  1601066
! /bd0/18may09/254.ns.m7.s2p
! Existing Calibration Information:
! TYPE:                         Current Settings,       Active Cal Settings
! TIME:             	   05/09/2018 12:59:50 PM,    05/09/2018 12:54:36 PM
! INTERNAL TEMP:    	                   58.5 C,                    58.3 C
! # POINTS:         	                      494,                       494
! START FREQ:       	               20.000 MHz,                20.000 MHz
! STOP FREQ:        	          118.797 594 MHz,           118.797 594 MHz
! SOURCE POWER:     	                     High,                      High
! IFBW:             	                    50 Hz,                     50 Hz
! AVG FACTOR:       	                       1 ,                        1 
! REF PLANE 1:      	                     0 mm,                      0 mm
! REF PLANE 2:      	                     0 mm,                      0 mm
! CAL TYPE:         	                 Full S22,                  Full S22
! CAL METHOD:       	                     SOLT,                      SOLT
! CAL LINE TYPE:    	                     Coax,                      Coax
! DUT PORT 1:       	                K-Conn(M),                 K-Conn(M)
! DUT PORT 2:       	                K-Conn(M),                 K-Conn(M)
! CAL STATUS:       	        OK: Accuracy High,                        --
# GHZ S DB R 50.0
! FREQ.GHZ       S11DB        S11A       S21DB        S21A       S12DB        S12A       S22DB        S22A
  0.020000000    0.000000    0.000000    0.000000    0.000000  -89.328654   32.658936   -0.629507 -126.765511
  0.020200401    0.000000    0.000000    0.000000    0.000000  -89.740723   33.063850   -0.633276 -128.228592
  0.020400802    0.000000    0.000000    0.000000    0.000000  -90.323962   30.442432   -0.637297 -129.715912
  0.020601202    0.000000    0.000000    0.000000    0.000000  -90.391701   34.649986   -0.641529 -131.219223
  0.020801603    0.000000    0.000000    0.000000    0.000000  -90.678971   32.800579   -0.645002 -132.747574
  0.021002004    0.000000    0.000000    0.000000    0.000000  -91.533752   33.820831   -0.645718 -134.291687
  0.021202405    0.000000    0.000000    0.000000    0.000000  -91.754727   34.510590   -0.649876 -135.839615
  0.021402806    0.000000    0.000000    0.000000    0.000000  -92.172976   37.180447   -0.653496 -137.384781
  0.021603206    0.000000    0.000000    0.000000    0.000000  -92.273137   37.001949   -0.656270 -138.917770
  0.021803607    0.000000    0.000000    0.000000    0.000000  -92.378649   38.146374   -0.659846 -140.472565
  0.022004008    0.000000    0.000000    0.000000    0.000000  -92.237428   42.691174   -0.665787 -142.008194
  0.022204409    0.000000    0.000000    0.000000    0.000000  -92.272947   42.005566   -0.672947 -143.586395
  0.022404810    0.000000    0.000000    0.000000    0.000000  -92.155017   36.323181   -0.681992 -145.173187
  0.022605210    0.000000    0.000000    0.000000    0.000000  -92.436772   40.989910   -0.684876 -146.785370
  0.022805611    0.000000    0.000000    0.000000    0.000000  -91.662983   43.689785   -0.686886 -148.406250
  0.023006012    0.000000    0.000000    0.000000    0.000000  -91.378498   39.365005   -0.691675 -150.009750
  0.023206413    0.000000    0.000000    0.000000    0.000000  -91.505749   43.556152   -0.699165 -151.607086
  0.023406814    0.000000    0.000000    0.000000    0.000000  -90.757664   39.524017   -0.706083 -153.207764
  0.023607214    0.000000    0.000000    0.000000    0.000000  -91.268915   37.736980   -0.715664 -154.809418
  0.023807615    0.000000    0.000000    0.000000    0.000000  -91.278101   38.083588   -0.723459 -156.441269
  0.024008016    0.000000    0.000000    0.000000    0.000000  -91.708258   36.557800   -0.732203 -158.096741
  0.024208417    0.000000    0.000000    0.000000    0.000000  -91.428076   37.222572   -0.740983 -159.748718
  0.024408818    0.000000    0.000000    0.000000    0.000000  -91.000390   34.504986   -0.747312 -161.431305
  0.024609218    0.000000    0.000000    0.000000    0.000000  -91.468946   32.123062   -0.754426 -163.098511
  0.024809619    0.000000    0.000000    0.000000    0.000000  -91.184426   32.765770   -0.764064 -164.775604
  0.025010020    0.000000    0.000000    0.000000    0.000000  -91.664269   27.358841   -0.772630 -166.453995
  0.025210421    0.000000    0.000000    0.000000    0.000000  -91.641252   24.569139   -0.783392 -168.151871
  0.025410822    0.000000    0.000000    0.000000    0.000000  -92.583951   29.515181   -0.792624 -169.859146
  0.025611222    0.000000    0.000000    0.000000    0.000000  -91.779342   26.817356   -0.804012 -171.575333
  0.025811623    0.000000    0.000000    0.000000    0.000000  -92.900451   25.270329   -0.814575 -173.310883
  0.026012024    0.000000    0.000000    0.000000    0.000000  -92.813829   26.251034   -0.824872 -175.059219
  0.026212425    0.000000    0.000000    0.000000    0.000000  -93.297162   24.750000   -0.835266 -176.811157
  0.026412826    0.000000    0.000000    0.000000    0.000000  -92.530439   23.174665   -0.848690 -178.574509
  0.026613226    0.000000    0.000000    0.000000    0.000000  -93.589877   27.591770   -0.862609  179.653336
  0.026813627    0.000000    0.000000    0.000000    0.000000  -94.391388   22.814461   -0.877124  177.867920
  0.027014028    0.000000    0.000000    0.000000    0.000000  -93.648232   24.422136   -0.892553  176.075058
  0.027214429    0.000000    0.000000    0.000000    0.000000  -94.499639   30.740911   -0.906371  174.289352
  0.027414830    0.000000    0.000000    0.000000    0.000000  -94.436829   27.577269   -0.922504  172.480408
  0.027615230    0.000000    0.000000    0.000000    0.000000  -94.303000   33.326694   -0.939283  170.661819
  0.027815631    0.000000    0.000000    0.000000    0.000000  -95.063689   27.639528   -0.957731  168.843185
  0.028016032    0.000000    0.000000    0.000000    0.000000  -94.351732   27.978170   -0.974998  167.006958
  0.028216433    0.000000    0.000000    0.000000    0.000000  -94.371754   30.797398   -0.993122  165.153870
  0.028416834    0.000000    0.000000    0.000000    0.000000  -95.006185   35.516354   -1.014456  163.300766
  0.028617234    0.000000    0.000000    0.000000    0.000000  -94.441411   38.677597   -1.034570  161.437210
  0.028817635    0.000000    0.000000    0.000000    0.000000  -94.860517   36.656578   -1.055127  159.580780
  0.029018036    0.000000    0.000000    0.000000    0.000000  -94.741733   31.958698   -1.077362  157.713104
  0.029218437    0.000000    0.000000    0.000000    0.000000  -94.099075   33.018608   -1.101087  155.837646
  0.029418838    0.000000    0.000000    0.000000    0.000000  -94.304735   33.275150   -1.126719  153.936340
  0.029619238    0.000000    0.000000    0.000000    0.000000  -93.585311   29.129192   -1.150893  152.032440
  0.029819639    0.000000    0.000000    0.000000    0.000000  -94.103335   25.440971   -1.175956  150.120743
  0.030020040    0.000000    0.000000    0.000000    0.000000  -94.032484   28.205952   -1.203196  148.197708
  0.030220441    0.000000    0.000000    0.000000    0.000000  -93.859461   26.521255   -1.228745  146.266266
  0.030420842    0.000000    0.000000    0.000000    0.000000  -94.440806   26.942081   -1.256394  144.355988
  0.030621242    0.000000    0.000000    0.000000    0.000000  -94.750656   26.166206   -1.284563  142.435501
  0.030821643    0.000000    0.000000    0.000000    0.000000  -94.838215   23.448328   -1.316579  140.505447
  0.031022044    0.000000    0.000000    0.000000    0.000000  -94.517111   25.568438   -1.347456  138.552170
  0.031222445    0.000000    0.000000    0.000000    0.000000  -94.284979   16.595615   -1.370754  136.625000
  0.031422846    0.000000    0.000000    0.000000    0.000000  -93.566013   15.982585   -1.403923  134.626556
  0.031623246    0.000000    0.000000    0.000000    0.000000  -93.848177   24.666588   -1.437224  132.643631
  0.031823647    0.000000    0.000000    0.000000    0.000000  -94.884549   19.515192   -1.469497  130.650192
  0.032024048    0.000000    0.000000    0.000000    0.000000  -96.090016   18.303970   -1.502560  128.664993
  0.032224449    0.000000    0.000000    0.000000    0.000000  -95.159343   19.149826   -1.540386  126.672249
  0.032424850    0.000000    0.000000    0.000000    0.000000  -95.388157   13.314626   -1.574914  124.670128
  0.032625250    0.000000    0.000000    0.000000    0.000000  -95.244892   14.083121   -1.609948  122.642647
  0.032825651    0.000000    0.000000    0.000000    0.000000  -95.877078   15.587578   -1.648522  120.614922
  0.033026052    0.000000    0.000000    0.000000    0.000000  -95.856883   24.242435   -1.681253  118.571632
  0.033226453    0.000000    0.000000    0.000000    0.000000  -96.309471   20.833735   -1.718686  116.525009
  0.033426854    0.000000    0.000000    0.000000    0.000000  -96.077547   22.644989   -1.755782  114.485153
  0.033627254    0.000000    0.000000    0.000000    0.000000  -96.204019   21.660969   -1.793730  112.428246
  0.033827655    0.000000    0.000000    0.000000    0.000000  -96.386939   26.373192   -1.833732  110.396240
  0.034028056    0.000000    0.000000    0.000000    0.000000  -98.001898   22.115192   -1.871289  108.350197
  0.034228457    0.000000    0.000000    0.000000    0.000000  -97.441266   23.723410   -1.910814  106.294907
  0.034428858    0.000000    0.000000    0.000000    0.000000  -95.948558   26.957882   -1.953751  104.236504
  0.034629258    0.000000    0.000000    0.000000    0.000000  -96.047127   27.071087   -1.993647  102.145355
  0.034829659    0.000000    0.000000    0.000000    0.000000  -95.994172   22.400028   -2.035619  100.067879
  0.035030060    0.000000    0.000000    0.000000    0.000000  -96.287375   25.829338   -2.081745   97.976799
  0.035230461    0.000000    0.000000    0.000000    0.000000  -96.253223   25.876040   -2.125877   95.896851
  0.035430862    0.000000    0.000000    0.000000    0.000000  -96.686989   23.699791   -2.171851   93.807442
  0.035631262    0.000000    0.000000    0.000000    0.000000  -96.793141   18.699629   -2.220830   91.717392
  0.035831663    0.000000    0.000000    0.000000    0.000000  -96.674176   23.315798   -2.267411   89.618973
  0.036032064    0.000000    0.000000    0.000000    0.000000  -96.521013   21.029018   -2.313093   87.526962
  0.036232465    0.000000    0.000000    0.000000    0.000000  -97.239607   22.472385   -2.359898   85.444069
  0.036432866    0.000000    0.000000    0.000000    0.000000  -95.503151   18.572195   -2.411287   83.337273
  0.036633266    0.000000    0.000000    0.000000    0.000000  -96.438801   17.377560   -2.459998   81.253075
  0.036833667    0.000000    0.000000    0.000000    0.000000  -96.939453   25.640352   -2.510735   79.135010
  0.037034068    0.000000    0.000000    0.000000    0.000000  -97.116537   16.071768   -2.562323   77.033035
  0.037234469    0.000000    0.000000    0.000000    0.000000  -97.342439   13.969584   -2.613392   74.923180
  0.037434870    0.000000    0.000000    0.000000    0.000000  -98.269943   25.443966   -2.665644   72.823227
  0.037635270    0.000000    0.000000    0.000000    0.000000  -97.541751   19.444954   -2.720463   70.685066
  0.037835671    0.000000    0.000000    0.000000    0.000000  -97.697919   24.591574   -2.784719   68.575348
  0.038036072    0.000000    0.000000    0.000000    0.000000  -97.263095   18.156492   -2.846799   66.512482
  0.038236473    0.000000    0.000000    0.000000    0.000000  -96.947433   19.803230   -2.900174   64.439751
  0.038436874    0.000000    0.000000    0.000000    0.000000  -96.378902   26.896061   -2.955811   62.346684
  0.038637274    0.000000    0.000000    0.000000    0.000000  -96.646082   25.309137   -3.007805   60.264919
  0.038837675    0.000000    0.000000    0.000000    0.000000  -97.915858   30.149689   -3.061329   58.188614
  0.039038076    0.000000    0.000000    0.000000    0.000000  -97.759337   25.426003   -3.113875   56.121281
  0.039238477    0.000000    0.000000    0.000000    0.000000  -98.749336   21.086248   -3.164061   54.033741
  0.039438878    0.000000    0.000000    0.000000    0.000000  -98.494587   25.286921   -3.219662   51.983208
  0.039639278    0.000000    0.000000    0.000000    0.000000  -98.430235   30.043343   -3.271923   49.925102
  0.039839679    0.000000    0.000000    0.000000    0.000000  -96.768983   24.254976   -3.326300   47.846790
  0.040040080    0.000000    0.000000    0.000000    0.000000  -98.142970   21.423378   -3.375681   45.773941
  0.040240481    0.000000    0.000000    0.000000    0.000000  -97.027683   26.174011   -3.426782   43.711071
  0.040440882    0.000000    0.000000    0.000000    0.000000  -97.681975   26.972166   -3.478663   41.662766
  0.040641283    0.000000    0.000000    0.000000    0.000000  -98.742162   25.827381   -3.527473   39.629349
  0.040841683    0.000000    0.000000    0.000000    0.000000  -96.623237   26.440611   -3.578323   37.601501
  0.041042084    0.000000    0.000000    0.000000    0.000000  -97.879554   33.934128   -3.630047   35.594791
  0.041242485    0.000000    0.000000    0.000000    0.000000  -98.279732   22.021614   -3.681397   33.562920
  0.041442886    0.000000    0.000000    0.000000    0.000000  -97.210987   23.319567   -3.730908   31.532372
  0.041643287    0.000000    0.000000    0.000000    0.000000  -98.658723   25.160318   -3.778532   29.507814
  0.041843687    0.000000    0.000000    0.000000    0.000000  -98.633100   31.010769   -3.827714   27.475092
  0.042044088    0.000000    0.000000    0.000000    0.000000  -98.249927   28.331127   -3.875254   25.476053
  0.042244489    0.000000    0.000000    0.000000    0.000000  -97.115933   28.252926   -3.921912   23.456461
  0.042444890    0.000000    0.000000    0.000000    0.000000  -97.785266   29.347155   -3.971400   21.488392
  0.042645291    0.000000    0.000000    0.000000    0.000000  -97.025300   22.978741   -4.019844   19.498720
  0.042845691    0.000000    0.000000    0.000000    0.000000  -98.788323   26.727436   -4.067460   17.513756
  0.043046092    0.000000    0.000000    0.000000    0.000000  -98.378984   20.227539   -4.114634   15.528238
  0.043246493    0.000000    0.000000    0.000000    0.000000  -98.753440   20.220932   -4.161289   13.542132
  0.043446894    0.000000    0.000000    0.000000    0.000000  -99.388363   29.735031   -4.204786   11.580321
  0.043647295    0.000000    0.000000    0.000000    0.000000  -99.568405   23.743425   -4.247321    9.614017
  0.043847695    0.000000    0.000000    0.000000    0.000000  -99.926402   14.783169   -4.291821    7.663360
  0.044048096    0.000000    0.000000    0.000000    0.000000  -98.483895   29.983000   -4.334252    5.712339
  0.044248497    0.000000    0.000000    0.000000    0.000000  -97.392484   21.136408   -4.376865    3.794898
  0.044448898    0.000000    0.000000    0.000000    0.000000  -99.079877   30.250095   -4.421440    1.875716
  0.044649299    0.000000    0.000000    0.000000    0.000000  -98.589617   26.677801   -4.461500   -0.049581
  0.044849699    0.000000    0.000000    0.000000    0.000000  -99.200334   28.892406   -4.503829   -1.943840
  0.045050100    0.000000    0.000000    0.000000    0.000000  -98.580116   30.205948   -4.541104   -3.851474
  0.045250501    0.000000    0.000000    0.000000    0.000000  -98.945632   28.935274   -4.577648   -5.749559
  0.045450902    0.000000    0.000000    0.000000    0.000000  -98.771226   31.530092   -4.615518   -7.642718
  0.045651303    0.000000    0.000000    0.000000    0.000000  -99.066191   33.507580   -4.651989   -9.525581
  0.045851703    0.000000    0.000000    0.000000    0.000000  -97.873328   34.315460   -4.686983  -11.379495
  0.046052104    0.000000    0.000000    0.000000    0.000000  -98.128239   37.497650   -4.720807  -13.229114
  0.046252505    0.000000    0.000000    0.000000    0.000000  -99.288726   37.747147   -4.757536  -15.050196
  0.046452906    0.000000    0.000000    0.000000    0.000000  -97.433821   26.186909   -4.792457  -16.866837
  0.046653307    0.000000    0.000000    0.000000    0.000000  -98.991107   27.385889   -4.827630  -18.679905
  0.046853707    0.000000    0.000000    0.000000    0.000000  -98.057293   32.729191   -4.858669  -20.500351
  0.047054108    0.000000    0.000000    0.000000    0.000000  -98.713674   36.106003   -4.893424  -22.299431
  0.047254509    0.000000    0.000000    0.000000    0.000000  -98.491049   24.883440   -4.922711  -24.112232
  0.047454910    0.000000    0.000000    0.000000    0.000000  -99.736682   40.469017   -4.951606  -25.912943
  0.047655311    0.000000    0.000000    0.000000    0.000000  -99.471844   24.703001   -4.982196  -27.672644
  0.047855711    0.000000    0.000000    0.000000    0.000000  -97.278864   32.131096   -5.011317  -29.441458
  0.048056112    0.000000    0.000000    0.000000    0.000000  -97.805835   28.137424   -5.042840  -31.181238
  0.048256513    0.000000    0.000000    0.000000    0.000000 -101.046887   30.736374   -5.071630  -32.919716
  0.048456914    0.000000    0.000000    0.000000    0.000000  -99.125422   25.525745   -5.099115  -34.663765
  0.048657315    0.000000    0.000000    0.000000    0.000000  -99.204857   36.999725   -5.124090  -36.375549
  0.048857715    0.000000    0.000000    0.000000    0.000000  -98.977888   23.382347   -5.149025  -38.120380
  0.049058116    0.000000    0.000000    0.000000    0.000000  -99.235254   26.042011   -5.174241  -39.838821
  0.049258517    0.000000    0.000000    0.000000    0.000000 -101.483425   35.012680   -5.197156  -41.547882
  0.049458918    0.000000    0.000000    0.000000    0.000000 -100.603181   38.919922   -5.219823  -43.221500
  0.049659319    0.000000    0.000000    0.000000    0.000000 -100.776896   30.682737   -5.247724  -44.915565
  0.049859719    0.000000    0.000000    0.000000    0.000000  -99.786523   26.120747   -5.267777  -46.599247
  0.050060120    0.000000    0.000000    0.000000    0.000000  -99.721249   34.244114   -5.292195  -48.238083
  0.050260521    0.000000    0.000000    0.000000    0.000000 -101.058230   35.127075   -5.311331  -49.923767
  0.050460922    0.000000    0.000000    0.000000    0.000000 -100.213186   38.053398   -5.331590  -51.569832
  0.050661323    0.000000    0.000000    0.000000    0.000000  -99.770559   31.124208   -5.347313  -53.219200
  0.050861723    0.000000    0.000000    0.000000    0.000000  -97.710421   30.357466   -5.363111  -54.851730
  0.051062124    0.000000    0.000000    0.000000    0.000000  -99.654111   33.117382   -5.382135  -56.486076
  0.051262525    0.000000    0.000000    0.000000    0.000000  -99.887220   28.923620   -5.403258  -58.096203
  0.051462926    0.000000    0.000000    0.000000    0.000000  -98.924294   31.700346   -5.420215  -59.693005
  0.051663327    0.000000    0.000000    0.000000    0.000000  -97.757244   36.718803   -5.434865  -61.286098
  0.051863727    0.000000    0.000000    0.000000    0.000000  -99.611182   25.247601   -5.451533  -62.841267
  0.052064128    0.000000    0.000000    0.000000    0.000000  -97.223499   36.847954   -5.464596  -64.452965
  0.052264529    0.000000    0.000000    0.000000    0.000000  -99.317850   37.252159   -5.474003  -66.017242
  0.052464930    0.000000    0.000000    0.000000    0.000000  -99.366018   20.882381   -5.488441  -67.562775
  0.052665331    0.000000    0.000000    0.000000    0.000000  -99.104950   34.426495   -5.498778  -69.101997
  0.052865731    0.000000    0.000000    0.000000    0.000000  -98.787624   22.589413   -5.512732  -70.619919
