! Anritsu VNA Master:                     Model: MS2036C/10/77
! SN:                                  1601066
! /bd0/18may10/256.ew.m1.s2p
! Existing Calibration Information:
! TYPE:                         Current Settings,       Active Cal Settings
! TIME:             	   05/10/2018 10:11:23 AM,    05/10/2018 10:05:08 AM
! INTERNAL TEMP:    	                   46.3 C,                    45.0 C
! # POINTS:         	                      494,                       494
! START FREQ:       	               20.000 MHz,                20.000 MHz
! STOP FREQ:        	          118.797 594 MHz,           118.797 594 MHz
! SOURCE POWER:     	                     High,                      High
! IFBW:             	                    50 Hz,                     50 Hz
! AVG FACTOR:       	                       1 ,                        1 
! REF PLANE 1:      	                     0 mm,                      0 mm
! REF PLANE 2:      	                     0 mm,                      0 mm
! CAL TYPE:         	                 Full S22,                  Full S22
! CAL METHOD:       	                     SOLT,                      SOLT
! CAL LINE TYPE:    	                     Coax,                      Coax
! DUT PORT 1:       	                K-Conn(M),                 K-Conn(M)
! DUT PORT 2:       	                K-Conn(M),                 K-Conn(M)
! CAL STATUS:       	        OK: Accuracy High,                        --
# GHZ S DB R 50.0
! FREQ.GHZ       S11DB        S11A       S21DB        S21A       S12DB        S12A       S22DB        S22A
  0.020000000    0.000000    0.000000    0.000000    0.000000  -89.370751   35.533012   -0.609360 -127.008499
  0.020200401    0.000000    0.000000    0.000000    0.000000  -89.771413   34.055408   -0.612834 -128.469772
  0.020400802    0.000000    0.000000    0.000000    0.000000  -89.700681   34.314716   -0.617863 -129.937805
  0.020601202    0.000000    0.000000    0.000000    0.000000  -90.225832   38.222492   -0.623100 -131.428574
  0.020801603    0.000000    0.000000    0.000000    0.000000  -90.274017   37.277134   -0.626426 -132.960495
  0.021002004    0.000000    0.000000    0.000000    0.000000  -91.193421   38.751259   -0.628929 -134.488632
  0.021202405    0.000000    0.000000    0.000000    0.000000  -91.706887   34.274742   -0.636755 -136.021118
  0.021402806    0.000000    0.000000    0.000000    0.000000  -91.579984   36.969349   -0.638664 -137.557709
  0.021603206    0.000000    0.000000    0.000000    0.000000  -91.942045   38.994637   -0.642396 -139.070724
  0.021803607    0.000000    0.000000    0.000000    0.000000  -91.753749   39.620449   -0.648483 -140.602448
  0.022004008    0.000000    0.000000    0.000000    0.000000  -91.986033   44.613842   -0.653843 -142.159042
  0.022204409    0.000000    0.000000    0.000000    0.000000  -91.655511   46.027050   -0.659622 -143.723724
  0.022404810    0.000000    0.000000    0.000000    0.000000  -91.666360   40.603962   -0.667445 -145.320999
  0.022605210    0.000000    0.000000    0.000000    0.000000  -91.529226   48.356682   -0.675973 -146.909958
  0.022805611    0.000000    0.000000    0.000000    0.000000  -91.343947   46.247696   -0.682380 -148.496216
  0.023006012    0.000000    0.000000    0.000000    0.000000  -91.350085   46.040955   -0.686496 -150.102798
  0.023206413    0.000000    0.000000    0.000000    0.000000  -91.057397   45.635838   -0.691787 -151.697815
  0.023406814    0.000000    0.000000    0.000000    0.000000  -90.804329   42.874710   -0.698402 -153.297714
  0.023607214    0.000000    0.000000    0.000000    0.000000  -90.956903   42.079895   -0.706053 -154.906006
  0.023807615    0.000000    0.000000    0.000000    0.000000  -90.731317   40.877743   -0.718442 -156.537811
  0.024008016    0.000000    0.000000    0.000000    0.000000  -91.640475   32.095020   -0.729532 -158.171173
  0.024208417    0.000000    0.000000    0.000000    0.000000  -91.743011   39.562157   -0.736752 -159.832901
  0.024408818    0.000000    0.000000    0.000000    0.000000  -91.173128   36.390587   -0.743179 -161.494324
  0.024609218    0.000000    0.000000    0.000000    0.000000  -90.716503   34.717018   -0.752809 -163.150085
  0.024809619    0.000000    0.000000    0.000000    0.000000  -91.707533   32.011181   -0.762721 -164.819122
  0.025010020    0.000000    0.000000    0.000000    0.000000  -91.309489   33.264648   -0.774423 -166.497009
  0.025210421    0.000000    0.000000    0.000000    0.000000  -92.084328   28.075264   -0.786821 -168.175705
  0.025410822    0.000000    0.000000    0.000000    0.000000  -91.980947   31.738701   -0.799050 -169.869690
  0.025611222    0.000000    0.000000    0.000000    0.000000  -92.194950   27.595308   -0.812305 -171.578552
  0.025811623    0.000000    0.000000    0.000000    0.000000  -92.782121   29.464397   -0.824645 -173.288681
  0.026012024    0.000000    0.000000    0.000000    0.000000  -92.202769   26.262653   -0.837939 -175.017014
  0.026212425    0.000000    0.000000    0.000000    0.000000  -92.879252   25.514845   -0.850923 -176.758560
  0.026412826    0.000000    0.000000    0.000000    0.000000  -92.848458   27.584816   -0.867747 -178.512085
  0.026613226    0.000000    0.000000    0.000000    0.000000  -94.317404   26.880980   -0.884314  179.733292
  0.026813627    0.000000    0.000000    0.000000    0.000000  -94.312440   26.167110   -0.900216  177.977386
  0.027014028    0.000000    0.000000    0.000000    0.000000  -94.055053   32.055988   -0.918566  176.200775
  0.027214429    0.000000    0.000000    0.000000    0.000000  -94.788468   31.887321   -0.936068  174.422867
  0.027414830    0.000000    0.000000    0.000000    0.000000  -94.424618   31.452881   -0.954255  172.646393
  0.027615230    0.000000    0.000000    0.000000    0.000000  -95.237437   31.134718   -0.974309  170.839691
  0.027815631    0.000000    0.000000    0.000000    0.000000  -94.141593   30.544151   -0.994164  169.029266
  0.028016032    0.000000    0.000000    0.000000    0.000000  -94.026132   35.336216   -1.016441  167.194977
  0.028216433    0.000000    0.000000    0.000000    0.000000  -94.257246   35.878300   -1.038913  165.357956
  0.028416834    0.000000    0.000000    0.000000    0.000000  -94.169657   31.592558   -1.062061  163.522125
  0.028617234    0.000000    0.000000    0.000000    0.000000  -94.187543   32.896652   -1.086037  161.681793
  0.028817635    0.000000    0.000000    0.000000    0.000000  -93.929270   36.254082   -1.110109  159.838409
  0.029018036    0.000000    0.000000    0.000000    0.000000  -93.529242   36.370972   -1.135663  157.983261
  0.029218437    0.000000    0.000000    0.000000    0.000000  -93.924546   33.410019   -1.161463  156.127396
  0.029418838    0.000000    0.000000    0.000000    0.000000  -94.146740   35.997509   -1.189480  154.245148
  0.029619238    0.000000    0.000000    0.000000    0.000000  -93.807968   34.893120   -1.216640  152.358093
  0.029819639    0.000000    0.000000    0.000000    0.000000  -93.854845   34.897282   -1.245656  150.473816
  0.030020040    0.000000    0.000000    0.000000    0.000000  -94.573098   29.412390   -1.274075  148.576752
  0.030220441    0.000000    0.000000    0.000000    0.000000  -94.213170   31.290813   -1.302978  146.685913
  0.030420842    0.000000    0.000000    0.000000    0.000000  -93.871186   27.346531   -1.331954  144.793381
  0.030621242    0.000000    0.000000    0.000000    0.000000  -93.771063   27.058628   -1.362959  142.904984
  0.030821643    0.000000    0.000000    0.000000    0.000000  -94.288979   27.704788   -1.396575  140.994095
  0.031022044    0.000000    0.000000    0.000000    0.000000  -94.235346   23.706545   -1.429099  139.067734
  0.031222445    0.000000    0.000000    0.000000    0.000000  -93.475360   20.699783   -1.458721  137.137421
  0.031422846    0.000000    0.000000    0.000000    0.000000  -94.764553   23.916418   -1.492972  135.174545
  0.031623246    0.000000    0.000000    0.000000    0.000000  -94.673304   24.714422   -1.528885  133.192749
  0.031823647    0.000000    0.000000    0.000000    0.000000  -94.886962   17.225145   -1.563156  131.231827
  0.032024048    0.000000    0.000000    0.000000    0.000000  -94.500569   22.977757   -1.600463  129.271057
  0.032224449    0.000000    0.000000    0.000000    0.000000  -95.336626   21.920698   -1.636562  127.272789
  0.032424850    0.000000    0.000000    0.000000    0.000000  -95.421841   19.595484   -1.676714  125.291183
  0.032625250    0.000000    0.000000    0.000000    0.000000  -95.364115   18.444010   -1.715440  123.277603
  0.032825651    0.000000    0.000000    0.000000    0.000000  -97.110906   21.758078   -1.756375  121.244911
  0.033026052    0.000000    0.000000    0.000000    0.000000  -94.943413   19.913511   -1.796345  119.207413
  0.033226453    0.000000    0.000000    0.000000    0.000000  -95.587174   19.202179   -1.837578  117.173645
  0.033426854    0.000000    0.000000    0.000000    0.000000  -96.673328   21.280333   -1.877081  115.116035
  0.033627254    0.000000    0.000000    0.000000    0.000000  -95.836188   22.322041   -1.922433  113.082909
  0.033827655    0.000000    0.000000    0.000000    0.000000  -95.640305   21.231552   -1.969951  111.048729
  0.034028056    0.000000    0.000000    0.000000    0.000000  -97.020670   21.642214   -2.009791  108.989113
  0.034228457    0.000000    0.000000    0.000000    0.000000  -96.632344   24.617754   -2.057151  106.914146
  0.034428858    0.000000    0.000000    0.000000    0.000000  -95.723888   23.553282   -2.102798  104.843826
  0.034629258    0.000000    0.000000    0.000000    0.000000  -95.769749   26.348692   -2.149821  102.735085
  0.034829659    0.000000    0.000000    0.000000    0.000000  -95.508843   29.513172   -2.197006  100.661118
  0.035030060    0.000000    0.000000    0.000000    0.000000  -95.817640   27.751511   -2.248897   98.591385
  0.035230461    0.000000    0.000000    0.000000    0.000000  -95.871104   27.498064   -2.296330   96.488777
  0.035430862    0.000000    0.000000    0.000000    0.000000  -96.144113   29.062082   -2.347397   94.412010
  0.035631262    0.000000    0.000000    0.000000    0.000000  -95.747739   29.997536   -2.396456   92.329491
  0.035831663    0.000000    0.000000    0.000000    0.000000  -95.983388   25.355440   -2.447970   90.222916
  0.036032064    0.000000    0.000000    0.000000    0.000000  -95.694793   23.699778   -2.498237   88.139435
  0.036232465    0.000000    0.000000    0.000000    0.000000  -96.493432   23.812397   -2.549138   86.063881
  0.036432866    0.000000    0.000000    0.000000    0.000000  -95.992425   23.252411   -2.602049   83.957771
  0.036633266    0.000000    0.000000    0.000000    0.000000  -95.904788   25.652245   -2.653239   81.874100
  0.036833667    0.000000    0.000000    0.000000    0.000000  -96.073936   25.307600   -2.708286   79.767342
  0.037034068    0.000000    0.000000    0.000000    0.000000  -96.826913   27.471941   -2.762471   77.664627
  0.037234469    0.000000    0.000000    0.000000    0.000000  -96.846134   27.113356   -2.815929   75.579041
  0.037434870    0.000000    0.000000    0.000000    0.000000  -98.054476   16.254040   -2.872154   73.463715
  0.037635270    0.000000    0.000000    0.000000    0.000000  -97.783846   22.943962   -2.925222   71.356247
  0.037835671    0.000000    0.000000    0.000000    0.000000  -97.313873   16.101622   -2.978133   69.240944
  0.038036072    0.000000    0.000000    0.000000    0.000000  -97.181287   27.472771   -3.040150   67.123672
  0.038236473    0.000000    0.000000    0.000000    0.000000  -96.459628   23.230942   -3.095838   64.988335
  0.038436874    0.000000    0.000000    0.000000    0.000000  -98.508182   22.794373   -3.155460   62.875404
  0.038637274    0.000000    0.000000    0.000000    0.000000  -97.255890   25.949791   -3.213099   60.746567
  0.038837675    0.000000    0.000000    0.000000    0.000000  -98.258545   19.533955   -3.270319   58.642563
  0.039038076    0.000000    0.000000    0.000000    0.000000  -98.881003   28.941277   -3.325731   56.553745
  0.039238477    0.000000    0.000000    0.000000    0.000000  -98.835687   19.874763   -3.383569   54.438450
  0.039438878    0.000000    0.000000    0.000000    0.000000  -96.833166   21.449694   -3.441072   52.339661
  0.039639278    0.000000    0.000000    0.000000    0.000000  -97.494291   34.584999   -3.500793   50.208744
  0.039839679    0.000000    0.000000    0.000000    0.000000  -98.278769   29.423069   -3.557116   48.100170
  0.040040080    0.000000    0.000000    0.000000    0.000000  -98.014804   29.259974   -3.617496   45.965397
  0.040240481    0.000000    0.000000    0.000000    0.000000  -97.411625   32.827988   -3.670158   43.855053
  0.040440882    0.000000    0.000000    0.000000    0.000000  -98.537304   31.522409   -3.726868   41.748535
  0.040641283    0.000000    0.000000    0.000000    0.000000  -96.821118   36.033501   -3.782201   39.647858
  0.040841683    0.000000    0.000000    0.000000    0.000000  -98.371277   31.550362   -3.840332   37.568630
  0.041042084    0.000000    0.000000    0.000000    0.000000  -96.313950   29.241095   -3.896669   35.484936
  0.041242485    0.000000    0.000000    0.000000    0.000000  -98.011326   28.346182   -3.955174   33.407688
  0.041442886    0.000000    0.000000    0.000000    0.000000  -97.594201   26.045792   -4.009040   31.298998
  0.041643287    0.000000    0.000000    0.000000    0.000000  -98.818568   30.437881   -4.061693   29.216022
  0.041843687    0.000000    0.000000    0.000000    0.000000  -98.721955   34.561409   -4.115684   27.136745
  0.042044088    0.000000    0.000000    0.000000    0.000000  -98.127485   25.692619   -4.167097   25.090910
  0.042244489    0.000000    0.000000    0.000000    0.000000  -97.898801   19.014784   -4.218640   23.040939
  0.042444890    0.000000    0.000000    0.000000    0.000000  -98.305072   28.156408   -4.272696   21.025171
  0.042645291    0.000000    0.000000    0.000000    0.000000  -97.653973   33.495728   -4.325014   18.992212
  0.042845691    0.000000    0.000000    0.000000    0.000000  -97.886667   22.238064   -4.373258   16.966732
  0.043046092    0.000000    0.000000    0.000000    0.000000  -97.937372   21.333250   -4.423715   14.972690
  0.043246493    0.000000    0.000000    0.000000    0.000000  -98.532663   23.906490   -4.471440   12.945286
  0.043446894    0.000000    0.000000    0.000000    0.000000  -98.341936   29.542860   -4.516311   10.957548
  0.043647295    0.000000    0.000000    0.000000    0.000000  -99.982767   32.676273   -4.562309    8.966629
  0.043847695    0.000000    0.000000    0.000000    0.000000  -99.143844   21.943226   -4.607904    6.997467
  0.044048096    0.000000    0.000000    0.000000    0.000000  -99.278574   32.461372   -4.652732    5.012817
  0.044248497    0.000000    0.000000    0.000000    0.000000 -100.166359   43.733047   -4.695239    3.052514
  0.044448898    0.000000    0.000000    0.000000    0.000000  -98.508125   28.824894   -4.736449    1.077806
  0.044649299    0.000000    0.000000    0.000000    0.000000  -98.741042   35.267509   -4.778885   -0.870280
  0.044849699    0.000000    0.000000    0.000000    0.000000  -99.323712   39.186607   -4.820715   -2.820120
  0.045050100    0.000000    0.000000    0.000000    0.000000  -99.864341   31.065422   -4.859899   -4.774791
  0.045250501    0.000000    0.000000    0.000000    0.000000  -98.807111   37.884331   -4.904559   -6.706558
  0.045450902    0.000000    0.000000    0.000000    0.000000  -97.573007   30.446491   -4.944763   -8.642406
  0.045651303    0.000000    0.000000    0.000000    0.000000  -98.254774   28.767448   -4.987347  -10.568407
  0.045851703    0.000000    0.000000    0.000000    0.000000  -98.833529   37.926193   -5.023625  -12.492116
  0.046052104    0.000000    0.000000    0.000000    0.000000  -99.911715   35.707848   -5.061791  -14.389380
  0.046252505    0.000000    0.000000    0.000000    0.000000  -98.585467   35.602745   -5.099728  -16.266747
  0.046452906    0.000000    0.000000    0.000000    0.000000  -99.172183   31.418785   -5.138044  -18.118128
  0.046653307    0.000000    0.000000    0.000000    0.000000  -97.656572   29.828276   -5.174376  -19.971754
  0.046853707    0.000000    0.000000    0.000000    0.000000  -98.883834   36.751762   -5.203180  -21.809313
  0.047054108    0.000000    0.000000    0.000000    0.000000  -98.289082   33.162258   -5.231261  -23.636461
  0.047254509    0.000000    0.000000    0.000000    0.000000  -98.942868   23.740395   -5.258213  -25.475212
  0.047454910    0.000000    0.000000    0.000000    0.000000  -99.563576   28.142408   -5.282654  -27.328360
  0.047655311    0.000000    0.000000    0.000000    0.000000  -98.828651   29.124592   -5.303677  -29.160513
  0.047855711    0.000000    0.000000    0.000000    0.000000  -99.299582   35.344532   -5.327687  -30.993315
  0.048056112    0.000000    0.000000    0.000000    0.000000  -99.546568   30.678444   -5.353583  -32.836956
  0.048256513    0.000000    0.000000    0.000000    0.000000  -99.377466   31.715195   -5.375242  -34.643486
  0.048456914    0.000000    0.000000    0.000000    0.000000 -100.227126   33.405502   -5.399213  -36.451878
  0.048657315    0.000000    0.000000    0.000000    0.000000  -99.724551   33.545834   -5.420188  -38.270390
  0.048857715    0.000000    0.000000    0.000000    0.000000  -98.872893   29.779711   -5.442919  -40.091061
  0.049058116    0.000000    0.000000    0.000000    0.000000 -101.162701   36.164238   -5.461872  -41.861660
  0.049258517    0.000000    0.000000    0.000000    0.000000 -100.250063   26.773573   -5.482984  -43.629276
  0.049458918    0.000000    0.000000    0.000000    0.000000  -99.706541   26.554449   -5.502577  -45.388561
  0.049659319    0.000000    0.000000    0.000000    0.000000 -100.711568   32.564430   -5.528057  -47.100246
  0.049859719    0.000000    0.000000    0.000000    0.000000  -99.849907   41.978199   -5.547722  -48.823933
  0.050060120    0.000000    0.000000    0.000000    0.000000  -99.229344   35.376591   -5.568085  -50.530785
  0.050260521    0.000000    0.000000    0.000000    0.000000  -99.184251   27.134018   -5.586213  -52.222778
  0.050460922    0.000000    0.000000    0.000000    0.000000  -99.289787   36.287617   -5.605451  -53.930771
  0.050661323    0.000000    0.000000    0.000000    0.000000  -99.235397   34.573608   -5.620915  -55.616421
  0.050861723    0.000000    0.000000    0.000000    0.000000 -100.554083   43.420082   -5.640837  -57.269012
  0.051062124    0.000000    0.000000    0.000000    0.000000  -99.038931   34.270267   -5.657719  -58.915932
  0.051262525    0.000000    0.000000    0.000000    0.000000  -99.172731   36.361061   -5.677423  -60.561394
  0.051462926    0.000000    0.000000    0.000000    0.000000  -98.470151   29.858097   -5.694839  -62.190670
  0.051663327    0.000000    0.000000    0.000000    0.000000  -97.733844   44.011452   -5.712161  -63.803917
  0.051863727    0.000000    0.000000    0.000000    0.000000  -98.692552   37.974136   -5.731298  -65.415443
  0.052064128    0.000000    0.000000    0.000000    0.000000  -98.325172   34.896591   -5.744493  -67.012253
  0.052264529    0.000000    0.000000    0.000000    0.000000  -99.811593   35.629322   -5.754066  -68.615089
  0.052464930    0.000000    0.000000    0.000000    0.000000  -99.204323   31.031906   -5.769168  -70.200867
  0.052665331    0.000000    0.000000    0.000000    0.000000  -98.967193   40.512234   -5.783685  -71.747955
  0.052865731    0.000000    0.000000    0.000000    0.000000  -99.484751   49.694504   -5.797088  -73.321053
