! Anritsu VNA Master:                     Model: MS2036C/10/77
! SN:                                  1601066
! /bd0/18may10/256.ew.m4.s2p
! Existing Calibration Information:
! TYPE:                         Current Settings,       Active Cal Settings
! TIME:             	   05/10/2018 10:16:24 AM,    05/10/2018 10:05:08 AM
! INTERNAL TEMP:    	                   46.5 C,                    45.0 C
! # POINTS:         	                      494,                       494
! START FREQ:       	               20.000 MHz,                20.000 MHz
! STOP FREQ:        	          118.797 594 MHz,           118.797 594 MHz
! SOURCE POWER:     	                     High,                      High
! IFBW:             	                    50 Hz,                     50 Hz
! AVG FACTOR:       	                       1 ,                        1 
! REF PLANE 1:      	                     0 mm,                      0 mm
! REF PLANE 2:      	                     0 mm,                      0 mm
! CAL TYPE:         	                 Full S22,                  Full S22
! CAL METHOD:       	                     SOLT,                      SOLT
! CAL LINE TYPE:    	                     Coax,                      Coax
! DUT PORT 1:       	                K-Conn(M),                 K-Conn(M)
! DUT PORT 2:       	                K-Conn(M),                 K-Conn(M)
! CAL STATUS:       	        OK: Accuracy High,                        --
# GHZ S DB R 50.0
! FREQ.GHZ       S11DB        S11A       S21DB        S21A       S12DB        S12A       S22DB        S22A
  0.020000000    0.000000    0.000000    0.000000    0.000000  -89.706914   34.830273   -0.616505 -126.961868
  0.020200401    0.000000    0.000000    0.000000    0.000000  -89.650787   37.651386   -0.621367 -128.412918
  0.020400802    0.000000    0.000000    0.000000    0.000000  -90.158405   36.140175   -0.625766 -129.878052
  0.020601202    0.000000    0.000000    0.000000    0.000000  -90.440002   37.637238   -0.629766 -131.373581
  0.020801603    0.000000    0.000000    0.000000    0.000000  -91.185103   36.660854   -0.634552 -132.903229
  0.021002004    0.000000    0.000000    0.000000    0.000000  -91.445443   36.212975   -0.636452 -134.427505
  0.021202405    0.000000    0.000000    0.000000    0.000000  -91.272124   38.735191   -0.643557 -135.966721
  0.021402806    0.000000    0.000000    0.000000    0.000000  -91.390880   37.753624   -0.646404 -137.494064
  0.021603206    0.000000    0.000000    0.000000    0.000000  -91.774413   44.529945   -0.649452 -139.008255
  0.021803607    0.000000    0.000000    0.000000    0.000000  -91.773084   37.782761   -0.654494 -140.540985
  0.022004008    0.000000    0.000000    0.000000    0.000000  -91.749025   40.507458   -0.663262 -142.083786
  0.022204409    0.000000    0.000000    0.000000    0.000000  -92.260168   44.173985   -0.669427 -143.649628
  0.022404810    0.000000    0.000000    0.000000    0.000000  -91.638719   46.650459   -0.676587 -145.258148
  0.022605210    0.000000    0.000000    0.000000    0.000000  -91.263487   43.695927   -0.684672 -146.846405
  0.022805611    0.000000    0.000000    0.000000    0.000000  -92.066682   46.270626   -0.688191 -148.442520
  0.023006012    0.000000    0.000000    0.000000    0.000000  -91.168961   47.428864   -0.692452 -150.037521
  0.023206413    0.000000    0.000000    0.000000    0.000000  -91.203996   43.197655   -0.698824 -151.648529
  0.023406814    0.000000    0.000000    0.000000    0.000000  -91.392271   44.068588   -0.706245 -153.241470
  0.023607214    0.000000    0.000000    0.000000    0.000000  -90.886572   41.195969   -0.714426 -154.850998
  0.023807615    0.000000    0.000000    0.000000    0.000000  -91.449669   39.244244   -0.725789 -156.488098
  0.024008016    0.000000    0.000000    0.000000    0.000000  -91.326524   38.045788   -0.736995 -158.128250
  0.024208417    0.000000    0.000000    0.000000    0.000000  -91.208432   38.908943   -0.743727 -159.794052
  0.024408818    0.000000    0.000000    0.000000    0.000000  -91.560180   33.035194   -0.748715 -161.465942
  0.024609218    0.000000    0.000000    0.000000    0.000000  -91.371635   33.949589   -0.759636 -163.121521
  0.024809619    0.000000    0.000000    0.000000    0.000000  -91.338895   32.384277   -0.768808 -164.793610
  0.025010020    0.000000    0.000000    0.000000    0.000000  -91.854053   29.664007   -0.780109 -166.476654
  0.025210421    0.000000    0.000000    0.000000    0.000000  -92.019809   30.559599   -0.792805 -168.161850
  0.025410822    0.000000    0.000000    0.000000    0.000000  -92.264477   26.685778   -0.804984 -169.854767
  0.025611222    0.000000    0.000000    0.000000    0.000000  -92.354639   26.753344   -0.817976 -171.572113
  0.025811623    0.000000    0.000000    0.000000    0.000000  -92.155470   23.976824   -0.830151 -173.287247
  0.026012024    0.000000    0.000000    0.000000    0.000000  -92.687639   25.219570   -0.842198 -175.023788
  0.026212425    0.000000    0.000000    0.000000    0.000000  -93.074753   21.709347   -0.855806 -176.765015
  0.026412826    0.000000    0.000000    0.000000    0.000000  -93.468454   25.667316   -0.872426 -178.514755
  0.026613226    0.000000    0.000000    0.000000    0.000000  -93.007644   29.450001   -0.889985  179.726425
  0.026813627    0.000000    0.000000    0.000000    0.000000  -94.066790   24.743364   -0.904670  177.962692
  0.027014028    0.000000    0.000000    0.000000    0.000000  -94.473178   26.721087   -0.922041  176.183594
  0.027214429    0.000000    0.000000    0.000000    0.000000  -94.598177   33.679829   -0.940978  174.411667
  0.027414830    0.000000    0.000000    0.000000    0.000000  -94.380788   28.168081   -0.958663  172.630829
  0.027615230    0.000000    0.000000    0.000000    0.000000  -94.296467   29.010235   -0.978432  170.828735
  0.027815631    0.000000    0.000000    0.000000    0.000000  -94.319098   29.706705   -0.999074  169.015381
  0.028016032    0.000000    0.000000    0.000000    0.000000  -94.798631   35.587742   -1.021225  167.191971
  0.028216433    0.000000    0.000000    0.000000    0.000000  -94.122384   36.704884   -1.043598  165.358688
  0.028416834    0.000000    0.000000    0.000000    0.000000  -93.781426   34.697350   -1.066009  163.518616
  0.028617234    0.000000    0.000000    0.000000    0.000000  -94.669227   28.967974   -1.089570  161.680923
  0.028817635    0.000000    0.000000    0.000000    0.000000  -93.939949   34.175716   -1.112370  159.841263
  0.029018036    0.000000    0.000000    0.000000    0.000000  -94.641299   34.663162   -1.139196  157.999771
  0.029218437    0.000000    0.000000    0.000000    0.000000  -93.892074   33.190094   -1.163901  156.136688
  0.029418838    0.000000    0.000000    0.000000    0.000000  -93.689296   33.243362   -1.192457  154.275452
  0.029619238    0.000000    0.000000    0.000000    0.000000  -93.854588   34.333019   -1.218830  152.387955
  0.029819639    0.000000    0.000000    0.000000    0.000000  -93.869284   32.077076   -1.248535  150.502670
  0.030020040    0.000000    0.000000    0.000000    0.000000  -93.776636   32.791172   -1.276581  148.615784
  0.030220441    0.000000    0.000000    0.000000    0.000000  -94.045149   27.211885   -1.304954  146.731583
  0.030420842    0.000000    0.000000    0.000000    0.000000  -94.240314   22.923592   -1.334624  144.847595
  0.030621242    0.000000    0.000000    0.000000    0.000000  -93.805820   25.901987   -1.365577  142.966217
  0.030821643    0.000000    0.000000    0.000000    0.000000  -94.576152   29.033270   -1.399826  141.055267
  0.031022044    0.000000    0.000000    0.000000    0.000000  -94.161475   21.693466   -1.432665  139.138428
  0.031222445    0.000000    0.000000    0.000000    0.000000  -94.440384   25.258461   -1.462575  137.205734
  0.031422846    0.000000    0.000000    0.000000    0.000000  -94.123311   19.113649   -1.496485  135.234589
  0.031623246    0.000000    0.000000    0.000000    0.000000  -94.915755   16.650711   -1.533631  133.271896
  0.031823647    0.000000    0.000000    0.000000    0.000000  -95.318524   16.610886   -1.567036  131.309708
  0.032024048    0.000000    0.000000    0.000000    0.000000  -93.915173   23.388693   -1.606186  129.350693
  0.032224449    0.000000    0.000000    0.000000    0.000000  -95.540111   20.521935   -1.643227  127.348236
  0.032424850    0.000000    0.000000    0.000000    0.000000  -95.393884   21.663958   -1.681028  125.370995
  0.032625250    0.000000    0.000000    0.000000    0.000000  -95.600922   17.625652   -1.721117  123.353104
  0.032825651    0.000000    0.000000    0.000000    0.000000  -95.915562   21.604027   -1.761439  121.318161
  0.033026052    0.000000    0.000000    0.000000    0.000000  -96.056691   12.270731   -1.803440  119.280960
  0.033226453    0.000000    0.000000    0.000000    0.000000  -96.509442   21.686621   -1.843709  117.233597
  0.033426854    0.000000    0.000000    0.000000    0.000000  -95.667413   23.288330   -1.884587  115.194229
  0.033627254    0.000000    0.000000    0.000000    0.000000  -96.587149   27.129768   -1.930801  113.150169
  0.033827655    0.000000    0.000000    0.000000    0.000000  -96.465160   23.311131   -1.976566  111.111473
  0.034028056    0.000000    0.000000    0.000000    0.000000  -96.439299   25.393017   -2.016419  109.046280
  0.034228457    0.000000    0.000000    0.000000    0.000000  -96.716921   22.688688   -2.064745  106.974060
  0.034428858    0.000000    0.000000    0.000000    0.000000  -96.334447   30.614401   -2.111135  104.891975
  0.034629258    0.000000    0.000000    0.000000    0.000000  -96.846314   23.205023   -2.158280  102.793495
  0.034829659    0.000000    0.000000    0.000000    0.000000  -96.254545   31.152479   -2.205243  100.722679
  0.035030060    0.000000    0.000000    0.000000    0.000000  -96.807828   27.202574   -2.255372   98.633675
  0.035230461    0.000000    0.000000    0.000000    0.000000  -95.716203   26.563736   -2.303306   96.537880
  0.035430862    0.000000    0.000000    0.000000    0.000000  -96.056517   26.729570   -2.353656   94.467224
  0.035631262    0.000000    0.000000    0.000000    0.000000  -95.302947   21.169865   -2.403282   92.376167
  0.035831663    0.000000    0.000000    0.000000    0.000000  -96.376840   28.758839   -2.454497   90.295311
  0.036032064    0.000000    0.000000    0.000000    0.000000  -96.911771   23.972515   -2.504078   88.206413
  0.036232465    0.000000    0.000000    0.000000    0.000000  -96.293735   24.896957   -2.555014   86.134064
  0.036432866    0.000000    0.000000    0.000000    0.000000  -96.544345   26.894405   -2.606818   84.046219
  0.036633266    0.000000    0.000000    0.000000    0.000000  -97.166867   22.902090   -2.660209   81.955498
  0.036833667    0.000000    0.000000    0.000000    0.000000  -97.670612   25.438402   -2.713221   79.868469
  0.037034068    0.000000    0.000000    0.000000    0.000000  -96.028784   23.817595   -2.768516   77.764458
  0.037234469    0.000000    0.000000    0.000000    0.000000  -97.331216   27.309378   -2.822989   75.673889
  0.037434870    0.000000    0.000000    0.000000    0.000000  -98.156249   20.511583   -2.878244   73.569389
  0.037635270    0.000000    0.000000    0.000000    0.000000  -96.757765   19.794809   -2.931432   71.471786
  0.037835671    0.000000    0.000000    0.000000    0.000000  -97.269787   24.675442   -2.985763   69.350563
  0.038036072    0.000000    0.000000    0.000000    0.000000  -97.703391   27.726021   -3.047053   67.237137
  0.038236473    0.000000    0.000000    0.000000    0.000000  -98.207808   21.440800   -3.104442   65.099625
  0.038436874    0.000000    0.000000    0.000000    0.000000  -98.411685   23.468451   -3.164627   62.994110
  0.038637274    0.000000    0.000000    0.000000    0.000000  -98.013348   24.080515   -3.222699   60.867565
  0.038837675    0.000000    0.000000    0.000000    0.000000  -97.050678   33.020363   -3.280752   58.752846
  0.039038076    0.000000    0.000000    0.000000    0.000000  -98.503697   22.712753   -3.336077   56.652054
  0.039238477    0.000000    0.000000    0.000000    0.000000  -99.749785   28.337444   -3.394520   54.557941
  0.039438878    0.000000    0.000000    0.000000    0.000000  -97.773404   30.927750   -3.450494   52.459328
  0.039639278    0.000000    0.000000    0.000000    0.000000  -96.984114   24.423489   -3.510166   50.309948
  0.039839679    0.000000    0.000000    0.000000    0.000000  -97.575641   32.487000   -3.567816   48.196568
  0.040040080    0.000000    0.000000    0.000000    0.000000  -97.381004   27.036961   -3.624600   46.052113
  0.040240481    0.000000    0.000000    0.000000    0.000000  -97.539306   30.228758   -3.679389   43.946800
  0.040440882    0.000000    0.000000    0.000000    0.000000  -98.997519   30.112627   -3.735697   41.830814
  0.040641283    0.000000    0.000000    0.000000    0.000000  -98.842997   28.421549   -3.790747   39.728378
  0.040841683    0.000000    0.000000    0.000000    0.000000  -98.086593   37.484596   -3.848152   37.648117
  0.041042084    0.000000    0.000000    0.000000    0.000000  -96.892177   31.077291   -3.903408   35.557701
  0.041242485    0.000000    0.000000    0.000000    0.000000  -97.949068   32.862087   -3.960983   33.469379
  0.041442886    0.000000    0.000000    0.000000    0.000000  -99.129538   26.196556   -4.015499   31.388298
  0.041643287    0.000000    0.000000    0.000000    0.000000  -97.703803   27.591030   -4.068382   29.302933
  0.041843687    0.000000    0.000000    0.000000    0.000000  -97.615705   22.342501   -4.121416   27.230568
  0.042044088    0.000000    0.000000    0.000000    0.000000 -100.106504   25.112953   -4.173335   25.179365
  0.042244489    0.000000    0.000000    0.000000    0.000000  -98.477662   31.170290   -4.222505   23.136961
  0.042444890    0.000000    0.000000    0.000000    0.000000  -97.069475   22.223568   -4.276046   21.127600
  0.042645291    0.000000    0.000000    0.000000    0.000000  -97.917929   27.037693   -4.327631   19.101107
  0.042845691    0.000000    0.000000    0.000000    0.000000  -96.885466   29.560806   -4.377146   17.082773
  0.043046092    0.000000    0.000000    0.000000    0.000000  -98.558269   39.195873   -4.426285   15.093759
  0.043246493    0.000000    0.000000    0.000000    0.000000  -98.580105   21.761612   -4.474510   13.078693
  0.043446894    0.000000    0.000000    0.000000    0.000000  -99.521707   26.600872   -4.520362   11.097099
  0.043647295    0.000000    0.000000    0.000000    0.000000  -99.666636   24.991386   -4.564543    9.113914
  0.043847695    0.000000    0.000000    0.000000    0.000000  -99.383864   34.950687   -4.611930    7.144271
  0.044048096    0.000000    0.000000    0.000000    0.000000  -99.381004   32.179111   -4.655615    5.169055
  0.044248497    0.000000    0.000000    0.000000    0.000000  -98.669161   36.659626   -4.702267    3.208687
  0.044448898    0.000000    0.000000    0.000000    0.000000  -98.329934   34.225491   -4.744174    1.256749
  0.044649299    0.000000    0.000000    0.000000    0.000000  -98.425058   25.534416   -4.788705   -0.689727
  0.044849699    0.000000    0.000000    0.000000    0.000000  -97.761299   32.770157   -4.829941   -2.640202
  0.045050100    0.000000    0.000000    0.000000    0.000000  -98.769443   37.722664   -4.871202   -4.598338
  0.045250501    0.000000    0.000000    0.000000    0.000000 -100.173646   30.104448   -4.912674   -6.544531
  0.045450902    0.000000    0.000000    0.000000    0.000000  -99.643684   33.875095   -4.954154   -8.478571
  0.045651303    0.000000    0.000000    0.000000    0.000000  -98.769979   34.411888   -4.994404  -10.421038
  0.045851703    0.000000    0.000000    0.000000    0.000000  -98.249906   35.155144   -5.031430  -12.334320
  0.046052104    0.000000    0.000000    0.000000    0.000000  -98.120631   31.765345   -5.071858  -14.235826
  0.046252505    0.000000    0.000000    0.000000    0.000000  -98.896662   44.876293   -5.112104  -16.113565
  0.046452906    0.000000    0.000000    0.000000    0.000000  -98.554927   31.864571   -5.151054  -17.972086
  0.046653307    0.000000    0.000000    0.000000    0.000000  -98.328474   23.977318   -5.189900  -19.816612
  0.046853707    0.000000    0.000000    0.000000    0.000000  -97.491882   31.776369   -5.220261  -21.667662
  0.047054108    0.000000    0.000000    0.000000    0.000000  -98.161744   33.010612   -5.245610  -23.510141
  0.047254509    0.000000    0.000000    0.000000    0.000000  -98.744868   23.295261   -5.270329  -25.362595
  0.047454910    0.000000    0.000000    0.000000    0.000000 -100.251402   29.166929   -5.293354  -27.216274
  0.047655311    0.000000    0.000000    0.000000    0.000000  -99.022788   36.542591   -5.313918  -29.058924
  0.047855711    0.000000    0.000000    0.000000    0.000000  -98.710228   24.893576   -5.335699  -30.897757
  0.048056112    0.000000    0.000000    0.000000    0.000000  -98.601124   33.129303   -5.362399  -32.736877
  0.048256513    0.000000    0.000000    0.000000    0.000000  -99.479749   31.654531   -5.381989  -34.549160
  0.048456914    0.000000    0.000000    0.000000    0.000000  -98.986401   19.554674   -5.407273  -36.376915
  0.048657315    0.000000    0.000000    0.000000    0.000000  -99.313600   33.368656   -5.424925  -38.180759
  0.048857715    0.000000    0.000000    0.000000    0.000000  -99.166902   28.464724   -5.445618  -39.994373
  0.049058116    0.000000    0.000000    0.000000    0.000000 -100.306855   30.045153   -5.466695  -41.775475
  0.049258517    0.000000    0.000000    0.000000    0.000000 -100.466073   33.444313   -5.486050  -43.538174
  0.049458918    0.000000    0.000000    0.000000    0.000000  -99.460995   28.025211   -5.506737  -45.278080
  0.049659319    0.000000    0.000000    0.000000    0.000000  -99.471489   45.163548   -5.529746  -47.003185
  0.049859719    0.000000    0.000000    0.000000    0.000000  -98.887407   35.661617   -5.548976  -48.715965
  0.050060120    0.000000    0.000000    0.000000    0.000000  -99.497580   30.669432   -5.569352  -50.416988
  0.050260521    0.000000    0.000000    0.000000    0.000000 -100.389167   35.815117   -5.586360  -52.111343
  0.050460922    0.000000    0.000000    0.000000    0.000000 -101.981423   41.846249   -5.604761  -53.800053
  0.050661323    0.000000    0.000000    0.000000    0.000000 -100.268379   31.889269   -5.623004  -55.481140
  0.050861723    0.000000    0.000000    0.000000    0.000000  -99.031753   35.203911   -5.640970  -57.130253
  0.051062124    0.000000    0.000000    0.000000    0.000000 -100.571059   36.714832   -5.659041  -58.772724
  0.051262525    0.000000    0.000000    0.000000    0.000000 -100.220865   40.486706   -5.677954  -60.410175
  0.051462926    0.000000    0.000000    0.000000    0.000000  -98.932978   44.729225   -5.694992  -62.039661
  0.051663327    0.000000    0.000000    0.000000    0.000000  -98.701431   30.301407   -5.711809  -63.649052
  0.051863727    0.000000    0.000000    0.000000    0.000000  -98.105724   35.967865   -5.731048  -65.253014
  0.052064128    0.000000    0.000000    0.000000    0.000000  -99.599925   34.648441   -5.743826  -66.854866
  0.052264529    0.000000    0.000000    0.000000    0.000000  -98.626336   30.923449   -5.754405  -68.455872
  0.052464930    0.000000    0.000000    0.000000    0.000000  -98.627052   37.068558   -5.770936  -70.024628
  0.052665331    0.000000    0.000000    0.000000    0.000000  -99.159520   21.451439   -5.786322  -71.589813
  0.052865731    0.000000    0.000000    0.000000    0.000000  -99.765902   23.329390   -5.799464  -73.146942
