! Anritsu VNA Master:                     Model: MS2036C/10/77
! SN:                                  1601066
! /bd0/18may10/256.ew.m2_1.s2p
! Existing Calibration Information:
! TYPE:                         Current Settings,       Active Cal Settings
! TIME:             	   05/10/2018 10:13:08 AM,    05/10/2018 10:05:08 AM
! INTERNAL TEMP:    	                   46.3 C,                    45.0 C
! # POINTS:         	                      494,                       494
! START FREQ:       	               20.000 MHz,                20.000 MHz
! STOP FREQ:        	          118.797 594 MHz,           118.797 594 MHz
! SOURCE POWER:     	                     High,                      High
! IFBW:             	                    50 Hz,                     50 Hz
! AVG FACTOR:       	                       1 ,                        1 
! REF PLANE 1:      	                     0 mm,                      0 mm
! REF PLANE 2:      	                     0 mm,                      0 mm
! CAL TYPE:         	                 Full S22,                  Full S22
! CAL METHOD:       	                     SOLT,                      SOLT
! CAL LINE TYPE:    	                     Coax,                      Coax
! DUT PORT 1:       	                K-Conn(M),                 K-Conn(M)
! DUT PORT 2:       	                K-Conn(M),                 K-Conn(M)
! CAL STATUS:       	        OK: Accuracy High,                        --
# GHZ S DB R 50.0
! FREQ.GHZ       S11DB        S11A       S21DB        S21A       S12DB        S12A       S22DB        S22A
  0.020000000    0.000000    0.000000    0.000000    0.000000  -89.163834   36.511555   -0.609662 -127.018005
  0.020200401    0.000000    0.000000    0.000000    0.000000  -89.888263   36.087250   -0.613638 -128.472580
  0.020400802    0.000000    0.000000    0.000000    0.000000  -89.898048   38.327763   -0.619785 -129.940384
  0.020601202    0.000000    0.000000    0.000000    0.000000  -90.416649   37.082115   -0.623812 -131.434601
  0.020801603    0.000000    0.000000    0.000000    0.000000  -90.802468   35.212486   -0.628746 -132.961853
  0.021002004    0.000000    0.000000    0.000000    0.000000  -91.561352   37.021358   -0.630931 -134.489273
  0.021202405    0.000000    0.000000    0.000000    0.000000  -91.653948   39.112564   -0.637555 -136.025787
  0.021402806    0.000000    0.000000    0.000000    0.000000  -91.275361   39.129757   -0.641321 -137.555298
  0.021603206    0.000000    0.000000    0.000000    0.000000  -91.266380   42.179142   -0.645337 -139.072861
  0.021803607    0.000000    0.000000    0.000000    0.000000  -92.140992   41.923695   -0.650260 -140.601456
  0.022004008    0.000000    0.000000    0.000000    0.000000  -91.503251   41.114571   -0.658890 -142.148209
  0.022204409    0.000000    0.000000    0.000000    0.000000  -91.811249   43.270470   -0.663102 -143.717072
  0.022404810    0.000000    0.000000    0.000000    0.000000  -91.514807   41.258896   -0.670743 -145.319275
  0.022605210    0.000000    0.000000    0.000000    0.000000  -91.515719   43.369850   -0.679604 -146.910980
  0.022805611    0.000000    0.000000    0.000000    0.000000  -91.224476   42.547729   -0.686975 -148.495041
  0.023006012    0.000000    0.000000    0.000000    0.000000  -91.390827   48.206871   -0.691217 -150.093124
  0.023206413    0.000000    0.000000    0.000000    0.000000  -91.363304   43.383972   -0.696018 -151.701462
  0.023406814    0.000000    0.000000    0.000000    0.000000  -91.251740   39.160187   -0.702416 -153.298492
  0.023607214    0.000000    0.000000    0.000000    0.000000  -90.509241   39.924141   -0.711125 -154.910187
  0.023807615    0.000000    0.000000    0.000000    0.000000  -91.092593   40.009064   -0.722831 -156.548386
  0.024008016    0.000000    0.000000    0.000000    0.000000  -90.937905   40.790081   -0.734167 -158.173218
  0.024208417    0.000000    0.000000    0.000000    0.000000  -91.303906   34.690239   -0.741633 -159.837494
  0.024408818    0.000000    0.000000    0.000000    0.000000  -90.899764   39.650955   -0.747433 -161.504211
  0.024609218    0.000000    0.000000    0.000000    0.000000  -90.937736   34.289295   -0.758204 -163.163467
  0.024809619    0.000000    0.000000    0.000000    0.000000  -91.346351   29.148226   -0.768476 -164.831177
  0.025010020    0.000000    0.000000    0.000000    0.000000  -91.927139   29.344412   -0.779340 -166.515381
  0.025210421    0.000000    0.000000    0.000000    0.000000  -91.801942   30.643908   -0.792010 -168.192581
  0.025410822    0.000000    0.000000    0.000000    0.000000  -91.946154   26.388145   -0.805489 -169.885208
  0.025611222    0.000000    0.000000    0.000000    0.000000  -92.589536   25.332615   -0.818453 -171.592514
  0.025811623    0.000000    0.000000    0.000000    0.000000  -92.749818   26.380226   -0.831090 -173.310272
  0.026012024    0.000000    0.000000    0.000000    0.000000  -93.217001   26.961725   -0.844189 -175.041504
  0.026212425    0.000000    0.000000    0.000000    0.000000  -93.034669   25.442507   -0.856325 -176.776230
  0.026412826    0.000000    0.000000    0.000000    0.000000  -93.273632   26.241074   -0.874030 -178.532013
  0.026613226    0.000000    0.000000    0.000000    0.000000  -93.193025   32.660934   -0.890048  179.720718
  0.026813627    0.000000    0.000000    0.000000    0.000000  -93.804260   30.819788   -0.905841  177.947311
  0.027014028    0.000000    0.000000    0.000000    0.000000  -93.643433   30.815624   -0.924270  176.181885
  0.027214429    0.000000    0.000000    0.000000    0.000000  -94.153625   28.952457   -0.941860  174.402985
  0.027414830    0.000000    0.000000    0.000000    0.000000  -94.588177   29.107971   -0.960369  172.628021
  0.027615230    0.000000    0.000000    0.000000    0.000000  -94.374740   33.373993   -0.980427  170.809280
  0.027815631    0.000000    0.000000    0.000000    0.000000  -94.517201   29.625475   -1.000304  169.003525
  0.028016032    0.000000    0.000000    0.000000    0.000000  -94.140184   31.403488   -1.022415  167.171265
  0.028216433    0.000000    0.000000    0.000000    0.000000  -94.026280   35.264557   -1.044523  165.337051
  0.028416834    0.000000    0.000000    0.000000    0.000000  -94.118116   31.423187   -1.067924  163.495544
  0.028617234    0.000000    0.000000    0.000000    0.000000  -94.322733   38.477680   -1.090897  161.658173
  0.028817635    0.000000    0.000000    0.000000    0.000000  -94.184764   34.496330   -1.115733  159.812286
  0.029018036    0.000000    0.000000    0.000000    0.000000  -94.174411   38.359829   -1.142254  157.964264
  0.029218437    0.000000    0.000000    0.000000    0.000000  -93.937732   33.334942   -1.167413  156.099213
  0.029418838    0.000000    0.000000    0.000000    0.000000  -94.171007   34.269794   -1.196392  154.226212
  0.029619238    0.000000    0.000000    0.000000    0.000000  -94.116897   30.889084   -1.223333  152.333252
  0.029819639    0.000000    0.000000    0.000000    0.000000  -93.874901   33.740150   -1.253396  150.448914
  0.030020040    0.000000    0.000000    0.000000    0.000000  -93.839719   26.783838   -1.282868  148.554291
  0.030220441    0.000000    0.000000    0.000000    0.000000  -93.912030   27.732109   -1.311237  146.667801
  0.030420842    0.000000    0.000000    0.000000    0.000000  -94.283576   31.949432   -1.341539  144.784683
  0.030621242    0.000000    0.000000    0.000000    0.000000  -94.625156   31.916777   -1.372613  142.895676
  0.030821643    0.000000    0.000000    0.000000    0.000000  -93.777678   26.637253   -1.407196  140.989319
  0.031022044    0.000000    0.000000    0.000000    0.000000  -94.196994   28.045437   -1.440732  139.070694
  0.031222445    0.000000    0.000000    0.000000    0.000000  -95.175160   24.698248   -1.469898  137.148499
  0.031422846    0.000000    0.000000    0.000000    0.000000  -94.229520   16.472607   -1.503245  135.180725
  0.031623246    0.000000    0.000000    0.000000    0.000000  -95.362757   21.608368   -1.539020  133.216431
  0.031823647    0.000000    0.000000    0.000000    0.000000  -94.757193   20.537027   -1.572699  131.252792
  0.032024048    0.000000    0.000000    0.000000    0.000000  -95.246581   25.335835   -1.612667  129.290771
  0.032224449    0.000000    0.000000    0.000000    0.000000  -95.300917   22.201139   -1.648295  127.305534
  0.032424850    0.000000    0.000000    0.000000    0.000000  -96.180416   20.392015   -1.685495  125.324516
  0.032625250    0.000000    0.000000    0.000000    0.000000  -95.746396   19.991501   -1.723936  123.311485
  0.032825651    0.000000    0.000000    0.000000    0.000000  -96.537998   24.856802   -1.765917  121.286331
  0.033026052    0.000000    0.000000    0.000000    0.000000  -96.728994   22.921978   -1.805719  119.246620
  0.033226453    0.000000    0.000000    0.000000    0.000000  -96.828056   18.100338   -1.846094  117.207985
  0.033426854    0.000000    0.000000    0.000000    0.000000  -96.423317   23.246975   -1.887256  115.159790
  0.033627254    0.000000    0.000000    0.000000    0.000000  -95.960330   25.443060   -1.931267  113.122383
  0.033827655    0.000000    0.000000    0.000000    0.000000  -97.030148   32.763016   -1.979380  111.083939
  0.034028056    0.000000    0.000000    0.000000    0.000000  -96.431122   24.203894   -2.017908  109.024208
  0.034228457    0.000000    0.000000    0.000000    0.000000  -95.942875   24.566393   -2.066160  106.952667
  0.034428858    0.000000    0.000000    0.000000    0.000000  -96.547033   29.642365   -2.112474  104.868698
  0.034629258    0.000000    0.000000    0.000000    0.000000  -95.787900   28.585754   -2.158467  102.761833
  0.034829659    0.000000    0.000000    0.000000    0.000000  -97.290323   32.919933   -2.206533  100.690392
  0.035030060    0.000000    0.000000    0.000000    0.000000  -95.854143   32.068779   -2.258780   98.610336
  0.035230461    0.000000    0.000000    0.000000    0.000000  -96.447350   27.854527   -2.305946   96.507317
  0.035430862    0.000000    0.000000    0.000000    0.000000  -96.279217   32.199265   -2.355924   94.428940
  0.035631262    0.000000    0.000000    0.000000    0.000000  -95.568763   25.533978   -2.404402   92.350937
  0.035831663    0.000000    0.000000    0.000000    0.000000  -96.103524   29.159243   -2.456767   90.248016
  0.036032064    0.000000    0.000000    0.000000    0.000000  -97.228822   22.571051   -2.507097   88.161407
  0.036232465    0.000000    0.000000    0.000000    0.000000  -97.003971   23.414333   -2.557412   86.085533
  0.036432866    0.000000    0.000000    0.000000    0.000000  -95.807729   28.799192   -2.609937   83.980568
  0.036633266    0.000000    0.000000    0.000000    0.000000  -95.990892   27.533796   -2.663509   81.887863
  0.036833667    0.000000    0.000000    0.000000    0.000000  -95.980741   21.858915   -2.715358   79.795769
  0.037034068    0.000000    0.000000    0.000000    0.000000  -96.896082   25.185429   -2.771256   77.689949
  0.037234469    0.000000    0.000000    0.000000    0.000000  -95.855266   15.743361   -2.823454   75.598946
  0.037434870    0.000000    0.000000    0.000000    0.000000  -98.259145   19.858189   -2.879995   73.485741
  0.037635270    0.000000    0.000000    0.000000    0.000000  -96.814428   17.943811   -2.932336   71.394218
  0.037835671    0.000000    0.000000    0.000000    0.000000  -97.474042   17.014606   -2.986712   69.270638
  0.038036072    0.000000    0.000000    0.000000    0.000000  -99.001530   14.912057   -3.047253   67.153351
  0.038236473    0.000000    0.000000    0.000000    0.000000  -97.163382   24.114704   -3.103830   65.018494
  0.038436874    0.000000    0.000000    0.000000    0.000000  -98.080492   28.745470   -3.162320   62.904648
  0.038637274    0.000000    0.000000    0.000000    0.000000  -98.360650   27.832447   -3.220132   60.780033
  0.038837675    0.000000    0.000000    0.000000    0.000000  -97.846421   22.932291   -3.277275   58.667328
  0.039038076    0.000000    0.000000    0.000000    0.000000  -97.674621   27.844112   -3.332349   56.577297
  0.039238477    0.000000    0.000000    0.000000    0.000000  -98.253566   24.655952   -3.390573   54.470955
  0.039438878    0.000000    0.000000    0.000000    0.000000  -99.349687   35.486279   -3.446010   52.366272
  0.039639278    0.000000    0.000000    0.000000    0.000000  -97.916828   30.282000   -3.507355   50.236877
  0.039839679    0.000000    0.000000    0.000000    0.000000  -97.824351   34.494328   -3.562198   48.121002
  0.040040080    0.000000    0.000000    0.000000    0.000000  -98.281547   37.318089   -3.619264   45.988335
  0.040240481    0.000000    0.000000    0.000000    0.000000  -98.266744   30.766283   -3.674076   43.883175
  0.040440882    0.000000    0.000000    0.000000    0.000000  -96.883183   41.360435   -3.731107   41.763470
  0.040641283    0.000000    0.000000    0.000000    0.000000  -96.823973   31.871046   -3.784862   39.661373
  0.040841683    0.000000    0.000000    0.000000    0.000000  -96.479199   31.212910   -3.840785   37.570591
  0.041042084    0.000000    0.000000    0.000000    0.000000  -97.607345   34.644238   -3.897289   35.485538
  0.041242485    0.000000    0.000000    0.000000    0.000000  -97.438999   31.459745   -3.954822   33.403339
  0.041442886    0.000000    0.000000    0.000000    0.000000  -97.754816   22.265869   -4.010610   31.308910
  0.041643287    0.000000    0.000000    0.000000    0.000000  -97.370573   28.837482   -4.063645   29.231407
  0.041843687    0.000000    0.000000    0.000000    0.000000  -98.332791   25.746624   -4.116759   27.139860
  0.042044088    0.000000    0.000000    0.000000    0.000000  -97.452571   34.051369   -4.167437   25.094414
  0.042244489    0.000000    0.000000    0.000000    0.000000  -97.109954   22.323145   -4.218798   23.048971
  0.042444890    0.000000    0.000000    0.000000    0.000000  -97.676180   32.243504   -4.272564   21.022226
  0.042645291    0.000000    0.000000    0.000000    0.000000  -98.029998   18.980829   -4.324665   18.998898
  0.042845691    0.000000    0.000000    0.000000    0.000000  -98.653975   20.201788   -4.374893   16.964176
  0.043046092    0.000000    0.000000    0.000000    0.000000  -98.943852   30.510042   -4.424124   14.973313
  0.043246493    0.000000    0.000000    0.000000    0.000000  -99.199176   32.615353   -4.472028   12.953654
  0.043446894    0.000000    0.000000    0.000000    0.000000  -98.289973   28.623974   -4.520449   10.965189
  0.043647295    0.000000    0.000000    0.000000    0.000000  -98.722330   23.150688   -4.566104    8.973985
  0.043847695    0.000000    0.000000    0.000000    0.000000  -98.388794   30.314129   -4.610604    7.005120
  0.044048096    0.000000    0.000000    0.000000    0.000000  -99.314979   37.842449   -4.655772    5.029616
  0.044248497    0.000000    0.000000    0.000000    0.000000 -100.438381   30.109793   -4.699700    3.062531
  0.044448898    0.000000    0.000000    0.000000    0.000000 -100.662157   41.136631   -4.744551    1.097118
  0.044649299    0.000000    0.000000    0.000000    0.000000  -99.883846   34.740822   -4.787096   -0.843162
  0.044849699    0.000000    0.000000    0.000000    0.000000  -99.381496   31.694181   -4.828084   -2.797053
  0.045050100    0.000000    0.000000    0.000000    0.000000  -99.397061   37.935493   -4.868434   -4.753808
  0.045250501    0.000000    0.000000    0.000000    0.000000  -99.672152   33.703903   -4.911007   -6.680531
  0.045450902    0.000000    0.000000    0.000000    0.000000  -98.654883   27.420458   -4.952383   -8.622398
  0.045651303    0.000000    0.000000    0.000000    0.000000 -100.305987   31.907160   -4.992143  -10.544697
  0.045851703    0.000000    0.000000    0.000000    0.000000  -98.859019   34.352196   -5.028969  -12.483280
  0.046052104    0.000000    0.000000    0.000000    0.000000  -99.301599   34.453316   -5.067018  -14.373954
  0.046252505    0.000000    0.000000    0.000000    0.000000  -98.551002   40.961288   -5.106768  -16.254086
  0.046452906    0.000000    0.000000    0.000000    0.000000  -99.362074   31.756279   -5.146531  -18.114866
  0.046653307    0.000000    0.000000    0.000000    0.000000  -99.206862   31.220863   -5.182504  -19.962465
  0.046853707    0.000000    0.000000    0.000000    0.000000  -97.824028   31.504179   -5.211673  -21.793732
  0.047054108    0.000000    0.000000    0.000000    0.000000  -98.207893   21.527187   -5.240762  -23.638174
  0.047254509    0.000000    0.000000    0.000000    0.000000  -99.317008   33.572876   -5.267327  -25.484783
  0.047454910    0.000000    0.000000    0.000000    0.000000  -99.195018   34.014576   -5.288676  -27.329926
  0.047655311    0.000000    0.000000    0.000000    0.000000  -97.639657   31.028753   -5.311043  -29.163326
  0.047855711    0.000000    0.000000    0.000000    0.000000  -99.701471   19.185225   -5.331483  -31.004656
  0.048056112    0.000000    0.000000    0.000000    0.000000  -99.332625   24.553654   -5.358824  -32.834885
  0.048256513    0.000000    0.000000    0.000000    0.000000  -98.941042   28.422615   -5.381309  -34.656139
  0.048456914    0.000000    0.000000    0.000000    0.000000 -100.293131   40.948994   -5.403863  -36.468178
  0.048657315    0.000000    0.000000    0.000000    0.000000 -100.950104   28.896255   -5.422836  -38.278992
  0.048857715    0.000000    0.000000    0.000000    0.000000  -99.102141   32.633327   -5.445383  -40.097733
  0.049058116    0.000000    0.000000    0.000000    0.000000  -99.542456   38.954792   -5.464274  -41.874416
  0.049258517    0.000000    0.000000    0.000000    0.000000  -99.822378   27.628275   -5.485120  -43.632290
  0.049458918    0.000000    0.000000    0.000000    0.000000  -99.878914   42.686951   -5.503253  -45.395081
  0.049659319    0.000000    0.000000    0.000000    0.000000 -100.046634   32.219265   -5.528424  -47.101105
  0.049859719    0.000000    0.000000    0.000000    0.000000  -99.756478   29.274376   -5.550089  -48.807823
  0.050060120    0.000000    0.000000    0.000000    0.000000  -98.167044   40.026062   -5.567762  -50.534367
  0.050260521    0.000000    0.000000    0.000000    0.000000  -98.303837   39.698139   -5.586171  -52.224373
  0.050460922    0.000000    0.000000    0.000000    0.000000  -98.737698   34.822155   -5.607200  -53.921558
  0.050661323    0.000000    0.000000    0.000000    0.000000  -99.846815   32.026230   -5.621883  -55.605019
  0.050861723    0.000000    0.000000    0.000000    0.000000 -100.536930   36.549263   -5.640913  -57.262299
  0.051062124    0.000000    0.000000    0.000000    0.000000  -99.026268   39.544727   -5.659639  -58.915874
  0.051262525    0.000000    0.000000    0.000000    0.000000  -99.084705   38.477306   -5.678904  -60.544872
  0.051462926    0.000000    0.000000    0.000000    0.000000  -99.028345   37.159096   -5.696024  -62.164333
  0.051663327    0.000000    0.000000    0.000000    0.000000  -99.224948   36.515022   -5.712871  -63.783867
  0.051863727    0.000000    0.000000    0.000000    0.000000  -98.514672   46.177265   -5.733259  -65.408791
  0.052064128    0.000000    0.000000    0.000000    0.000000  -98.555264   33.836712   -5.745193  -66.998955
  0.052264529    0.000000    0.000000    0.000000    0.000000  -98.409499   33.726349   -5.755618  -68.602844
  0.052464930    0.000000    0.000000    0.000000    0.000000  -98.893637   29.629749   -5.770883  -70.178101
  0.052665331    0.000000    0.000000    0.000000    0.000000  -98.225070   37.026890   -5.785532  -71.741470
  0.052865731    0.000000    0.000000    0.000000    0.000000  -98.439079   38.518082   -5.800586  -73.302704
