! Anritsu VNA Master:                     Model: MS2036C/10/77
! SN:                                  1601066
! /bd0/18may10/256.ew.m7.s2p
! Existing Calibration Information:
! TYPE:                         Current Settings,       Active Cal Settings
! TIME:             	   05/10/2018 10:28:11 AM,    05/10/2018 10:22:12 AM
! INTERNAL TEMP:    	                   47.3 C,                    47.0 C
! # POINTS:         	                      494,                       494
! START FREQ:       	               20.000 MHz,                20.000 MHz
! STOP FREQ:        	          118.797 594 MHz,           118.797 594 MHz
! SOURCE POWER:     	                     High,                      High
! IFBW:             	                    50 Hz,                     50 Hz
! AVG FACTOR:       	                       1 ,                        1 
! REF PLANE 1:      	                     0 mm,                      0 mm
! REF PLANE 2:      	                     0 mm,                      0 mm
! CAL TYPE:         	                 Full S22,                  Full S22
! CAL METHOD:       	                     SOLT,                      SOLT
! CAL LINE TYPE:    	                     Coax,                      Coax
! DUT PORT 1:       	                K-Conn(M),                 K-Conn(M)
! DUT PORT 2:       	                K-Conn(M),                 K-Conn(M)
! CAL STATUS:       	        OK: Accuracy High,                        --
# GHZ S DB R 50.0
! FREQ.GHZ       S11DB        S11A       S21DB        S21A       S12DB        S12A       S22DB        S22A
  0.020000000    0.000000    0.000000    0.000000    0.000000  -89.134100   36.711086   -0.614244 -127.016617
  0.020200401    0.000000    0.000000    0.000000    0.000000  -90.078533   36.334270   -0.615606 -128.486206
  0.020400802    0.000000    0.000000    0.000000    0.000000  -89.674005   35.398571   -0.618818 -129.968124
  0.020601202    0.000000    0.000000    0.000000    0.000000  -90.315004   40.401283   -0.622407 -131.460907
  0.020801603    0.000000    0.000000    0.000000    0.000000  -90.829662   33.835644   -0.626862 -132.998688
  0.021002004    0.000000    0.000000    0.000000    0.000000  -90.940612   36.405869   -0.630796 -134.538239
  0.021202405    0.000000    0.000000    0.000000    0.000000  -91.830553   36.031651   -0.636162 -136.075500
  0.021402806    0.000000    0.000000    0.000000    0.000000  -91.437277   38.966614   -0.637626 -137.609726
  0.021603206    0.000000    0.000000    0.000000    0.000000  -91.317061   43.434166   -0.642674 -139.133621
  0.021803607    0.000000    0.000000    0.000000    0.000000  -91.639334   42.000275   -0.647614 -140.676941
  0.022004008    0.000000    0.000000    0.000000    0.000000  -91.933510   39.671124   -0.652763 -142.214142
  0.022204409    0.000000    0.000000    0.000000    0.000000  -91.492936   46.812790   -0.658291 -143.790482
  0.022404810    0.000000    0.000000    0.000000    0.000000  -91.864814   41.582996   -0.665771 -145.387299
  0.022605210    0.000000    0.000000    0.000000    0.000000  -91.915642   46.407852   -0.670757 -146.971512
  0.022805611    0.000000    0.000000    0.000000    0.000000  -91.446256   44.357296   -0.678943 -148.564590
  0.023006012    0.000000    0.000000    0.000000    0.000000  -91.410002   44.575333   -0.684836 -150.154053
  0.023206413    0.000000    0.000000    0.000000    0.000000  -91.043655   47.452763   -0.688614 -151.752396
  0.023406814    0.000000    0.000000    0.000000    0.000000  -91.722076   44.246574   -0.694437 -153.355743
  0.023607214    0.000000    0.000000    0.000000    0.000000  -91.004253   40.314434   -0.702650 -154.961716
  0.023807615    0.000000    0.000000    0.000000    0.000000  -90.877605   39.653381   -0.715402 -156.591202
  0.024008016    0.000000    0.000000    0.000000    0.000000  -91.335575   36.580074   -0.725177 -158.232712
  0.024208417    0.000000    0.000000    0.000000    0.000000  -91.694151   37.613247   -0.733081 -159.889465
  0.024408818    0.000000    0.000000    0.000000    0.000000  -90.954576   32.378361   -0.740555 -161.551605
  0.024609218    0.000000    0.000000    0.000000    0.000000  -91.322403   30.331049   -0.750619 -163.219772
  0.024809619    0.000000    0.000000    0.000000    0.000000  -91.438372   28.976288   -0.760055 -164.877396
  0.025010020    0.000000    0.000000    0.000000    0.000000  -91.587885   31.886820   -0.771486 -166.557556
  0.025210421    0.000000    0.000000    0.000000    0.000000  -91.902964   25.783140   -0.783495 -168.237869
  0.025410822    0.000000    0.000000    0.000000    0.000000  -91.980861   26.827250   -0.796259 -169.929993
  0.025611222    0.000000    0.000000    0.000000    0.000000  -92.941126   28.861599   -0.810687 -171.639832
  0.025811623    0.000000    0.000000    0.000000    0.000000  -92.669969   26.457399   -0.822778 -173.359573
  0.026012024    0.000000    0.000000    0.000000    0.000000  -93.278540   23.397671   -0.835706 -175.091171
  0.026212425    0.000000    0.000000    0.000000    0.000000  -92.841594   22.631283   -0.849930 -176.830307
  0.026412826    0.000000    0.000000    0.000000    0.000000  -93.609157   28.099552   -0.866533 -178.585800
  0.026613226    0.000000    0.000000    0.000000    0.000000  -94.963717   28.192799   -0.881159  179.660233
  0.026813627    0.000000    0.000000    0.000000    0.000000  -94.633223   28.846764   -0.898356  177.894470
  0.027014028    0.000000    0.000000    0.000000    0.000000  -93.501586   26.307224   -0.914903  176.124969
  0.027214429    0.000000    0.000000    0.000000    0.000000  -94.262153   31.077276   -0.932321  174.343658
  0.027414830    0.000000    0.000000    0.000000    0.000000  -95.105738   30.718290   -0.952452  172.557724
  0.027615230    0.000000    0.000000    0.000000    0.000000  -94.816904   34.397243   -0.970924  170.744446
  0.027815631    0.000000    0.000000    0.000000    0.000000  -94.306437   31.550499   -0.990616  168.936630
  0.028016032    0.000000    0.000000    0.000000    0.000000  -94.527106   35.610180   -1.012694  167.108337
  0.028216433    0.000000    0.000000    0.000000    0.000000  -95.145687   33.737141   -1.035512  165.269516
  0.028416834    0.000000    0.000000    0.000000    0.000000  -94.403105   32.826313   -1.057044  163.428787
  0.028617234    0.000000    0.000000    0.000000    0.000000  -94.474709   36.704967   -1.080120  161.593048
  0.028817635    0.000000    0.000000    0.000000    0.000000  -94.110773   37.366436   -1.104896  159.748764
  0.029018036    0.000000    0.000000    0.000000    0.000000  -94.025100   27.741169   -1.131531  157.905197
  0.029218437    0.000000    0.000000    0.000000    0.000000  -93.451035   32.148884   -1.158460  156.044434
  0.029418838    0.000000    0.000000    0.000000    0.000000  -94.307962   35.814404   -1.186744  154.167496
  0.029619238    0.000000    0.000000    0.000000    0.000000  -93.397645   30.811071   -1.214921  152.281281
  0.029819639    0.000000    0.000000    0.000000    0.000000  -93.754136   31.307917   -1.243690  150.400833
  0.030020040    0.000000    0.000000    0.000000    0.000000  -94.317506   35.128933   -1.273795  148.503677
  0.030220441    0.000000    0.000000    0.000000    0.000000  -93.866512   29.561541   -1.302175  146.610428
  0.030420842    0.000000    0.000000    0.000000    0.000000  -94.302161   22.257740   -1.333250  144.730362
  0.030621242    0.000000    0.000000    0.000000    0.000000  -94.215573   25.774767   -1.364500  142.838776
  0.030821643    0.000000    0.000000    0.000000    0.000000  -94.378967   24.449261   -1.399202  140.934555
  0.031022044    0.000000    0.000000    0.000000    0.000000  -94.161432   22.939936   -1.430891  139.010956
  0.031222445    0.000000    0.000000    0.000000    0.000000  -93.946581   19.917206   -1.460042  137.087158
  0.031422846    0.000000    0.000000    0.000000    0.000000  -95.251254   24.554157   -1.492592  135.120041
  0.031623246    0.000000    0.000000    0.000000    0.000000  -95.217912   23.052265   -1.529260  133.147568
  0.031823647    0.000000    0.000000    0.000000    0.000000  -94.778251   16.778542   -1.562651  131.172836
  0.032024048    0.000000    0.000000    0.000000    0.000000  -95.083721   22.462248   -1.600037  129.201523
  0.032224449    0.000000    0.000000    0.000000    0.000000  -95.591542   18.658987   -1.637456  127.218178
  0.032424850    0.000000    0.000000    0.000000    0.000000  -95.268225   20.048717   -1.676800  125.208855
  0.032625250    0.000000    0.000000    0.000000    0.000000  -95.622203   22.605951   -1.714839  123.192970
  0.032825651    0.000000    0.000000    0.000000    0.000000  -96.425458   14.681194   -1.753484  121.152542
  0.033026052    0.000000    0.000000    0.000000    0.000000  -95.223469   19.509205   -1.793438  119.109917
  0.033226453    0.000000    0.000000    0.000000    0.000000  -95.769734   30.732723   -1.834360  117.085136
  0.033426854    0.000000    0.000000    0.000000    0.000000  -96.734183   23.456306   -1.876164  115.037354
  0.033627254    0.000000    0.000000    0.000000    0.000000  -96.158676   20.579945   -1.917213  113.000618
  0.033827655    0.000000    0.000000    0.000000    0.000000  -96.834625   20.318184   -1.961864  110.960365
  0.034028056    0.000000    0.000000    0.000000    0.000000  -96.453369   26.227308   -2.006980  108.899918
  0.034228457    0.000000    0.000000    0.000000    0.000000  -96.092632   21.900200   -2.050712  106.834137
  0.034428858    0.000000    0.000000    0.000000    0.000000  -95.763211   27.695852   -2.097734  104.769485
  0.034629258    0.000000    0.000000    0.000000    0.000000  -96.722139   32.871624   -2.145111  102.687759
  0.034829659    0.000000    0.000000    0.000000    0.000000  -96.490664   26.806362   -2.191224  100.599998
  0.035030060    0.000000    0.000000    0.000000    0.000000  -95.526974   27.757664   -2.240738   98.531288
  0.035230461    0.000000    0.000000    0.000000    0.000000  -96.145581   27.749052   -2.290589   96.448624
  0.035430862    0.000000    0.000000    0.000000    0.000000  -96.116384   29.557302   -2.339544   94.367119
  0.035631262    0.000000    0.000000    0.000000    0.000000  -96.478944   26.896446   -2.391308   92.300690
  0.035831663    0.000000    0.000000    0.000000    0.000000  -95.944978   24.009962   -2.441534   90.205559
  0.036032064    0.000000    0.000000    0.000000    0.000000  -95.853732   29.128014   -2.489670   88.118896
  0.036232465    0.000000    0.000000    0.000000    0.000000  -95.432143   28.044802   -2.543231   86.050407
  0.036432866    0.000000    0.000000    0.000000    0.000000  -95.879685   25.228174   -2.594607   83.941048
  0.036633266    0.000000    0.000000    0.000000    0.000000  -96.587606   32.696640   -2.648300   81.824814
  0.036833667    0.000000    0.000000    0.000000    0.000000  -96.429930   20.217642   -2.701319   79.750130
  0.037034068    0.000000    0.000000    0.000000    0.000000  -96.891582   18.292828   -2.756711   77.635384
  0.037234469    0.000000    0.000000    0.000000    0.000000  -96.374785   23.343494   -2.811161   75.530617
  0.037434870    0.000000    0.000000    0.000000    0.000000  -97.282808   22.360325   -2.862983   73.439789
  0.037635270    0.000000    0.000000    0.000000    0.000000  -96.761651   21.901661   -2.917748   71.314827
  0.037835671    0.000000    0.000000    0.000000    0.000000  -97.824706   20.337656   -2.975367   69.189682
  0.038036072    0.000000    0.000000    0.000000    0.000000  -98.021199   15.697093   -3.031668   67.058289
  0.038236473    0.000000    0.000000    0.000000    0.000000  -97.846333   28.408289   -3.091176   64.925224
  0.038436874    0.000000    0.000000    0.000000    0.000000  -97.532492   22.873804   -3.149457   62.797504
  0.038637274    0.000000    0.000000    0.000000    0.000000  -99.099571   21.596575   -3.206768   60.653534
  0.038837675    0.000000    0.000000    0.000000    0.000000  -99.175065   28.079918   -3.264144   58.548134
  0.039038076    0.000000    0.000000    0.000000    0.000000  -99.188013   34.119637   -3.317452   56.433681
  0.039238477    0.000000    0.000000    0.000000    0.000000  -98.763996   28.399666   -3.374033   54.308586
  0.039438878    0.000000    0.000000    0.000000    0.000000  -99.129265   32.007999   -3.432754   52.206287
  0.039639278    0.000000    0.000000    0.000000    0.000000  -96.448571   27.300550   -3.491295   50.072067
  0.039839679    0.000000    0.000000    0.000000    0.000000  -97.749867   40.741589   -3.547240   47.960289
  0.040040080    0.000000    0.000000    0.000000    0.000000  -97.297184   22.700882   -3.602850   45.817699
  0.040240481    0.000000    0.000000    0.000000    0.000000  -97.291034   29.578205   -3.659850   43.711712
  0.040440882    0.000000    0.000000    0.000000    0.000000  -98.457956   33.669643   -3.712653   41.604080
  0.040641283    0.000000    0.000000    0.000000    0.000000  -98.621291   26.550579   -3.771028   39.501980
  0.040841683    0.000000    0.000000    0.000000    0.000000  -97.652337   25.530581   -3.823365   37.421139
  0.041042084    0.000000    0.000000    0.000000    0.000000  -97.578497   24.719257   -3.882446   35.363300
  0.041242485    0.000000    0.000000    0.000000    0.000000  -97.109855   27.023741   -3.938933   33.269688
  0.041442886    0.000000    0.000000    0.000000    0.000000  -98.541087   30.847088   -3.993480   31.182241
  0.041643287    0.000000    0.000000    0.000000    0.000000  -98.040820   25.036161   -4.047645   29.111673
  0.041843687    0.000000    0.000000    0.000000    0.000000  -98.323147   22.046227   -4.102099   27.043188
  0.042044088    0.000000    0.000000    0.000000    0.000000  -97.688947   20.710175   -4.154730   24.993881
  0.042244489    0.000000    0.000000    0.000000    0.000000  -98.457408   30.279236   -4.207842   22.951265
  0.042444890    0.000000    0.000000    0.000000    0.000000  -97.724887   24.419966   -4.258985   20.928127
  0.042645291    0.000000    0.000000    0.000000    0.000000  -98.847326   31.357239   -4.313257   18.899551
  0.042845691    0.000000    0.000000    0.000000    0.000000  -98.973957   25.257479   -4.366669   16.897341
  0.043046092    0.000000    0.000000    0.000000    0.000000  -99.034421   31.607008   -4.416018   14.880841
  0.043246493    0.000000    0.000000    0.000000    0.000000  -99.085560   27.669838   -4.465494   12.867175
  0.043446894    0.000000    0.000000    0.000000    0.000000  -99.307804   33.776939   -4.512456   10.872182
  0.043647295    0.000000    0.000000    0.000000    0.000000  -99.369522   37.686176   -4.558118    8.865995
  0.043847695    0.000000    0.000000    0.000000    0.000000 -100.096867   35.470127   -4.605241    6.892867
  0.044048096    0.000000    0.000000    0.000000    0.000000 -100.519056   38.775440   -4.651790    4.904420
  0.044248497    0.000000    0.000000    0.000000    0.000000  -99.634338   37.588451   -4.694138    2.935398
  0.044448898    0.000000    0.000000    0.000000    0.000000  -99.779331   30.651180   -4.736912    0.974076
  0.044649299    0.000000    0.000000    0.000000    0.000000  -99.853006   26.920433   -4.779190   -0.990854
  0.044849699    0.000000    0.000000    0.000000    0.000000 -100.494263   32.812237   -4.821446   -2.948363
  0.045050100    0.000000    0.000000    0.000000    0.000000  -99.550571   28.978096   -4.859351   -4.904206
  0.045250501    0.000000    0.000000    0.000000    0.000000  -99.488735   26.489555   -4.903122   -6.854530
  0.045450902    0.000000    0.000000    0.000000    0.000000 -100.335768   32.974731   -4.945487   -8.788281
  0.045651303    0.000000    0.000000    0.000000    0.000000  -98.908295   28.633339   -4.982552  -10.712526
  0.045851703    0.000000    0.000000    0.000000    0.000000  -98.837721   24.266663   -5.020480  -12.616319
  0.046052104    0.000000    0.000000    0.000000    0.000000  -99.710800   38.166637   -5.057996  -14.530829
  0.046252505    0.000000    0.000000    0.000000    0.000000  -99.858878   32.999580   -5.097290  -16.382515
  0.046452906    0.000000    0.000000    0.000000    0.000000  -98.371707   30.026464   -5.134904  -18.254148
  0.046653307    0.000000    0.000000    0.000000    0.000000  -99.288033   26.931599   -5.169169  -20.083895
  0.046853707    0.000000    0.000000    0.000000    0.000000  -98.712794   28.160456   -5.199686  -21.895906
  0.047054108    0.000000    0.000000    0.000000    0.000000  -99.570157   25.770300   -5.225746  -23.729815
  0.047254509    0.000000    0.000000    0.000000    0.000000  -98.432017   30.038311   -5.251890  -25.568661
  0.047454910    0.000000    0.000000    0.000000    0.000000  -99.742419   28.929245   -5.272603  -27.399467
  0.047655311    0.000000    0.000000    0.000000    0.000000  -98.900690   30.154234   -5.295686  -29.228678
  0.047855711    0.000000    0.000000    0.000000    0.000000  -99.228740   35.850075   -5.318230  -31.044525
  0.048056112    0.000000    0.000000    0.000000    0.000000  -99.779578   31.210632   -5.344084  -32.861267
  0.048256513    0.000000    0.000000    0.000000    0.000000 -100.417706   23.847975   -5.368160  -34.672340
  0.048456914    0.000000    0.000000    0.000000    0.000000  -99.243763   32.805996   -5.393293  -36.486938
  0.048657315    0.000000    0.000000    0.000000    0.000000  -99.367438   40.034412   -5.413303  -38.294464
  0.048857715    0.000000    0.000000    0.000000    0.000000  -99.679019   32.648243   -5.436927  -40.086922
  0.049058116    0.000000    0.000000    0.000000    0.000000  -99.557143   27.355614   -5.457065  -41.878685
  0.049258517    0.000000    0.000000    0.000000    0.000000  -99.208119   26.198351   -5.480438  -43.631126
  0.049458918    0.000000    0.000000    0.000000    0.000000  -99.869229   37.432377   -5.501524  -45.376759
  0.049659319    0.000000    0.000000    0.000000    0.000000 -102.448467   38.216488   -5.523710  -47.119797
  0.049859719    0.000000    0.000000    0.000000    0.000000 -100.695401   39.773125   -5.549610  -48.843460
  0.050060120    0.000000    0.000000    0.000000    0.000000  -99.280856   43.103611   -5.571007  -50.547184
  0.050260521    0.000000    0.000000    0.000000    0.000000  -99.311503   29.383743   -5.589649  -52.255417
  0.050460922    0.000000    0.000000    0.000000    0.000000 -101.512312   44.130375   -5.607310  -53.977520
  0.050661323    0.000000    0.000000    0.000000    0.000000 -100.727055   45.044094   -5.626128  -55.643036
  0.050861723    0.000000    0.000000    0.000000    0.000000  -99.056082   39.067513   -5.641443  -57.335140
  0.051062124    0.000000    0.000000    0.000000    0.000000  -98.563628   34.475208   -5.662362  -58.988983
  0.051262525    0.000000    0.000000    0.000000    0.000000  -98.789986   33.583580   -5.681623  -60.629635
  0.051462926    0.000000    0.000000    0.000000    0.000000  -99.772299   26.633068   -5.697327  -62.261875
  0.051663327    0.000000    0.000000    0.000000    0.000000  -99.651606   37.598698   -5.712787  -63.884323
  0.051863727    0.000000    0.000000    0.000000    0.000000  -98.542562   35.901180   -5.731212  -65.494781
  0.052064128    0.000000    0.000000    0.000000    0.000000  -99.368353   31.572956   -5.744674  -67.131317
  0.052264529    0.000000    0.000000    0.000000    0.000000  -98.920061   29.102289   -5.755001  -68.716721
  0.052464930    0.000000    0.000000    0.000000    0.000000  -98.975021   32.817142   -5.770324  -70.298561
  0.052665331    0.000000    0.000000    0.000000    0.000000  -99.346379   39.765064   -5.782133  -71.861053
  0.052865731    0.000000    0.000000    0.000000    0.000000  -99.259323   35.933765   -5.796331  -73.383850
