! Anritsu VNA Master:                     Model: MS2036C/10/77
! SN:                                  1601066
! /card0/usr/18may27.balun/5a..66.s2p
! Existing Calibration Information:
! TYPE:                         Current Settings,       Active Cal Settings
! TIME:             	   05/27/2018 04:52:33 PM,    05/27/2018 04:42:15 PM
! INTERNAL TEMP:    	                   53.3 C,                    52.0 C
! # POINTS:         	                      500,                       500
! START FREQ:       	               20.000 MHz,                20.000 MHz
! STOP FREQ:        	              120.000 MHz,               120.000 MHz
! SOURCE POWER:     	                     High,                      High
! IFBW:             	                    50 Hz,                     50 Hz
! AVG FACTOR:       	                       1 ,                        1 
! REF PLANE 1:      	                     0 mm,                      0 mm
! REF PLANE 2:      	                     0 mm,                      0 mm
! CAL TYPE:         	                 Full S11,                  Full S11
! CAL METHOD:       	                     SOLT,                      SOLT
! CAL LINE TYPE:    	                     Coax,                      Coax
! DUT PORT 1:       	                K-Conn(M),                 K-Conn(M)
! DUT PORT 2:       	                K-Conn(M),                 K-Conn(M)
! CAL STATUS:       	        OK: Accuracy High,                        --
# GHZ S DB R 50.0
! FREQ.GHZ       S11DB        S11A       S21DB        S21A       S12DB        S12A       S22DB        S22A
  0.020000000   -0.030996  -67.785027  -89.957352   37.488220    0.000000    0.000000    0.000000    0.000000
  0.020200401   -0.025969  -68.391754  -90.426829   34.307529    0.000000    0.000000    0.000000    0.000000
  0.020400802   -0.022924  -69.014793  -90.809887   33.339565    0.000000    0.000000    0.000000    0.000000
  0.020601202   -0.018907  -69.606255  -91.183571   29.857168    0.000000    0.000000    0.000000    0.000000
  0.020801603   -0.017191  -70.244728  -90.917229   24.070871    0.000000    0.000000    0.000000    0.000000
  0.021002004   -0.017916  -70.880051  -91.417912   28.534138    0.000000    0.000000    0.000000    0.000000
  0.021202405   -0.019462  -71.497063  -91.908995   27.409794    0.000000    0.000000    0.000000    0.000000
  0.021402806   -0.023181  -72.133652  -91.992158   26.447033    0.000000    0.000000    0.000000    0.000000
  0.021603206   -0.025757  -72.775963  -92.578281   30.663548    0.000000    0.000000    0.000000    0.000000
  0.021803607   -0.031533  -73.408707  -92.876548   27.392990    0.000000    0.000000    0.000000    0.000000
  0.022004008   -0.032385  -74.020370  -93.134640   26.780659    0.000000    0.000000    0.000000    0.000000
  0.022204409   -0.038522  -74.690178  -93.049464   28.948503    0.000000    0.000000    0.000000    0.000000
  0.022404810   -0.038031  -75.355934  -93.108973   29.577309    0.000000    0.000000    0.000000    0.000000
  0.022605210   -0.038811  -76.055588  -92.867097   29.266094    0.000000    0.000000    0.000000    0.000000
  0.022805611   -0.036743  -76.720078  -93.828820   30.364559    0.000000    0.000000    0.000000    0.000000
  0.023006012   -0.029681  -77.379562  -93.891747   34.834053    0.000000    0.000000    0.000000    0.000000
  0.023206413   -0.021765  -78.042709  -93.025194   32.916080    0.000000    0.000000    0.000000    0.000000
  0.023406814   -0.019671  -78.716042  -92.996009   32.966290    0.000000    0.000000    0.000000    0.000000
  0.023607214   -0.016385  -79.350220  -92.956107   32.000549    0.000000    0.000000    0.000000    0.000000
  0.023807615   -0.016816  -79.945915  -93.003447   30.407156    0.000000    0.000000    0.000000    0.000000
  0.024008016   -0.025821  -80.536980  -93.493348   32.431072    0.000000    0.000000    0.000000    0.000000
  0.024208417   -0.030094  -81.097107  -93.188088   29.630077    0.000000    0.000000    0.000000    0.000000
  0.024408818   -0.036220  -81.676483  -93.472905   25.282812    0.000000    0.000000    0.000000    0.000000
  0.024609218   -0.041991  -82.251190  -93.058264   27.932341    0.000000    0.000000    0.000000    0.000000
  0.024809619   -0.044883  -82.858002  -93.927246   19.606115    0.000000    0.000000    0.000000    0.000000
  0.025010020   -0.051221  -83.476135  -93.502784   23.061251    0.000000    0.000000    0.000000    0.000000
  0.025210421   -0.052296  -84.106232  -93.602083   21.046511    0.000000    0.000000    0.000000    0.000000
  0.025410822   -0.053014  -84.748398  -94.693020   19.892464    0.000000    0.000000    0.000000    0.000000
  0.025611222   -0.051672  -85.400917  -93.855535   16.781263    0.000000    0.000000    0.000000    0.000000
  0.025811623   -0.048034  -86.018440  -94.276679   16.347740    0.000000    0.000000    0.000000    0.000000
  0.026012024   -0.044531  -86.623283  -94.739553   18.047926    0.000000    0.000000    0.000000    0.000000
  0.026212425   -0.038991  -87.207634  -94.706880   12.502218    0.000000    0.000000    0.000000    0.000000
  0.026412826   -0.041727  -87.805992  -95.870189   18.391115    0.000000    0.000000    0.000000    0.000000
  0.026613226   -0.045324  -88.390457  -95.331499   18.795832    0.000000    0.000000    0.000000    0.000000
  0.026813627   -0.049004  -88.971733  -96.181560   17.674923    0.000000    0.000000    0.000000    0.000000
  0.027014028   -0.054235  -89.529999  -96.341020   21.269938    0.000000    0.000000    0.000000    0.000000
  0.027214429   -0.063641  -90.109688  -96.089670   19.443256    0.000000    0.000000    0.000000    0.000000
  0.027414830   -0.074032  -90.754440  -96.370583   18.455397    0.000000    0.000000    0.000000    0.000000
  0.027615230   -0.079007  -91.424477  -97.337456   20.777225    0.000000    0.000000    0.000000    0.000000
  0.027815631   -0.080009  -92.114815  -97.000498   20.420952    0.000000    0.000000    0.000000    0.000000
  0.028016032   -0.075365  -92.815681  -96.151729   21.338511    0.000000    0.000000    0.000000    0.000000
  0.028216433   -0.065327  -93.503677  -96.167351   27.725088    0.000000    0.000000    0.000000    0.000000
  0.028416834   -0.055705  -94.188820  -95.768169   23.675734    0.000000    0.000000    0.000000    0.000000
  0.028617234   -0.048197  -94.836853  -95.473475   23.484015    0.000000    0.000000    0.000000    0.000000
  0.028817635   -0.039291  -95.422966  -96.196475   22.671452    0.000000    0.000000    0.000000    0.000000
  0.029018036   -0.032000  -95.981613  -96.180469   22.894215    0.000000    0.000000    0.000000    0.000000
  0.029218437   -0.027861  -96.492386  -95.477634   18.669235    0.000000    0.000000    0.000000    0.000000
  0.029418838   -0.021351  -96.997856  -95.891447   16.338060    0.000000    0.000000    0.000000    0.000000
  0.029619238   -0.022337  -97.487892  -95.860513   14.292607    0.000000    0.000000    0.000000    0.000000
  0.029819639   -0.025488  -97.990295  -96.210600   12.651286    0.000000    0.000000    0.000000    0.000000
  0.030020040   -0.032386  -98.497307  -96.137306   15.452991    0.000000    0.000000    0.000000    0.000000
  0.030220441   -0.043343  -99.057968  -96.569891    7.138365    0.000000    0.000000    0.000000    0.000000
  0.030420842   -0.056661  -99.635887  -96.366238    9.884665    0.000000    0.000000    0.000000    0.000000
  0.030621242   -0.065709 -100.244621  -97.425281    6.803846    0.000000    0.000000    0.000000    0.000000
  0.030821643   -0.067346 -100.879356  -96.714734   12.278299    0.000000    0.000000    0.000000    0.000000
  0.031022044   -0.065932 -101.478119  -97.685624    3.830094    0.000000    0.000000    0.000000    0.000000
  0.031222445   -0.063322 -102.087845  -97.192678   13.605495    0.000000    0.000000    0.000000    0.000000
  0.031422846   -0.063435 -102.662643  -98.323553   12.714729    0.000000    0.000000    0.000000    0.000000
  0.031623246   -0.064413 -103.228477  -97.282599   14.797791    0.000000    0.000000    0.000000    0.000000
  0.031823647   -0.062928 -103.760742  -97.700523    5.531563    0.000000    0.000000    0.000000    0.000000
  0.032024048   -0.066513 -104.263191  -97.123255   15.519279    0.000000    0.000000    0.000000    0.000000
  0.032224449   -0.072960 -104.795753  -98.695765    9.686034    0.000000    0.000000    0.000000    0.000000
  0.032424850   -0.082722 -105.330170  -98.179486    8.894054    0.000000    0.000000    0.000000    0.000000
  0.032625251   -0.094552 -105.902100  -97.249614    9.374888    0.000000    0.000000    0.000000    0.000000
  0.032825651   -0.105010 -106.521149  -96.851010   16.717730    0.000000    0.000000    0.000000    0.000000
  0.033026052   -0.110438 -107.138718  -98.648833   16.395983    0.000000    0.000000    0.000000    0.000000
  0.033226453   -0.112022 -107.799934  -98.547993   12.948182    0.000000    0.000000    0.000000    0.000000
  0.033426854   -0.112889 -108.438286  -98.351994   14.799883    0.000000    0.000000    0.000000    0.000000
  0.033627255   -0.114028 -109.092491  -99.137781    5.427228    0.000000    0.000000    0.000000    0.000000
  0.033827655   -0.111670 -109.769791  -97.101131   10.297029    0.000000    0.000000    0.000000    0.000000
  0.034028056   -0.107691 -110.395676  -97.646434    4.948942    0.000000    0.000000    0.000000    0.000000
  0.034228457   -0.100349 -111.008537  -98.027641   11.982932    0.000000    0.000000    0.000000    0.000000
  0.034428858   -0.087105 -111.592453  -98.124956    8.240982    0.000000    0.000000    0.000000    0.000000
  0.034629259   -0.079875 -112.134621  -97.755976   14.851633    0.000000    0.000000    0.000000    0.000000
  0.034829659   -0.070354 -112.645737  -97.794364    5.837921    0.000000    0.000000    0.000000    0.000000
  0.035030060   -0.066143 -113.153748  -98.100088   13.656145    0.000000    0.000000    0.000000    0.000000
  0.035230461   -0.061660 -113.644585  -99.219028    8.134805    0.000000    0.000000    0.000000    0.000000
  0.035430862   -0.064010 -114.147156  -98.616291    7.769717    0.000000    0.000000    0.000000    0.000000
  0.035631263   -0.067825 -114.651390  -98.285677    2.958060    0.000000    0.000000    0.000000    0.000000
  0.035831663   -0.079213 -115.164352 -100.402405    4.123313    0.000000    0.000000    0.000000    0.000000
  0.036032064   -0.086962 -115.731148  -99.221699    6.665256    0.000000    0.000000    0.000000    0.000000
  0.036232465   -0.095998 -116.324280  -99.279901    3.269122    0.000000    0.000000    0.000000    0.000000
  0.036432866   -0.101322 -116.932922  -99.714071    4.535662    0.000000    0.000000    0.000000    0.000000
  0.036633267   -0.102925 -117.535149 -101.076251    3.288912    0.000000    0.000000    0.000000    0.000000
  0.036833667   -0.102049 -118.128105 -100.202714    6.997633    0.000000    0.000000    0.000000    0.000000
  0.037034068   -0.092298 -118.655807 -100.328878   11.501197    0.000000    0.000000    0.000000    0.000000
  0.037234469   -0.083196 -119.157394  -98.651280   11.978384    0.000000    0.000000    0.000000    0.000000
  0.037434870   -0.080905 -119.601707 -100.164834    9.843448    0.000000    0.000000    0.000000    0.000000
  0.037635271   -0.081936 -120.064301  -99.466813   16.441339    0.000000    0.000000    0.000000    0.000000
  0.037835671   -0.091707 -120.546394  -99.210931   11.934060    0.000000    0.000000    0.000000    0.000000
  0.038036072   -0.099172 -121.072304  -98.848421    9.347420    0.000000    0.000000    0.000000    0.000000
  0.038236473   -0.108405 -121.609070  -98.884430   11.948984    0.000000    0.000000    0.000000    0.000000
  0.038436874   -0.114550 -122.144806  -99.172966    8.229526    0.000000    0.000000    0.000000    0.000000
  0.038637275   -0.122747 -122.685196  -99.003797   11.741708    0.000000    0.000000    0.000000    0.000000
  0.038837675   -0.130508 -123.237236  -99.313916    8.261955    0.000000    0.000000    0.000000    0.000000
  0.039038076   -0.137995 -123.817345 -100.184302    6.381471    0.000000    0.000000    0.000000    0.000000
  0.039238477   -0.142738 -124.418251  -99.233799   11.008960    0.000000    0.000000    0.000000    0.000000
  0.039438878   -0.143679 -124.977997 -100.669670   -0.465407    0.000000    0.000000    0.000000    0.000000
  0.039639279   -0.140016 -125.543411  -99.351225   -1.487912    0.000000    0.000000    0.000000    0.000000
  0.039839679   -0.135603 -126.083557  -99.452299    0.407125    0.000000    0.000000    0.000000    0.000000
  0.040040080   -0.125677 -126.605560 -100.258375    0.978771    0.000000    0.000000    0.000000    0.000000
  0.040240481   -0.124899 -127.119080 -100.045131    6.607335    0.000000    0.000000    0.000000    0.000000
  0.040440882   -0.121631 -127.655045 -101.341373    8.380204    0.000000    0.000000    0.000000    0.000000
  0.040641283   -0.116026 -128.176163 -102.284222   -6.497335    0.000000    0.000000    0.000000    0.000000
  0.040841683   -0.114872 -128.695084 -101.592179   14.364292    0.000000    0.000000    0.000000    0.000000
  0.041042084   -0.120082 -129.210892 -102.548377   23.044863    0.000000    0.000000    0.000000    0.000000
  0.041242485   -0.124227 -129.717453 -102.347089   -2.213939    0.000000    0.000000    0.000000    0.000000
  0.041442886   -0.136369 -130.247406 -103.405976   10.574994    0.000000    0.000000    0.000000    0.000000
  0.041643287   -0.143292 -130.845901 -100.816856   -3.122880    0.000000    0.000000    0.000000    0.000000
  0.041843687   -0.144877 -131.456039 -102.121699   13.941754    0.000000    0.000000    0.000000    0.000000
  0.042044088   -0.142822 -132.069870 -102.014497   13.809978    0.000000    0.000000    0.000000    0.000000
  0.042244489   -0.131600 -132.642136 -101.937453   29.234436    0.000000    0.000000    0.000000    0.000000
  0.042444890   -0.116772 -133.167923 -102.261644   10.607193    0.000000    0.000000    0.000000    0.000000
  0.042645291   -0.108827 -133.666534  -99.759858   14.310457    0.000000    0.000000    0.000000    0.000000
  0.042845691   -0.107504 -134.127335 -100.675992    4.719671    0.000000    0.000000    0.000000    0.000000
  0.043046092   -0.108056 -134.617020 -102.632048    9.992589    0.000000    0.000000    0.000000    0.000000
  0.043246493   -0.112931 -135.107758 -100.579337   13.786342    0.000000    0.000000    0.000000    0.000000
  0.043446894   -0.115916 -135.601318 -100.450074   10.103664    0.000000    0.000000    0.000000    0.000000
  0.043647295   -0.120232 -136.046432 -100.695033   10.680943    0.000000    0.000000    0.000000    0.000000
  0.043847695   -0.125606 -136.536041 -100.959399    1.098873    0.000000    0.000000    0.000000    0.000000
  0.044048096   -0.134030 -136.994370 -100.074784    3.852375    0.000000    0.000000    0.000000    0.000000
  0.044248497   -0.139866 -137.489288 -101.812443    0.084714    0.000000    0.000000    0.000000    0.000000
  0.044448898   -0.146701 -137.969971 -100.537958    2.871641    0.000000    0.000000    0.000000    0.000000
  0.044649299   -0.150678 -138.461105 -102.020207   -0.978204    0.000000    0.000000    0.000000    0.000000
  0.044849699   -0.151489 -138.918747 -101.956793  -10.553824    0.000000    0.000000    0.000000    0.000000
  0.045050100   -0.153331 -139.392700 -100.887319   -8.383664    0.000000    0.000000    0.000000    0.000000
  0.045250501   -0.155924 -139.850174 -102.041166  -14.329648    0.000000    0.000000    0.000000    0.000000
  0.045450902   -0.159405 -140.321457 -105.244595   -7.966777    0.000000    0.000000    0.000000    0.000000
  0.045651303   -0.164694 -140.829468 -105.146896    1.044988    0.000000    0.000000    0.000000    0.000000
  0.045851703   -0.163625 -141.335190 -105.577197   -3.325485    0.000000    0.000000    0.000000    0.000000
  0.046052104   -0.164129 -141.812012 -103.170797   -1.900592    0.000000    0.000000    0.000000    0.000000
  0.046252505   -0.165418 -142.299255 -105.279687   11.094907    0.000000    0.000000    0.000000    0.000000
  0.046452906   -0.171576 -142.780365 -104.520021    1.840935    0.000000    0.000000    0.000000    0.000000
  0.046653307   -0.180256 -143.257935 -103.254876    9.389074    0.000000    0.000000    0.000000    0.000000
  0.046853707   -0.189564 -143.823334 -103.169265   11.698413    0.000000    0.000000    0.000000    0.000000
  0.047054108   -0.194188 -144.385574 -102.016758    9.465102    0.000000    0.000000    0.000000    0.000000
  0.047254509   -0.192609 -144.988022 -102.106023    8.346044    0.000000    0.000000    0.000000    0.000000
  0.047454910   -0.183826 -145.574371 -100.397714   17.097662    0.000000    0.000000    0.000000    0.000000
  0.047655311   -0.174499 -146.120056 -100.713639    8.295163    0.000000    0.000000    0.000000    0.000000
  0.047855711   -0.169330 -146.650528 -101.499071   11.740715    0.000000    0.000000    0.000000    0.000000
  0.048056112   -0.163928 -147.184540 -101.921647    0.405283    0.000000    0.000000    0.000000    0.000000
  0.048256513   -0.163027 -147.699341 -100.419461    8.755744    0.000000    0.000000    0.000000    0.000000
  0.048456914   -0.159337 -148.225693 -102.280017    2.287518    0.000000    0.000000    0.000000    0.000000
  0.048657315   -0.157344 -148.712616 -100.784438    8.652493    0.000000    0.000000    0.000000    0.000000
  0.048857715   -0.158060 -149.198120 -101.614612   15.140026    0.000000    0.000000    0.000000    0.000000
  0.049058116   -0.159785 -149.652283 -101.778872   -6.215118    0.000000    0.000000    0.000000    0.000000
  0.049258517   -0.162775 -150.129150 -101.230637   -0.907756    0.000000    0.000000    0.000000    0.000000
  0.049458918   -0.164576 -150.604889 -101.773533   -9.624632    0.000000    0.000000    0.000000    0.000000
  0.049659319   -0.164342 -151.071869 -102.184749   -1.084292    0.000000    0.000000    0.000000    0.000000
  0.049859719   -0.164445 -151.506195 -104.939246   -7.952154    0.000000    0.000000    0.000000    0.000000
  0.050060120   -0.165568 -151.936172 -105.278576  -12.687655    0.000000    0.000000    0.000000    0.000000
  0.050260521   -0.170124 -152.332336 -102.797484    3.037147    0.000000    0.000000    0.000000    0.000000
  0.050460922   -0.172945 -152.747330 -103.824152   -4.360193    0.000000    0.000000    0.000000    0.000000
  0.050661323   -0.176229 -153.175674 -105.780471    7.302977    0.000000    0.000000    0.000000    0.000000
  0.050861723   -0.178851 -153.616348 -106.266151  -11.357265    0.000000    0.000000    0.000000    0.000000
  0.051062124   -0.179139 -154.045532 -105.314590    5.447651    0.000000    0.000000    0.000000    0.000000
  0.051262525   -0.180879 -154.475998 -108.145839    4.285593    0.000000    0.000000    0.000000    0.000000
  0.051462926   -0.184832 -154.891403 -107.356514   31.018488    0.000000    0.000000    0.000000    0.000000
  0.051663327   -0.191502 -155.307281 -105.020287   20.565142    0.000000    0.000000    0.000000    0.000000
  0.051863727   -0.201938 -155.746857 -106.720249   10.916286    0.000000    0.000000    0.000000    0.000000
  0.052064128   -0.206932 -156.204605 -102.789822   15.926481    0.000000    0.000000    0.000000    0.000000
  0.052264529   -0.216268 -156.705414 -104.397040   25.419250    0.000000    0.000000    0.000000    0.000000
  0.052464930   -0.218039 -157.227478 -103.195648   12.637077    0.000000    0.000000    0.000000    0.000000
  0.052665331   -0.219093 -157.762314 -101.121444   16.862034    0.000000    0.000000    0.000000    0.000000
  0.052865731   -0.215413 -158.272675 -101.805436   19.885237    0.000000    0.000000    0.000000    0.000000
