! Anritsu VNA Master:                     Model: MS2036C/10/77
! SN:                                  1601066
! /card0/usr/18may27.balun/5a..r200.s2p
! Existing Calibration Information:
! TYPE:                         Current Settings,       Active Cal Settings
! TIME:             	   05/27/2018 04:59:43 PM,    05/27/2018 04:42:15 PM
! INTERNAL TEMP:    	                   53.5 C,                    52.0 C
! # POINTS:         	                      500,                       500
! START FREQ:       	               20.000 MHz,                20.000 MHz
! STOP FREQ:        	              120.000 MHz,               120.000 MHz
! SOURCE POWER:     	                     High,                      High
! IFBW:             	                    50 Hz,                     50 Hz
! AVG FACTOR:       	                       1 ,                        1 
! REF PLANE 1:      	                     0 mm,                      0 mm
! REF PLANE 2:      	                     0 mm,                      0 mm
! CAL TYPE:         	                 Full S11,                  Full S11
! CAL METHOD:       	                     SOLT,                      SOLT
! CAL LINE TYPE:    	                     Coax,                      Coax
! DUT PORT 1:       	                K-Conn(M),                 K-Conn(M)
! DUT PORT 2:       	                K-Conn(M),                 K-Conn(M)
! CAL STATUS:       	        OK: Accuracy High,                        --
# GHZ S DB R 50.0
! FREQ.GHZ       S11DB        S11A       S21DB        S21A       S12DB        S12A       S22DB        S22A
  0.020000000   -4.550451  -22.109434  -90.686605   36.809189    0.000000    0.000000    0.000000    0.000000
  0.020200401   -4.543944  -22.296236  -90.848103   39.380795    0.000000    0.000000    0.000000    0.000000
  0.020400802   -4.542245  -22.489637  -90.687755   34.496193    0.000000    0.000000    0.000000    0.000000
  0.020601202   -4.536898  -22.671083  -90.709180   34.922520    0.000000    0.000000    0.000000    0.000000
  0.020801603   -4.535203  -22.865208  -91.332839   31.731453    0.000000    0.000000    0.000000    0.000000
  0.021002004   -4.535224  -23.055746  -91.547016   33.784641    0.000000    0.000000    0.000000    0.000000
  0.021202405   -4.536562  -23.265215  -91.260974   35.064220    0.000000    0.000000    0.000000    0.000000
  0.021402806   -4.537310  -23.439482  -91.698989   31.985321    0.000000    0.000000    0.000000    0.000000
  0.021603206   -4.539115  -23.641733  -92.094610   27.970388    0.000000    0.000000    0.000000    0.000000
  0.021803607   -4.543975  -23.815454  -92.019650   26.389812    0.000000    0.000000    0.000000    0.000000
  0.022004008   -4.546098  -23.998602  -92.976658   27.596783    0.000000    0.000000    0.000000    0.000000
  0.022204409   -4.551230  -24.209049  -93.225348   28.249611    0.000000    0.000000    0.000000    0.000000
  0.022404810   -4.551118  -24.427547  -93.651495   26.661552    0.000000    0.000000    0.000000    0.000000
  0.022605210   -4.555858  -24.658018  -93.420774   30.707373    0.000000    0.000000    0.000000    0.000000
  0.022805611   -4.562188  -24.894993  -93.742194   33.089939    0.000000    0.000000    0.000000    0.000000
  0.023006012   -4.565783  -25.140453  -93.442348   29.641733    0.000000    0.000000    0.000000    0.000000
  0.023206413   -4.563299  -25.382498  -93.325608   25.322372    0.000000    0.000000    0.000000    0.000000
  0.023406814   -4.565759  -25.642792  -93.144521   31.295525    0.000000    0.000000    0.000000    0.000000
  0.023607214   -4.560705  -25.905470  -93.971373   30.298737    0.000000    0.000000    0.000000    0.000000
  0.023807615   -4.560188  -26.170830  -94.236146   30.509653    0.000000    0.000000    0.000000    0.000000
  0.024008016   -4.563647  -26.427078  -93.425103   32.537254    0.000000    0.000000    0.000000    0.000000
  0.024208417   -4.562497  -26.662321  -94.042898   30.831367    0.000000    0.000000    0.000000    0.000000
  0.024408818   -4.565733  -26.905167  -94.200146   22.898357    0.000000    0.000000    0.000000    0.000000
  0.024609218   -4.565948  -27.103657  -93.574248   25.725630    0.000000    0.000000    0.000000    0.000000
  0.024809619   -4.565101  -27.345247  -93.392820   27.168987    0.000000    0.000000    0.000000    0.000000
  0.025010020   -4.567461  -27.567533  -93.691756   26.098719    0.000000    0.000000    0.000000    0.000000
  0.025210421   -4.568414  -27.796568  -93.517384   20.814032    0.000000    0.000000    0.000000    0.000000
  0.025410822   -4.568148  -28.033274  -94.309589   22.955654    0.000000    0.000000    0.000000    0.000000
  0.025611222   -4.565245  -28.271816  -93.918791   20.364895    0.000000    0.000000    0.000000    0.000000
  0.025811623   -4.564549  -28.507164  -94.861941   17.579710    0.000000    0.000000    0.000000    0.000000
  0.026012024   -4.567153  -28.714706  -95.181344   24.220154    0.000000    0.000000    0.000000    0.000000
  0.026212425   -4.563004  -28.958513  -93.721415   17.345596    0.000000    0.000000    0.000000    0.000000
  0.026412826   -4.563371  -29.196993  -95.382455   13.754377    0.000000    0.000000    0.000000    0.000000
  0.026613226   -4.560041  -29.404394  -94.824075   19.085983    0.000000    0.000000    0.000000    0.000000
  0.026813627   -4.554980  -29.607685  -95.260552   20.407984    0.000000    0.000000    0.000000    0.000000
  0.027014028   -4.552586  -29.779177  -95.619653   18.236303    0.000000    0.000000    0.000000    0.000000
  0.027214429   -4.557871  -29.938936  -96.296439   16.502472    0.000000    0.000000    0.000000    0.000000
  0.027414830   -4.560150  -30.110144  -95.836926   20.085705    0.000000    0.000000    0.000000    0.000000
  0.027615230   -4.563596  -30.297350  -96.239661   18.491581    0.000000    0.000000    0.000000    0.000000
  0.027815631   -4.570870  -30.509035  -96.026070   17.004807    0.000000    0.000000    0.000000    0.000000
  0.028016032   -4.579790  -30.761177  -96.295872   18.464222    0.000000    0.000000    0.000000    0.000000
  0.028216433   -4.581133  -31.020571  -95.914472   12.005176    0.000000    0.000000    0.000000    0.000000
  0.028416834   -4.581945  -31.295444  -95.835828   19.107515    0.000000    0.000000    0.000000    0.000000
  0.028617234   -4.578524  -31.578621  -95.868471   18.005999    0.000000    0.000000    0.000000    0.000000
  0.028817635   -4.575918  -31.846813  -96.681362   20.548256    0.000000    0.000000    0.000000    0.000000
  0.029018036   -4.575701  -32.106724  -96.596576   25.285791    0.000000    0.000000    0.000000    0.000000
  0.029218437   -4.571080  -32.352058  -96.321968   26.201775    0.000000    0.000000    0.000000    0.000000
  0.029418838   -4.564517  -32.584423  -96.670973   23.486565    0.000000    0.000000    0.000000    0.000000
  0.029619238   -4.562877  -32.787708  -96.736745   21.102699    0.000000    0.000000    0.000000    0.000000
  0.029819639   -4.557784  -32.977398  -96.720692   14.174054    0.000000    0.000000    0.000000    0.000000
  0.030020040   -4.552579  -33.153263  -96.324985   20.537228    0.000000    0.000000    0.000000    0.000000
  0.030220441   -4.554283  -33.366421  -96.303767   13.202978    0.000000    0.000000    0.000000    0.000000
  0.030420842   -4.556491  -33.583439  -96.865767   13.926296    0.000000    0.000000    0.000000    0.000000
  0.030621242   -4.558129  -33.817127  -96.711632   16.490057    0.000000    0.000000    0.000000    0.000000
  0.030821643   -4.557657  -34.046227  -96.967218   14.372921    0.000000    0.000000    0.000000    0.000000
  0.031022044   -4.559392  -34.277523  -97.549152   17.763248    0.000000    0.000000    0.000000    0.000000
  0.031222445   -4.552112  -34.463654  -97.592010   13.995718    0.000000    0.000000    0.000000    0.000000
  0.031422846   -4.559079  -34.710289  -97.095584    7.836953    0.000000    0.000000    0.000000    0.000000
  0.031623246   -4.563164  -34.944633  -97.560728    6.277647    0.000000    0.000000    0.000000    0.000000
  0.031823647   -4.562407  -35.172531  -97.356091    8.556197    0.000000    0.000000    0.000000    0.000000
  0.032024048   -4.561676  -35.366089  -98.148732    7.497995    0.000000    0.000000    0.000000    0.000000
  0.032224449   -4.561171  -35.593903  -98.426217   13.651202    0.000000    0.000000    0.000000    0.000000
  0.032424850   -4.555799  -35.786163  -96.989798   11.800380    0.000000    0.000000    0.000000    0.000000
  0.032625251   -4.551961  -35.971764  -98.330142   -3.367701    0.000000    0.000000    0.000000    0.000000
  0.032825651   -4.552933  -36.145931  -99.017969   19.702152    0.000000    0.000000    0.000000    0.000000
  0.033026052   -4.556810  -36.291721  -98.140234   12.113636    0.000000    0.000000    0.000000    0.000000
  0.033226453   -4.562619  -36.458527  -98.898426   14.893347    0.000000    0.000000    0.000000    0.000000
  0.033426854   -4.570870  -36.664211  -98.195771   19.555307    0.000000    0.000000    0.000000    0.000000
  0.033627255   -4.577727  -36.902626  -99.978293    4.474327    0.000000    0.000000    0.000000    0.000000
  0.033827655   -4.583004  -37.185902  -97.595097    9.990600    0.000000    0.000000    0.000000    0.000000
  0.034028056   -4.591441  -37.449936  -98.929828    9.899002    0.000000    0.000000    0.000000    0.000000
  0.034228457   -4.594495  -37.723099  -99.029982   13.725893    0.000000    0.000000    0.000000    0.000000
  0.034428858   -4.591082  -37.993496  -98.489355    9.055008    0.000000    0.000000    0.000000    0.000000
  0.034629259   -4.592361  -38.245258  -98.757563    9.082794    0.000000    0.000000    0.000000    0.000000
  0.034829659   -4.587677  -38.520462  -97.594522   17.964483    0.000000    0.000000    0.000000    0.000000
  0.035030060   -4.580175  -38.789436  -97.974582   15.437747    0.000000    0.000000    0.000000    0.000000
  0.035230461   -4.572550  -39.017563  -98.871211    7.771357    0.000000    0.000000    0.000000    0.000000
  0.035430862   -4.568904  -39.236763  -98.234124   11.425606    0.000000    0.000000    0.000000    0.000000
  0.035631263   -4.564569  -39.445194  -97.717728    3.006215    0.000000    0.000000    0.000000    0.000000
  0.035831663   -4.567710  -39.633091  -99.105694   10.493449    0.000000    0.000000    0.000000    0.000000
  0.036032064   -4.569070  -39.860962  -99.067298    3.467791    0.000000    0.000000    0.000000    0.000000
  0.036232465   -4.572436  -40.107647 -100.508928    2.985462    0.000000    0.000000    0.000000    0.000000
  0.036432866   -4.573722  -40.365662  -99.401529   -0.064703    0.000000    0.000000    0.000000    0.000000
  0.036633267   -4.577132  -40.614124 -100.105773   -0.409733    0.000000    0.000000    0.000000    0.000000
  0.036833667   -4.579004  -40.872517  -99.441503   13.184879    0.000000    0.000000    0.000000    0.000000
  0.037034068   -4.581769  -41.102119  -99.749796    8.875730    0.000000    0.000000    0.000000    0.000000
  0.037234469   -4.581118  -41.326160  -98.971668   -2.594813    0.000000    0.000000    0.000000    0.000000
  0.037434870   -4.579222  -41.557556 -101.263712    9.213829    0.000000    0.000000    0.000000    0.000000
  0.037635271   -4.574620  -41.777630  -99.827837    1.845035    0.000000    0.000000    0.000000    0.000000
  0.037835671   -4.572178  -42.025795 -100.574089   17.994526    0.000000    0.000000    0.000000    0.000000
  0.038036072   -4.563974  -42.251637  -98.403543    1.540092    0.000000    0.000000    0.000000    0.000000
  0.038236473   -4.557928  -42.443211 -100.087066   19.119825    0.000000    0.000000    0.000000    0.000000
  0.038436874   -4.553810  -42.584446 -100.593504   17.655479    0.000000    0.000000    0.000000    0.000000
  0.038637275   -4.558662  -42.728729 -100.526009   12.194894    0.000000    0.000000    0.000000    0.000000
  0.038837675   -4.563967  -42.900200 -100.623735    8.896317    0.000000    0.000000    0.000000    0.000000
  0.039038076   -4.574212  -43.098976 -100.859957    9.266632    0.000000    0.000000    0.000000    0.000000
  0.039238477   -4.582790  -43.327930 -100.301449   12.779292    0.000000    0.000000    0.000000    0.000000
  0.039438878   -4.590915  -43.563095  -98.946612    7.948570    0.000000    0.000000    0.000000    0.000000
  0.039639279   -4.597130  -43.783188  -98.822997    6.422956    0.000000    0.000000    0.000000    0.000000
  0.039839679   -4.599678  -44.029041  -99.526886    6.340875    0.000000    0.000000    0.000000    0.000000
  0.040040080   -4.596173  -44.280895  -98.850725    7.462462    0.000000    0.000000    0.000000    0.000000
  0.040240481   -4.594498  -44.510841 -100.816840    2.129105    0.000000    0.000000    0.000000    0.000000
  0.040440882   -4.589157  -44.751446  -99.833710   11.948375    0.000000    0.000000    0.000000    0.000000
  0.040641283   -4.581552  -44.949123 -100.546519    1.899968    0.000000    0.000000    0.000000    0.000000
  0.040841683   -4.577339  -45.127914 -100.437860   -1.057837    0.000000    0.000000    0.000000    0.000000
  0.041042084   -4.581673  -45.302647 -100.978408   -3.482783    0.000000    0.000000    0.000000    0.000000
  0.041242485   -4.581396  -45.488148 -100.983941    3.892001    0.000000    0.000000    0.000000    0.000000
  0.041442886   -4.588955  -45.677689 -101.439057    4.332609    0.000000    0.000000    0.000000    0.000000
  0.041643287   -4.595928  -45.927620 -100.964768   -9.792985    0.000000    0.000000    0.000000    0.000000
  0.041843687   -4.598197  -46.149399 -102.634799   10.225402    0.000000    0.000000    0.000000    0.000000
  0.042044088   -4.606735  -46.424648 -105.009269   -6.965106    0.000000    0.000000    0.000000    0.000000
  0.042244489   -4.607788  -46.665176 -103.458664   -3.598602    0.000000    0.000000    0.000000    0.000000
  0.042444890   -4.611809  -46.920921 -101.720312   -4.482448    0.000000    0.000000    0.000000    0.000000
  0.042645291   -4.613415  -47.172272 -102.097881   -4.514876    0.000000    0.000000    0.000000    0.000000
  0.042845691   -4.615120  -47.437714 -101.005282    5.215098    0.000000    0.000000    0.000000    0.000000
  0.043046092   -4.611148  -47.736717 -104.999308    9.682431    0.000000    0.000000    0.000000    0.000000
  0.043246493   -4.609234  -48.028522 -102.193690   13.801254    0.000000    0.000000    0.000000    0.000000
  0.043446894   -4.599245  -48.321594 -101.296106    5.799421    0.000000    0.000000    0.000000    0.000000
  0.043647295   -4.592825  -48.522854  -99.829208   10.967607    0.000000    0.000000    0.000000    0.000000
  0.043847695   -4.592496  -48.760361 -101.314632    1.466423    0.000000    0.000000    0.000000    0.000000
  0.044048096   -4.591342  -48.948006 -102.117831    3.337739    0.000000    0.000000    0.000000    0.000000
  0.044248497   -4.594805  -49.167206 -101.268907    5.094414    0.000000    0.000000    0.000000    0.000000
  0.044448898   -4.597577  -49.380295 -100.882794   10.010137    0.000000    0.000000    0.000000    0.000000
  0.044649299   -4.604301  -49.662529 -100.326486    3.969626    0.000000    0.000000    0.000000    0.000000
  0.044849699   -4.602982  -49.901134 -100.144639   14.897079    0.000000    0.000000    0.000000    0.000000
  0.045050100   -4.603556  -50.168732  -99.954939   10.963800    0.000000    0.000000    0.000000    0.000000
  0.045250501   -4.604148  -50.410969 -101.796438    8.190269    0.000000    0.000000    0.000000    0.000000
  0.045450902   -4.602774  -50.644032 -100.133583    3.679796    0.000000    0.000000    0.000000    0.000000
  0.045651303   -4.598769  -50.893867 -103.322521   -7.083664    0.000000    0.000000    0.000000    0.000000
  0.045851703   -4.588846  -51.111389 -101.469880   -1.224689    0.000000    0.000000    0.000000    0.000000
  0.046052104   -4.579834  -51.297256 -101.621912   -1.507234    0.000000    0.000000    0.000000    0.000000
  0.046252505   -4.575474  -51.437401 -100.546745   -3.161307    0.000000    0.000000    0.000000    0.000000
  0.046452906   -4.573991  -51.601589 -101.656804    5.249573    0.000000    0.000000    0.000000    0.000000
  0.046653307   -4.573333  -51.709160 -102.626114   -2.356165    0.000000    0.000000    0.000000    0.000000
  0.046853707   -4.580337  -51.885704 -101.920051    4.412688    0.000000    0.000000    0.000000    0.000000
  0.047054108   -4.585289  -52.059254 -103.141369    6.969541    0.000000    0.000000    0.000000    0.000000
  0.047254509   -4.587934  -52.229889 -104.391547    3.235248    0.000000    0.000000    0.000000    0.000000
  0.047454910   -4.594506  -52.404472 -103.330343    2.151943    0.000000    0.000000    0.000000    0.000000
  0.047655311   -4.600759  -52.605904 -104.027226    8.721395    0.000000    0.000000    0.000000    0.000000
  0.047855711   -4.607379  -52.799149 -104.664744   -1.140598    0.000000    0.000000    0.000000    0.000000
  0.048056112   -4.614762  -53.037121 -102.194589   19.247116    0.000000    0.000000    0.000000    0.000000
  0.048256513   -4.616930  -53.273552 -103.157534   19.630867    0.000000    0.000000    0.000000    0.000000
  0.048456914   -4.619400  -53.557262 -103.620939   13.093531    0.000000    0.000000    0.000000    0.000000
  0.048657315   -4.617586  -53.809181 -102.011339   -1.744996    0.000000    0.000000    0.000000    0.000000
  0.048857715   -4.620112  -54.076771 -102.238577   29.221195    0.000000    0.000000    0.000000    0.000000
  0.049058116   -4.620145  -54.312794 -102.701461   14.721040    0.000000    0.000000    0.000000    0.000000
  0.049258517   -4.623235  -54.551250  -99.910969   -0.133730    0.000000    0.000000    0.000000    0.000000
  0.049458918   -4.627409  -54.803116  -99.996119   -2.441118    0.000000    0.000000    0.000000    0.000000
  0.049659319   -4.632195  -55.084045 -102.138448   17.395596    0.000000    0.000000    0.000000    0.000000
  0.049859719   -4.639963  -55.358936 -101.224112    6.776771    0.000000    0.000000    0.000000    0.000000
  0.050060120   -4.646448  -55.648235 -100.759871   -0.508494    0.000000    0.000000    0.000000    0.000000
  0.050260521   -4.648069  -55.971428 -101.401537   -4.827176    0.000000    0.000000    0.000000    0.000000
  0.050460922   -4.648369  -56.257446 -102.294919   -0.781499    0.000000    0.000000    0.000000    0.000000
  0.050661323   -4.646629  -56.581905 -102.062522    0.889945    0.000000    0.000000    0.000000    0.000000
  0.050861723   -4.639200  -56.907314 -101.514966   -5.541605    0.000000    0.000000    0.000000    0.000000
  0.051062124   -4.628423  -57.188423 -106.062480   -4.761064    0.000000    0.000000    0.000000    0.000000
  0.051262525   -4.617018  -57.436073 -102.797661    0.302509    0.000000    0.000000    0.000000    0.000000
  0.051462926   -4.604382  -57.653027 -103.778004   -1.643830    0.000000    0.000000    0.000000    0.000000
  0.051663327   -4.599598  -57.830959 -101.756276   -0.066084    0.000000    0.000000    0.000000    0.000000
  0.051863727   -4.594725  -58.001625 -106.885317   10.771119    0.000000    0.000000    0.000000    0.000000
  0.052064128   -4.589388  -58.146233 -105.751446   14.375180    0.000000    0.000000    0.000000    0.000000
  0.052264529   -4.591090  -58.323895 -107.200130    8.621338    0.000000    0.000000    0.000000    0.000000
  0.052464930   -4.587550  -58.479744 -103.071382  -11.649553    0.000000    0.000000    0.000000    0.000000
  0.052665331   -4.587011  -58.632248 -104.819412    4.548539    0.000000    0.000000    0.000000    0.000000
  0.052865731   -4.590447  -58.754040 -103.189824    1.560709    0.000000    0.000000    0.000000    0.000000
