! Anritsu VNA Master:                     Model: MS2036C/10/77
! SN:                                  1601066
! /card0/usr/18may27.balun/5a..r20.s2p
! Existing Calibration Information:
! TYPE:                         Current Settings,       Active Cal Settings
! TIME:             	   05/27/2018 04:54:47 PM,    05/27/2018 04:42:15 PM
! INTERNAL TEMP:    	                   53.3 C,                    52.0 C
! # POINTS:         	                      500,                       500
! START FREQ:       	               20.000 MHz,                20.000 MHz
! STOP FREQ:        	              120.000 MHz,               120.000 MHz
! SOURCE POWER:     	                     High,                      High
! IFBW:             	                    50 Hz,                     50 Hz
! AVG FACTOR:       	                       1 ,                        1 
! REF PLANE 1:      	                     0 mm,                      0 mm
! REF PLANE 2:      	                     0 mm,                      0 mm
! CAL TYPE:         	                 Full S11,                  Full S11
! CAL METHOD:       	                     SOLT,                      SOLT
! CAL LINE TYPE:    	                     Coax,                      Coax
! DUT PORT 1:       	                K-Conn(M),                 K-Conn(M)
! DUT PORT 2:       	                K-Conn(M),                 K-Conn(M)
! CAL STATUS:       	        OK: Accuracy High,                        --
# GHZ S DB R 50.0
! FREQ.GHZ       S11DB        S11A       S21DB        S21A       S12DB        S12A       S22DB        S22A
  0.020000000   -7.307244  154.984573  -91.462535   32.348961    0.000000    0.000000    0.000000    0.000000
  0.020200401   -7.314275  154.709885  -92.132053   34.149143    0.000000    0.000000    0.000000    0.000000
  0.020400802   -7.311602  154.438965  -91.613642   36.971306    0.000000    0.000000    0.000000    0.000000
  0.020601202   -7.311616  154.132431  -91.995059   36.385868    0.000000    0.000000    0.000000    0.000000
  0.020801603   -7.308794  153.860779  -91.707716   37.088814    0.000000    0.000000    0.000000    0.000000
  0.021002004   -7.304202  153.586624  -92.033399   36.405113    0.000000    0.000000    0.000000    0.000000
  0.021202405   -7.302646  153.288071  -92.450006   37.623226    0.000000    0.000000    0.000000    0.000000
  0.021402806   -7.303071  153.014801  -92.305212   37.079784    0.000000    0.000000    0.000000    0.000000
  0.021603206   -7.302367  152.785019  -91.696772   33.639114    0.000000    0.000000    0.000000    0.000000
  0.021803607   -7.302581  152.518890  -92.000590   31.951147    0.000000    0.000000    0.000000    0.000000
  0.022004008   -7.304044  152.271606  -92.494061   36.555531    0.000000    0.000000    0.000000    0.000000
  0.022204409   -7.297992  152.059494  -91.941438   32.133629    0.000000    0.000000    0.000000    0.000000
  0.022404810   -7.294296  151.821320  -92.422708   31.652794    0.000000    0.000000    0.000000    0.000000
  0.022605210   -7.288018  151.571548  -92.124833   34.192913    0.000000    0.000000    0.000000    0.000000
  0.022805611   -7.287766  151.336533  -92.825371   28.794134    0.000000    0.000000    0.000000    0.000000
  0.023006012   -7.284128  151.131943  -92.307844   33.257267    0.000000    0.000000    0.000000    0.000000
  0.023206413   -7.283106  150.876724  -93.075267   26.949047    0.000000    0.000000    0.000000    0.000000
  0.023406814   -7.280829  150.651291  -92.757002   24.971991    0.000000    0.000000    0.000000    0.000000
  0.023607214   -7.277675  150.419785  -93.113424   24.096748    0.000000    0.000000    0.000000    0.000000
  0.023807615   -7.278489  150.173660  -93.122078   28.497730    0.000000    0.000000    0.000000    0.000000
  0.024008016   -7.279020  149.931656  -93.920250   22.494434    0.000000    0.000000    0.000000    0.000000
  0.024208417   -7.281708  149.738861  -94.579794   20.670898    0.000000    0.000000    0.000000    0.000000
  0.024408818   -7.285301  149.548050  -93.511389   25.522970    0.000000    0.000000    0.000000    0.000000
  0.024609218   -7.292162  149.304764  -94.510957   26.811417    0.000000    0.000000    0.000000    0.000000
  0.024809619   -7.294475  149.092255  -94.072213   28.037374    0.000000    0.000000    0.000000    0.000000
  0.025010020   -7.296904  148.838821  -94.323816   16.324730    0.000000    0.000000    0.000000    0.000000
  0.025210421   -7.305019  148.589371  -94.580845   26.212646    0.000000    0.000000    0.000000    0.000000
  0.025410822   -7.311077  148.322189  -95.442318   20.932861    0.000000    0.000000    0.000000    0.000000
  0.025611222   -7.312275  148.058975  -94.758115   24.048107    0.000000    0.000000    0.000000    0.000000
  0.025811623   -7.309668  147.746338  -95.313245   26.842514    0.000000    0.000000    0.000000    0.000000
  0.026012024   -7.304507  147.472397  -95.625844   21.036177    0.000000    0.000000    0.000000    0.000000
  0.026212425   -7.304114  147.190002  -94.351929   20.465565    0.000000    0.000000    0.000000    0.000000
  0.026412826   -7.299394  146.911697  -95.291688   25.224117    0.000000    0.000000    0.000000    0.000000
  0.026613226   -7.297896  146.642212  -94.727931   21.391359    0.000000    0.000000    0.000000    0.000000
  0.026813627   -7.295698  146.420761  -95.436569   21.603039    0.000000    0.000000    0.000000    0.000000
  0.027014028   -7.293338  146.216034  -95.092731   23.936474    0.000000    0.000000    0.000000    0.000000
  0.027214429   -7.293960  146.008682  -95.363851   22.540880    0.000000    0.000000    0.000000    0.000000
  0.027414830   -7.291605  145.826172  -96.095765   20.798296    0.000000    0.000000    0.000000    0.000000
  0.027615230   -7.293854  145.603470  -94.591308   21.784454    0.000000    0.000000    0.000000    0.000000
  0.027815631   -7.296364  145.362915  -94.718785   14.597974    0.000000    0.000000    0.000000    0.000000
  0.028016032   -7.297014  145.124390  -95.977557   19.497976    0.000000    0.000000    0.000000    0.000000
  0.028216433   -7.300796  144.862183  -96.146394   14.654255    0.000000    0.000000    0.000000    0.000000
  0.028416834   -7.298630  144.609009  -96.685646   21.143377    0.000000    0.000000    0.000000    0.000000
  0.028617234   -7.297388  144.353745  -95.932940   16.751335    0.000000    0.000000    0.000000    0.000000
  0.028817635   -7.300767  144.104172  -96.429389   15.746408    0.000000    0.000000    0.000000    0.000000
  0.029018036   -7.299957  143.836990  -96.409309   15.383493    0.000000    0.000000    0.000000    0.000000
  0.029218437   -7.300512  143.585556  -96.312996   14.675952    0.000000    0.000000    0.000000    0.000000
  0.029418838   -7.297710  143.384338  -97.403945   22.091555    0.000000    0.000000    0.000000    0.000000
  0.029619238   -7.292884  143.174301  -97.142631   20.352983    0.000000    0.000000    0.000000    0.000000
  0.029819639   -7.294347  142.982834  -97.519096   17.340195    0.000000    0.000000    0.000000    0.000000
  0.030020040   -7.296520  142.795273  -97.266582   20.186478    0.000000    0.000000    0.000000    0.000000
  0.030220441   -7.297737  142.574356  -97.287377   17.117941    0.000000    0.000000    0.000000    0.000000
  0.030420842   -7.307630  142.342133  -97.490478   12.497957    0.000000    0.000000    0.000000    0.000000
  0.030621242   -7.318270  142.101654  -97.230506   10.695010    0.000000    0.000000    0.000000    0.000000
  0.030821643   -7.324958  141.796509  -96.492395   17.317808    0.000000    0.000000    0.000000    0.000000
  0.031022044   -7.326170  141.468475  -97.455304   23.036713    0.000000    0.000000    0.000000    0.000000
  0.031222445   -7.319152  141.216049  -97.394343   19.392487    0.000000    0.000000    0.000000    0.000000
  0.031422846   -7.320907  140.897308  -97.945125   18.053699    0.000000    0.000000    0.000000    0.000000
  0.031623246   -7.317670  140.619583  -97.627430   15.208048    0.000000    0.000000    0.000000    0.000000
  0.031823647   -7.314045  140.315582  -96.666325    7.580095    0.000000    0.000000    0.000000    0.000000
  0.032024048   -7.303019  140.059555  -97.026245   20.353449    0.000000    0.000000    0.000000    0.000000
  0.032224449   -7.292762  139.790894  -96.871865   13.291491    0.000000    0.000000    0.000000    0.000000
  0.032424850   -7.284658  139.570511  -97.438139   10.549772    0.000000    0.000000    0.000000    0.000000
  0.032625251   -7.278297  139.335785  -97.743837   12.304861    0.000000    0.000000    0.000000    0.000000
  0.032825651   -7.270434  139.124588  -97.545280   11.151665    0.000000    0.000000    0.000000    0.000000
  0.033026052   -7.270531  138.926163  -97.501339    6.592407    0.000000    0.000000    0.000000    0.000000
  0.033226453   -7.269940  138.706284  -98.532617    9.671164    0.000000    0.000000    0.000000    0.000000
  0.033426854   -7.271243  138.487534  -97.227982    8.697999    0.000000    0.000000    0.000000    0.000000
  0.033627255   -7.273275  138.228729  -97.913708    7.793603    0.000000    0.000000    0.000000    0.000000
  0.033827655   -7.274281  137.996231  -98.073872    9.780886    0.000000    0.000000    0.000000    0.000000
  0.034028056   -7.278724  137.768005  -99.629690    7.163412    0.000000    0.000000    0.000000    0.000000
  0.034228457   -7.281390  137.514984  -98.938600   17.706085    0.000000    0.000000    0.000000    0.000000
  0.034428858   -7.286924  137.288574  -98.079672    8.816909    0.000000    0.000000    0.000000    0.000000
  0.034629259   -7.283878  137.025192  -98.581894   -6.299628    0.000000    0.000000    0.000000    0.000000
  0.034829659   -7.283296  136.821228  -99.160833   10.068784    0.000000    0.000000    0.000000    0.000000
  0.035030060   -7.276296  136.546143  -98.697503    2.507630    0.000000    0.000000    0.000000    0.000000
  0.035230461   -7.270853  136.355804  -98.319512    8.137174    0.000000    0.000000    0.000000    0.000000
  0.035430862   -7.266208  136.119354  -97.765568    6.171806    0.000000    0.000000    0.000000    0.000000
  0.035631263   -7.267820  135.955841  -99.866884   17.484751    0.000000    0.000000    0.000000    0.000000
  0.035831663   -7.266873  135.775009  -98.401595   14.763375    0.000000    0.000000    0.000000    0.000000
  0.036032064   -7.277819  135.572021  -98.687172   17.519705    0.000000    0.000000    0.000000    0.000000
  0.036232465   -7.286477  135.343460  -98.515156   12.890504    0.000000    0.000000    0.000000    0.000000
  0.036432866   -7.299631  135.107681  -99.742609   15.354937    0.000000    0.000000    0.000000    0.000000
  0.036633267   -7.309386  134.820480  -99.677722    9.299803    0.000000    0.000000    0.000000    0.000000
  0.036833667   -7.311335  134.521576  -99.440519    9.647119    0.000000    0.000000    0.000000    0.000000
  0.037034068   -7.316797  134.236038 -100.450344    8.767821    0.000000    0.000000    0.000000    0.000000
  0.037234469   -7.317764  133.944565  -99.527188   22.017597    0.000000    0.000000    0.000000    0.000000
  0.037434870   -7.315332  133.658768  -99.092275    6.054102    0.000000    0.000000    0.000000    0.000000
  0.037635271   -7.308494  133.393494  -99.245876    6.697036    0.000000    0.000000    0.000000    0.000000
  0.037835671   -7.299720  133.145081  -99.372508    2.106229    0.000000    0.000000    0.000000    0.000000
  0.038036072   -7.294504  132.888947  -99.218899    4.324606    0.000000    0.000000    0.000000    0.000000
  0.038236473   -7.287922  132.690796  -98.442597    5.487433    0.000000    0.000000    0.000000    0.000000
  0.038436874   -7.288068  132.467133  -99.257203    0.431235    0.000000    0.000000    0.000000    0.000000
  0.038637275   -7.293409  132.230392 -101.792120   -5.087713    0.000000    0.000000    0.000000    0.000000
  0.038837675   -7.296490  131.985489  -99.897912    9.746630    0.000000    0.000000    0.000000    0.000000
  0.039038076   -7.300467  131.717224  -99.562781    0.468238    0.000000    0.000000    0.000000    0.000000
  0.039238477   -7.305169  131.444321 -100.139995   -1.500983    0.000000    0.000000    0.000000    0.000000
  0.039438878   -7.306873  131.164993 -101.208600    5.819059    0.000000    0.000000    0.000000    0.000000
  0.039639279   -7.310100  130.888260 -101.798776    0.311891    0.000000    0.000000    0.000000    0.000000
  0.039839679   -7.308887  130.615524 -102.847465    5.151278    0.000000    0.000000    0.000000    0.000000
  0.040040080   -7.305543  130.350708 -100.199935    3.799159    0.000000    0.000000    0.000000    0.000000
  0.040240481   -7.301851  130.089859 -101.540231   12.630110    0.000000    0.000000    0.000000    0.000000
  0.040440882   -7.294547  129.799835 -101.482209    4.064256    0.000000    0.000000    0.000000    0.000000
  0.040641283   -7.285580  129.538315 -101.354016   10.002170    0.000000    0.000000    0.000000    0.000000
  0.040841683   -7.274833  129.310608 -101.677614    6.195376    0.000000    0.000000    0.000000    0.000000
  0.041042084   -7.267771  129.110001 -100.763822   13.759734    0.000000    0.000000    0.000000    0.000000
  0.041242485   -7.267855  128.947983 -100.326256    8.412166    0.000000    0.000000    0.000000    0.000000
  0.041442886   -7.272079  128.774017 -101.177195    9.005519    0.000000    0.000000    0.000000    0.000000
  0.041643287   -7.276420  128.585312 -101.781213   -0.375510    0.000000    0.000000    0.000000    0.000000
  0.041843687   -7.280852  128.332977 -101.660319    4.495004    0.000000    0.000000    0.000000    0.000000
  0.042044088   -7.282539  128.084930 -101.156532   15.436118    0.000000    0.000000    0.000000    0.000000
  0.042244489   -7.285625  127.863914  -99.407856    5.173201    0.000000    0.000000    0.000000    0.000000
  0.042444890   -7.284879  127.632957 -100.917023   -7.168771    0.000000    0.000000    0.000000    0.000000
  0.042645291   -7.278862  127.375854 -101.288750   -5.695370    0.000000    0.000000    0.000000    0.000000
  0.042845691   -7.277525  127.168755 -101.286177   -3.072954    0.000000    0.000000    0.000000    0.000000
  0.043046092   -7.268067  126.901802 -100.521267    3.646117    0.000000    0.000000    0.000000    0.000000
  0.043246493   -7.260502  126.694557 -101.198830   12.245764    0.000000    0.000000    0.000000    0.000000
  0.043446894   -7.257521  126.529778 -100.311328   10.900864    0.000000    0.000000    0.000000    0.000000
  0.043647295   -7.259755  126.309937 -101.147729    7.373006    0.000000    0.000000    0.000000    0.000000
  0.043847695   -7.261899  126.161835 -102.352942   -0.064764    0.000000    0.000000    0.000000    0.000000
  0.044048096   -7.268853  125.948059 -101.576587    5.162276    0.000000    0.000000    0.000000    0.000000
  0.044248497   -7.279527  125.731422 -102.256822   -1.322678    0.000000    0.000000    0.000000    0.000000
  0.044448898   -7.288088  125.469498 -101.888440   -1.182237    0.000000    0.000000    0.000000    0.000000
  0.044649299   -7.292411  125.243195 -102.651215   12.157507    0.000000    0.000000    0.000000    0.000000
  0.044849699   -7.303885  124.969116 -102.275534    0.851777    0.000000    0.000000    0.000000    0.000000
  0.045050100   -7.307833  124.704445 -102.136374    7.563452    0.000000    0.000000    0.000000    0.000000
  0.045250501   -7.310275  124.421455 -101.684826    5.050775    0.000000    0.000000    0.000000    0.000000
  0.045450902   -7.318740  124.116547 -102.570355   -0.914452    0.000000    0.000000    0.000000    0.000000
  0.045651303   -7.317136  123.772942 -100.513447    4.140738    0.000000    0.000000    0.000000    0.000000
  0.045851703   -7.310188  123.504288 -103.100934   15.907954    0.000000    0.000000    0.000000    0.000000
  0.046052104   -7.310707  123.192703 -102.710750    7.191687    0.000000    0.000000    0.000000    0.000000
  0.046252505   -7.303449  122.903938 -101.577623    1.768838    0.000000    0.000000    0.000000    0.000000
  0.046452906   -7.298120  122.636688 -101.389512   18.289816    0.000000    0.000000    0.000000    0.000000
  0.046653307   -7.299173  122.406525  -99.881260    4.899528    0.000000    0.000000    0.000000    0.000000
  0.046853707   -7.296324  122.138443 -101.874177   16.353079    0.000000    0.000000    0.000000    0.000000
  0.047054108   -7.295823  121.860481 -102.486956    1.496662    0.000000    0.000000    0.000000    0.000000
  0.047254509   -7.298015  121.615807 -101.098304    7.260541    0.000000    0.000000    0.000000    0.000000
  0.047454910   -7.293115  121.360382 -103.866227  -10.240519    0.000000    0.000000    0.000000    0.000000
  0.047655311   -7.294038  121.104187  -99.188871   -3.029155    0.000000    0.000000    0.000000    0.000000
  0.047855711   -7.288435  120.834785 -100.473249   -8.525847    0.000000    0.000000    0.000000    0.000000
  0.048056112   -7.277652  120.605858 -103.351011    2.125702    0.000000    0.000000    0.000000    0.000000
  0.048256513   -7.264574  120.330475 -103.847947    2.999990    0.000000    0.000000    0.000000    0.000000
  0.048456914   -7.255723  120.132454 -103.732298    1.602326    0.000000    0.000000    0.000000    0.000000
  0.048657315   -7.242460  119.950729 -102.773503   -5.249075    0.000000    0.000000    0.000000    0.000000
  0.048857715   -7.235727  119.766968 -104.341083   -4.173501    0.000000    0.000000    0.000000    0.000000
  0.049058116   -7.232155  119.624741 -102.158093   -5.756392    0.000000    0.000000    0.000000    0.000000
  0.049258517   -7.232975  119.497696 -101.071624    0.843705    0.000000    0.000000    0.000000    0.000000
  0.049458918   -7.237184  119.337395 -104.772930  -11.380868    0.000000    0.000000    0.000000    0.000000
  0.049659319   -7.240333  119.138855 -103.838696    3.242686    0.000000    0.000000    0.000000    0.000000
  0.049859719   -7.247617  118.966797 -106.360303   10.201654    0.000000    0.000000    0.000000    0.000000
  0.050060120   -7.253478  118.787888 -102.680351   10.969153    0.000000    0.000000    0.000000    0.000000
  0.050260521   -7.262419  118.559151 -106.033103   11.529644    0.000000    0.000000    0.000000    0.000000
  0.050460922   -7.272868  118.355919 -101.608448    9.631585    0.000000    0.000000    0.000000    0.000000
  0.050661323   -7.277980  118.106972 -103.780711   -0.672810    0.000000    0.000000    0.000000    0.000000
  0.050861723   -7.284001  117.846939 -102.254492    6.876796    0.000000    0.000000    0.000000    0.000000
  0.051062124   -7.289744  117.571228 -101.520903   11.544097    0.000000    0.000000    0.000000    0.000000
  0.051262525   -7.288436  117.262146 -103.021745   -4.152374    0.000000    0.000000    0.000000    0.000000
  0.051462926   -7.292458  116.970558 -103.303253   15.327609    0.000000    0.000000    0.000000    0.000000
  0.051663327   -7.295144  116.719894 -103.438392   15.932991    0.000000    0.000000    0.000000    0.000000
  0.051863727   -7.300177  116.470924 -101.926004   11.751000    0.000000    0.000000    0.000000    0.000000
  0.052064128   -7.302381  116.182243 -103.723253    0.760899    0.000000    0.000000    0.000000    0.000000
  0.052264529   -7.306650  115.912254 -105.087281    9.475520    0.000000    0.000000    0.000000    0.000000
  0.052464930   -7.307519  115.599136 -102.660890   14.601027    0.000000    0.000000    0.000000    0.000000
  0.052665331   -7.312322  115.304619 -103.376021    0.010121    0.000000    0.000000    0.000000    0.000000
  0.052865731   -7.314871  114.978294 -102.841635  -11.104220    0.000000    0.000000    0.000000    0.000000
