! Anritsu VNA Master:                     Model: MS2036C/10/77
! SN:                                  1601066
! /card0/usr/cable.41393a.s2p
! Existing Calibration Information:
! TYPE:                         Current Settings,       Active Cal Settings
! TIME:             	   05/23/2018 09:28:37 AM,    05/23/2018 09:10:45 AM
! INTERNAL TEMP:    	                   48.5 C,                    48.3 C
! # POINTS:         	                      500,                       500
! START FREQ:       	               20.000 MHz,                20.000 MHz
! STOP FREQ:        	              120.000 MHz,               120.000 MHz
! SOURCE POWER:     	                     High,                      High
! IFBW:             	                    50 Hz,                     50 Hz
! AVG FACTOR:       	                       1 ,                        1 
! REF PLANE 1:      	                     0 mm,                      0 mm
! REF PLANE 2:      	                     0 mm,                      0 mm
! CAL TYPE:         	                 Full S22,                  Full S22
! CAL METHOD:       	                     SOLT,                      SOLT
! CAL LINE TYPE:    	                     Coax,                      Coax
! DUT PORT 1:       	                K-Conn(M),                 K-Conn(M)
! DUT PORT 2:       	                K-Conn(M),                 K-Conn(M)
! CAL STATUS:       	        OK: Accuracy High,                        --
# GHZ S DB R 50.0
! FREQ.GHZ       S11DB        S11A       S21DB        S21A       S12DB        S12A       S22DB        S22A
  0.020000000   -1.205421  166.713593 -111.719181 -117.421562  -89.742568   41.066010  -50.777232  127.265709
  0.020200401   -1.205643  166.486816 -109.380955 -138.449020  -89.455627   43.983849  -51.337831  118.525146
  0.020400802   -1.208517  166.261246 -107.954496 -116.923676  -90.055457   42.066284  -52.263925  110.138268
  0.020601202   -1.205550  166.193848 -114.803235 -123.268600  -90.858901   46.089108  -53.399614  100.723381
  0.020801603   -1.208830  165.965042 -121.628809  -71.960251  -90.206631   40.114956  -53.902246   90.118843
  0.021002004   -1.207693  165.909912 -110.827666 -126.625999  -90.499192   40.506027  -54.898485   74.898346
  0.021202405   -1.210990  165.682877 -112.684277 -118.490494  -90.196542   38.613991  -54.410565   61.650150
  0.021402806   -1.206780  165.459991 -107.618164  -94.669113  -90.562540   38.162853  -54.573794   49.203754
  0.021603206   -1.206557  165.410858 -111.812420 -130.561874  -90.212898   39.465530  -53.508160   34.819027
  0.021803607   -1.211310  165.184494 -127.240320 -143.132660  -90.919827   38.525646  -52.973332   24.307564
  0.022004008   -1.213564  165.138718 -108.866671 -131.769547  -90.540046   42.278942  -51.925293   14.651280
  0.022204409   -1.221388  164.914078 -108.254720 -139.492386  -90.732432   38.612366  -51.341120    9.669915
  0.022404810   -1.228053  164.682129 -123.688366 -121.252281  -90.899487   36.974915  -50.552417   -0.039696
  0.022605210   -1.228416  164.613571 -110.320604 -124.886948  -91.557325   36.291862  -49.474696   -4.022794
  0.022805611   -1.235193  164.391525 -108.610421 -131.837631  -91.264430   38.351357  -48.516638  -11.139369
  0.023006012   -1.229768  164.344757 -111.175026 -146.942093  -91.157439   35.796398  -47.957337  -15.347668
  0.023206413   -1.236609  164.125412 -111.829006 -141.970703  -91.280104   36.444939  -47.340808  -19.878603
  0.023406814   -1.244526  163.907639 -113.508596 -158.265610  -91.174005   33.311497  -46.911216  -24.105364
  0.023607214   -1.245951  163.857971 -108.196597 -134.358124  -91.740613   32.975395  -46.099109  -28.203363
  0.023807615   -1.252922  163.627625 -108.893125  -95.735352  -91.866833   37.845551  -45.561945  -31.796593
  0.024008016   -1.256636  163.584946 -108.715275 -121.786674  -92.410979   37.682224  -45.003162  -34.586906
  0.024208417   -1.263389  163.371292 -112.817767 -110.618973  -92.560558   35.216999  -44.565619  -38.379898
  0.024408818   -1.262562  163.161896 -116.712504  -78.942955  -91.729102   32.402225  -44.052142  -40.086971
  0.024609218   -1.265256  163.118835 -113.783256 -106.516365  -92.138137   33.686726  -43.495602  -43.018131
  0.024809619   -1.271502  162.916656 -116.255704 -174.388168  -91.935536   34.635368  -43.101769  -46.130211
  0.025010020   -1.274182  162.876617 -113.889469 -142.354919  -92.810119   34.347889  -42.742256  -49.416752
  0.025210421   -1.267532  162.670685 -109.756627  -70.037231  -92.457028   33.257572  -42.315048  -51.632622
  0.025410822   -1.275506  162.469513 -111.853494  -87.598366  -92.694851   35.576340  -42.005995  -53.981377
  0.025611222   -1.277924  162.431274 -110.656579 -111.080147  -92.966238   32.667660  -41.699322  -56.192593
  0.025811623   -1.284908  162.215866 -107.930053  -95.431679  -92.039303   28.359106  -41.381685  -58.544598
  0.026012024   -1.287205  162.177658 -115.006202 -105.765770  -92.781856   27.509932  -41.087805  -61.479221
  0.026212425   -1.294143  161.975464 -114.350774 -109.018181  -93.500626   27.585760  -40.809401  -63.521435
  0.026412826   -1.300039  161.768829 -109.929449 -141.253601  -93.184955   37.090397  -40.470242  -65.782722
  0.026613226   -1.358959  161.724670 -110.332539  -89.713188  -93.012239   29.174637  -40.266251  -67.786369
  0.026813627   -1.363194  161.535324 -111.666297  -95.541344  -93.583087   31.911411  -40.125999  -69.278267
  0.027014028   -1.363307  161.510910 -108.017489 -114.958641  -93.725233   33.736443  -39.872871  -71.967171
  0.027214429   -1.367857  161.325592 -112.422981  -95.576935  -92.898847   29.512726  -39.685794  -74.307373
  0.027414830   -1.360723  161.134628 -111.064925 -113.514328  -92.925888   29.624996  -39.368629  -76.381142
  0.027615230   -1.361887  161.116501 -108.182458  -94.839279  -93.047423   31.245937  -39.228846  -79.120369
  0.027815631   -1.368083  160.921356 -111.582078 -128.595261  -94.295332   31.222485  -39.111840  -80.850227
  0.028016032   -1.369452  160.898849 -111.526146  -85.699829  -94.078282   27.528244  -38.915173  -82.923859
  0.028216433   -1.374920  160.700058 -114.099290  -84.814217  -94.109863   31.293926  -38.779485  -84.988991
  0.028416834   -1.380246  160.506668 -111.682542 -116.885956  -94.449903   29.217955  -38.594082  -87.087852
  0.028617234   -1.381646  160.482651 -107.910674 -113.836441  -94.337900   27.034149  -38.482483  -88.972382
  0.028817635   -1.386260  160.295410 -110.609546  -87.165161  -94.109087   27.519569  -38.304721  -91.077957
  0.029018036   -1.385739  160.276657 -111.475426 -104.187355  -94.818597   30.652216  -38.220585  -93.227295
  0.029218437   -1.389280  160.092834 -110.919935 -131.889771  -94.430137   26.652142  -38.071604  -94.951645
  0.029418838   -1.392393  159.911331 -110.900425 -107.038376  -94.185770   30.780193  -38.061899  -97.089142
  0.029619238   -1.385800  159.904175 -113.357307 -145.997879  -94.022263   31.621874  -37.971895  -98.691956
  0.029819639   -1.389912  159.724884 -108.793544 -120.547577  -94.283283   28.199186  -37.796371 -100.584297
  0.030020040   -1.388902  159.702423 -110.620303  -96.469360  -94.872516   26.410452  -37.782367 -102.765602
  0.030220441   -1.393484  159.506439 -112.195936 -116.361702  -94.303908   27.555109  -37.715721 -104.747093
  0.030420842   -1.398611  159.294022 -109.708101 -124.255051  -95.207722   26.357317  -37.667478 -106.572205
  0.030621242   -1.399999  159.240265 -108.846645  -99.121201  -94.515100   35.959404  -37.584493 -108.886871
  0.030821643   -1.404821  159.015244 -109.913227 -118.093803  -94.989424   28.235603  -37.584141 -110.740341
  0.031022044   -1.406569  158.965790 -114.526958  -96.097023  -94.522032   27.085308  -37.513591 -112.544601
  0.031222445   -1.309798  158.999664 -114.963139 -108.757759  -95.169642   24.810923  -37.541055 -113.888084
  0.031422846   -1.315454  158.799423 -106.550769 -116.930397  -95.106011   25.190533  -37.512576 -115.875755
  0.031623246   -1.316064  158.763031 -109.306770  -90.120163  -95.356085   18.697634  -37.478313 -117.942711
  0.031823647   -1.321218  158.560669 -107.442219 -103.972801  -95.715811   23.305609  -37.477270 -119.670052
  0.032024048   -1.321291  158.537262 -110.825401 -134.002319  -95.547265   26.237009  -37.416211 -121.471909
  0.032224449   -1.326371  158.327057 -108.568921 -121.608475  -95.561206   19.857054  -37.485150 -123.198639
  0.032424850   -1.321467  158.131439 -105.046844  -97.934593  -96.037876   29.650715  -37.449280 -124.982437
  0.032625251   -1.321944  158.091156 -110.563104 -100.092598  -95.024158   29.811279  -37.487000 -127.111961
  0.032825651   -1.326457  157.888794 -112.255568 -134.177902  -95.020980   25.793749  -37.557046 -128.778656
  0.033026052   -1.327081  157.844681 -108.120463  -90.013748  -95.139644   24.304079  -37.630016 -130.766098
  0.033226453   -1.330889  157.632172 -112.686542 -146.591400  -96.073176   29.992191  -37.615819 -132.722168
  0.033426854   -1.335622  157.418427 -105.986670 -113.415901  -95.306773   25.987989  -37.775560 -134.468338
  0.033627255   -1.334800  157.372910 -109.385917 -122.426712  -95.419368   25.244762  -37.743495 -136.177750
  0.033827655   -1.338517  157.152512 -109.034280 -111.709709  -95.653495   28.050367  -37.882648 -138.115829
  0.034028056   -1.338580  157.115479 -112.412931 -142.496811  -95.543482   27.885382  -37.986802 -139.677551
  0.034228457   -1.341826  156.892654 -110.195419 -116.637978  -96.647209   25.105892  -38.068720 -141.460510
  0.034428858   -1.345669  156.682465 -120.194644 -136.064377  -96.767400   23.457331  -38.176397 -143.567123
  0.034629259   -1.345558  156.639069 -106.063409 -117.913597  -96.568860   21.215027  -38.292112 -145.265411
  0.034829659   -1.339501  156.425446 -111.403724 -126.119171  -96.277625   28.102940  -38.347320 -146.597092
  0.035030060   -1.337627  156.374115 -111.970725 -111.799675  -95.460799   24.346907  -38.538072 -148.721939
  0.035230461   -1.341220  156.169373 -107.936370 -114.317337  -96.786064   28.177084  -38.665006 -150.736908
  0.035430862   -1.342803  155.961639 -114.588056 -126.478371  -97.085476   24.256620  -38.809536 -152.321243
  0.035631263   -1.339638  155.921768 -123.342765 -142.772781  -95.986531   26.734964  -39.017799 -153.519806
  0.035831663   -1.340424  155.718048 -112.042534 -140.024002  -96.953989   23.560835  -39.150997 -155.475250
  0.036032064   -1.337346  155.682327 -109.626669 -119.332260  -96.707490   20.234064  -39.428123 -157.040756
  0.036232465   -1.337498  155.486801 -108.535941 -113.673393  -97.438517   21.492479  -39.607006 -159.190674
  0.036432866   -1.339267  155.278015 -110.038558 -138.946487  -96.410596   23.515612  -39.805304 -160.411819
  0.036633267   -1.342991  155.243118 -111.603067 -131.373184  -96.405922   29.276045  -40.086589 -162.180908
  0.036833667   -1.343057  155.039932 -110.119650 -128.598358  -96.625796   21.465784  -40.250164 -163.803467
  0.037034068   -1.338560  154.998444 -110.792611 -134.671005  -95.935211   25.917021  -40.574995 -165.708374
  0.037234469   -1.338962  154.791107 -109.279442  -92.705605  -96.633870   26.825260  -40.834290 -166.863098
  0.037434870   -1.338399  154.577835 -107.625376 -124.456589  -97.662843   32.079708  -41.066736 -168.344650
  0.037635271   -1.335634  154.539658 -113.518411  -98.921249  -96.769465   28.881830  -41.373527 -169.771469
  0.037835671   -1.337940  154.331100 -109.427112 -122.498306  -97.416669   25.460402  -41.774777 -171.035614
  0.038036072   -1.333693  154.286896 -111.312635 -140.300995  -96.291890   22.531403  -42.059951 -172.814392
  0.038236473   -1.333769  154.092453 -113.395173 -111.634315  -97.846582   24.725163  -42.522616 -174.432632
  0.038436874   -1.333610  153.888916 -110.329971 -133.055481  -97.195748   25.699203  -42.996034 -175.559433
  0.038637275   -1.328774  153.865585 -109.653684  -88.819412  -97.526054   27.002621  -43.350978 -176.705780
  0.038837675   -1.329225  153.681244 -111.642498 -111.649605  -97.760486   30.994015  -43.937307 -177.693359
  0.039038076   -1.325846  153.663132 -110.832848 -116.829117  -96.972801   23.624863  -44.421178 -178.922989
  0.039238477   -1.326840  153.480621 -108.366565 -113.557991  -98.022238   20.724899  -44.915651  179.338531
  0.039438878   -1.327491  153.295319 -109.351595 -122.061188  -97.961384   20.094374  -45.473066  179.946976
  0.039639279   -1.316851  153.279343 -113.853779  -69.271851  -98.269645   25.070738  -46.106089  177.867157
  0.039839679   -1.317904  153.083206 -112.495513 -167.288757  -97.933683   29.577932  -46.809714  176.721436
  0.040040080   -1.315439  153.067825 -111.168131 -100.928459  -98.103979   34.080376  -47.620758  178.064377
  0.040240481   -1.316481  152.871063 -114.989835  -99.567047  -99.145428   22.715906  -48.711418  177.726288
  0.040440882   -1.317908  152.674255 -109.429805 -117.823410  -97.939554   27.353680  -49.719832  177.834885
  0.040641283   -1.315462  152.641327 -107.659564 -137.059814  -97.750427   32.769566  -50.560443 -179.983032
  0.040841683   -1.317357  152.435776 -112.412174 -102.471336  -98.510479   21.647022  -51.805815 -178.486816
  0.041042084   -1.314188  152.401962 -111.336780 -112.520355  -97.680387   27.456848  -53.309368 -172.400131
  0.041242485   -1.315590  152.189285 -108.086028 -111.047058  -97.222621   25.233242  -54.792552 -168.622238
  0.041442886   -1.316861  151.986496 -111.502998 -127.250412  -98.386530   29.191408  -56.320445 -160.099030
  0.041643287   -1.313847  151.953125 -113.877266 -124.939827  -99.481878   31.766302  -57.453055 -147.607895
  0.041843687   -1.316546  151.751114 -107.653461  -88.332565  -98.119052   26.163876  -58.314176 -128.911194
  0.042044088   -1.306858  151.720474 -110.032254 -104.377762  -97.830490   22.610176  -57.658644 -111.692116
  0.042244489   -1.308504  151.524078 -109.374293  -90.997421  -98.349694   21.895422  -55.882812  -94.412308
  0.042444890   -1.310637  151.322891 -113.240928 -102.228699  -96.894863   30.567440  -54.717243  -84.547821
  0.042645291   -1.307789  151.289810 -109.423383  -65.959877  -98.813058   36.791706  -53.639260  -76.793808
  0.042845691   -1.310987  151.087372 -110.243500  -92.836624  -99.398594   34.986702  -51.958983  -75.237747
  0.043046092   -1.309189  151.059296 -108.380109 -144.737946  -98.204264   15.004548  -50.445912  -72.001656
  0.043246493   -1.312257  150.858292 -109.410269 -113.898582  -99.052891   37.095833  -49.693592  -70.154175
  0.043446894   -1.314960  150.659409 -115.413848 -124.782227 -100.312260   30.070311  -48.381521  -71.849907
  0.043647295   -1.312204  150.627502 -111.460668 -139.214508  -98.582151   29.387371  -47.551427  -69.463867
  0.043847695   -1.314258  150.427689 -112.182282 -110.890373 -100.261762   29.504269  -46.685418  -69.959496
  0.044048096   -1.310931  150.392029 -111.426312 -117.917397  -98.574542   28.138258  -45.929523  -70.386246
  0.044248497   -1.313448  150.186218 -118.164647 -103.124367  -97.604339   32.949745  -45.025809  -70.785019
  0.044448898   -1.302457  149.974640 -108.883569 -106.944138  -98.302588   31.078075  -44.473018  -71.739319
  0.044649299   -1.301710  149.935272 -111.452041 -150.404938  -98.305368   34.027046  -43.951967  -72.586494
  0.044849699   -1.302930  149.716156 -115.933603 -114.967163  -98.028011   20.548681  -43.401131  -73.822289
  0.045050100   -1.299125  149.674545 -108.312909 -103.366493  -98.525269   23.851784  -42.758659  -74.526520
  0.045250501   -1.300663  149.456268 -113.255968 -108.813164  -99.229098   38.272186  -42.328132  -75.888977
  0.045450902   -1.303274  149.246002 -119.224532 -102.812843  -98.097391   23.477764  -41.850775  -77.577934
  0.045651303   -1.302471  149.210571 -112.462955 -140.936584 -100.473388   22.489388  -41.412375  -78.818207
  0.045851703   -1.304391  149.007019 -111.818909  -91.675232 -100.988976   37.554382  -40.916027  -80.538521
  0.046052104   -1.301060  148.977051 -107.699132 -122.005379  -98.724000   26.496912  -40.653820  -81.768410
  0.046252505   -1.303789  148.767731 -111.350587 -123.857559  -99.207240   30.140364  -40.247676  -83.118736
  0.046452906   -1.305956  148.566254 -110.245260 -131.428391  -99.682146   33.419502  -39.878044  -84.274284
  0.046653307   -1.303793  148.530807 -109.515593 -114.601395  -98.324893   26.712236  -39.572697  -86.073868
  0.046853707   -1.307424  148.326477 -113.103008 -137.020325  -99.371202   28.929701  -39.292120  -87.418777
  0.047054108   -1.319903  148.294586 -111.860081 -115.623749 -100.283159   42.002571  -38.925845  -89.243530
  0.047254509   -1.322687  148.088303 -112.809121 -125.276199  -99.314719   35.815685  -38.606845  -90.539528
  0.047454910   -1.325691  147.883102 -113.917093 -128.235809  -98.794295   28.811975  -38.367816  -92.605553
  0.047655311   -1.323363  147.847992 -106.992543 -128.633102 -100.739734   23.198383  -38.173667  -94.275513
  0.047855711   -1.327323  147.639664 -112.833561 -176.027374  -99.592697   36.044926  -37.891503  -95.565643
  0.048056112   -1.325062  147.610764 -106.073737 -105.522705  -99.020830   31.532555  -37.632030  -97.090561
  0.048256513   -1.327992  147.409485 -108.253086  -94.985054  -99.516247   16.835447  -37.382475  -98.695702
  0.048456914   -1.331465  147.210159 -109.335460 -136.329346  -99.692117   34.371040  -37.270123 -101.069366
  0.048657315   -1.329221  147.178070 -109.247822 -115.012146  -98.366373   30.191273  -37.049216 -102.285759
  0.048857715   -1.332254  146.977356 -109.564794 -125.458992  -99.374627   24.919939  -36.820673 -103.753159
  0.049058116   -1.331032  146.951599 -111.214882 -107.422081  -98.624850   27.407661  -36.669371 -105.673775
  0.049258517   -1.333660  146.757523 -113.103992 -128.525787 -100.427453   35.415844  -36.492628 -107.221359
  0.049458918   -1.337044  146.551987 -111.571775  -80.080414  -99.022705   30.246855  -36.428159 -108.845222
  0.049659319   -1.335570  146.531342 -113.047521 -104.282265 -100.257306   39.600899  -36.235788 -110.615135
  0.049859719   -1.338046  146.328003 -110.118031 -108.004333  -98.512172   33.162292  -36.107905 -112.421684
  0.050060120   -1.336860  146.305908 -112.179232 -117.476593  -98.944705   34.078148  -36.016697 -113.980530
  0.050260521   -1.340617  146.107391 -112.889904 -135.709244 -100.005835   33.602272  -35.795909 -116.169472
  0.050460922   -1.330124  145.909485 -112.565033 -128.865067  -99.043702   35.210880  -35.714957 -117.854530
  0.050661323   -1.328288  145.886475 -116.219338  -77.275757  -98.346511   35.102909  -35.620940 -119.382607
  0.050861723   -1.331832  145.688065 -109.393743  -98.932327  -99.908863   29.336199  -35.467661 -121.033234
  0.051062124   -1.329103  145.665024 -109.960555 -105.277527  -99.069250   28.764341  -35.450473 -122.809151
  0.051262525   -1.332946  145.459778 -111.380136 -106.379578  -97.982657   30.808664  -35.332842 -124.619232
  0.051462926   -1.334903  145.258347 -110.983481 -150.222427  -99.028767   27.586302  -35.280750 -126.532776
  0.051663327   -1.334032  145.230362 -116.556773  -77.984360  -98.405563   35.795094  -35.197142 -128.194778
  0.051863727   -1.335671  145.025024 -108.698110 -117.137146  -98.912104   37.604469  -35.107607 -130.205032
  0.052064128   -1.334483  145.000656 -111.401563 -148.928528  -99.354373   36.210777  -35.090880 -131.820343
  0.052264529   -1.337528  144.795670 -109.281378 -108.975342  -99.379619   20.647266  -35.031209 -133.610367
  0.052464930   -1.341116  144.600174 -111.924278 -120.078362  -99.551159   38.080833  -34.965723 -135.398270
  0.052665331   -1.339165  144.569946 -112.648751  -65.664192 -100.151947   26.480906  -34.942131 -137.048599
  0.052865731   -1.341797  144.376587 -107.968367 -120.037788 -100.166703   35.589283  -34.866064 -138.887466
