! Anritsu VNA Master:                     Model: MS2036C/10/77
! SN:                                  1601066
! /card0/usr/uu.s11.194p465.s2p
! Existing Calibration Information:
! TYPE:                         Current Settings,       Active Cal Settings
! TIME:             	   05/23/2018 11:40:04 AM,    05/23/2018 11:36:58 AM
! INTERNAL TEMP:    	                   48.8 C,                    48.8 C
! # POINTS:         	                      500,                       500
! START FREQ:       	               20.000 MHz,                20.000 MHz
! STOP FREQ:        	              120.000 MHz,               120.000 MHz
! SOURCE POWER:     	                     High,                      High
! IFBW:             	                    50 Hz,                     50 Hz
! AVG FACTOR:       	                       1 ,                        1 
! REF PLANE 1:      	                     0 mm,                      0 mm
! REF PLANE 2:      	                     0 mm,                      0 mm
! CAL TYPE:         	                 Full S11,                  Full S11
! CAL METHOD:       	                     SOLT,                      SOLT
! CAL LINE TYPE:    	                     Coax,                      Coax
! DUT PORT 1:       	                K-Conn(M),                 K-Conn(M)
! DUT PORT 2:       	                K-Conn(M),                 K-Conn(M)
! CAL STATUS:       	        OK: Accuracy High,                        --
# GHZ S DB R 50.0
! FREQ.GHZ       S11DB        S11A       S21DB        S21A       S12DB        S12A       S22DB        S22A
  0.020000000   -4.550159  -21.296148  -92.876872  -73.273613    0.000000    0.000000    0.000000    0.000000
  0.020200401   -4.548702  -21.510994  -93.589833  -68.911476    0.000000    0.000000    0.000000    0.000000
  0.020400802   -4.548699  -21.719807  -93.456716  -76.703728    0.000000    0.000000    0.000000    0.000000
  0.020601202   -4.550022  -21.940998  -93.035743  -77.909264    0.000000    0.000000    0.000000    0.000000
  0.020801603   -4.551794  -22.152105  -94.170063  -73.057854    0.000000    0.000000    0.000000    0.000000
  0.021002004   -4.551372  -22.371677  -94.613893  -79.405701    0.000000    0.000000    0.000000    0.000000
  0.021202405   -4.552714  -22.582899  -94.711158  -80.735847    0.000000    0.000000    0.000000    0.000000
  0.021402806   -4.552436  -22.805243  -95.293912  -83.681473    0.000000    0.000000    0.000000    0.000000
  0.021603206   -4.552885  -23.017460  -94.246871  -86.998070    0.000000    0.000000    0.000000    0.000000
  0.021803607   -4.553830  -23.226908  -94.541273  -83.327103    0.000000    0.000000    0.000000    0.000000
  0.022004008   -4.554992  -23.453701  -94.755672  -88.057114    0.000000    0.000000    0.000000    0.000000
  0.022204409   -4.555230  -23.671194  -95.760416  -84.504585    0.000000    0.000000    0.000000    0.000000
  0.022404810   -4.555722  -23.891392  -95.919754  -87.805458    0.000000    0.000000    0.000000    0.000000
  0.022605210   -4.557623  -24.097267  -95.921007  -91.018257    0.000000    0.000000    0.000000    0.000000
  0.022805611   -4.558095  -24.313759  -95.637963  -94.675789    0.000000    0.000000    0.000000    0.000000
  0.023006012   -4.558372  -24.543894  -96.308113  -87.372650    0.000000    0.000000    0.000000    0.000000
  0.023206413   -4.559248  -24.761145  -96.430130  -95.639343    0.000000    0.000000    0.000000    0.000000
  0.023406814   -4.558028  -24.973558  -96.645615  -97.224480    0.000000    0.000000    0.000000    0.000000
  0.023607214   -4.559739  -25.197725  -97.017051  -92.933495    0.000000    0.000000    0.000000    0.000000
  0.023807615   -4.560646  -25.414618  -96.520939  -86.886635    0.000000    0.000000    0.000000    0.000000
  0.024008016   -4.560271  -25.639170  -96.271832  -95.897804    0.000000    0.000000    0.000000    0.000000
  0.024208417   -4.563472  -25.855209  -96.679416  -90.984703    0.000000    0.000000    0.000000    0.000000
  0.024408818   -4.563363  -26.072018  -96.288397  -96.729958    0.000000    0.000000    0.000000    0.000000
  0.024609218   -4.563631  -26.281910  -96.693461  -96.528343    0.000000    0.000000    0.000000    0.000000
  0.024809619   -4.566027  -26.511000  -97.250997 -105.722382    0.000000    0.000000    0.000000    0.000000
  0.025010020   -4.566236  -26.716589  -98.660839 -103.663338    0.000000    0.000000    0.000000    0.000000
  0.025210421   -4.565978  -26.930882  -98.859759 -106.750168    0.000000    0.000000    0.000000    0.000000
  0.025410822   -4.565725  -27.156050  -97.357855 -103.431206    0.000000    0.000000    0.000000    0.000000
  0.025611222   -4.566767  -27.377344  -98.149963 -103.377991    0.000000    0.000000    0.000000    0.000000
  0.025811623   -4.566607  -27.586901  -98.782288 -109.877876    0.000000    0.000000    0.000000    0.000000
  0.026012024   -4.569098  -27.808592  -98.680012  -94.711952    0.000000    0.000000    0.000000    0.000000
  0.026212425   -4.569493  -28.030422 -100.332668 -105.576340    0.000000    0.000000    0.000000    0.000000
  0.026412826   -4.569255  -28.241241  -98.528117 -113.060120    0.000000    0.000000    0.000000    0.000000
  0.026613226   -4.570091  -28.462152  -99.160817 -107.250519    0.000000    0.000000    0.000000    0.000000
  0.026813627   -4.571179  -28.677294  -98.908513 -112.437317    0.000000    0.000000    0.000000    0.000000
  0.027014028   -4.569521  -28.899767  -98.574265 -102.587624    0.000000    0.000000    0.000000    0.000000
  0.027214429   -4.572053  -29.113832  -99.776138 -112.995491    0.000000    0.000000    0.000000    0.000000
  0.027414830   -4.570698  -29.343315  -99.831391 -108.344795    0.000000    0.000000    0.000000    0.000000
  0.027615230   -4.571439  -29.560690 -100.684317 -105.030388    0.000000    0.000000    0.000000    0.000000
  0.027815631   -4.573130  -29.784060 -101.278385  -96.332932    0.000000    0.000000    0.000000    0.000000
  0.028016032   -4.574626  -30.008047 -101.343638 -101.361259    0.000000    0.000000    0.000000    0.000000
  0.028216433   -4.575046  -30.217146  -99.619671 -113.989967    0.000000    0.000000    0.000000    0.000000
  0.028416834   -4.575725  -30.435476 -100.856760 -111.929497    0.000000    0.000000    0.000000    0.000000
  0.028617234   -4.575714  -30.658968 -101.252223 -104.588219    0.000000    0.000000    0.000000    0.000000
  0.028817635   -4.577492  -30.876011 -100.618162 -103.394684    0.000000    0.000000    0.000000    0.000000
  0.029018036   -4.576305  -31.096575 -101.752103 -107.261314    0.000000    0.000000    0.000000    0.000000
  0.029218437   -4.578193  -31.313343 -101.416896 -110.222404    0.000000    0.000000    0.000000    0.000000
  0.029418838   -4.578919  -31.530222 -101.377965 -109.561668    0.000000    0.000000    0.000000    0.000000
  0.029619238   -4.578040  -31.754436 -101.142691 -101.022316    0.000000    0.000000    0.000000    0.000000
  0.029819639   -4.579341  -31.966623 -101.055931 -113.912872    0.000000    0.000000    0.000000    0.000000
  0.030020040   -4.580936  -32.186203 -101.946685 -114.315804    0.000000    0.000000    0.000000    0.000000
  0.030220441   -4.582196  -32.403492 -101.392753 -107.621361    0.000000    0.000000    0.000000    0.000000
  0.030420842   -4.582869  -32.622009 -101.167734 -111.053291    0.000000    0.000000    0.000000    0.000000
  0.030621242   -4.583087  -32.849094 -102.338483 -107.037254    0.000000    0.000000    0.000000    0.000000
  0.030821643   -4.584191  -33.057636 -103.388165 -106.511490    0.000000    0.000000    0.000000    0.000000
  0.031022044   -4.585377  -33.280903 -101.010881 -109.662170    0.000000    0.000000    0.000000    0.000000
  0.031222445   -4.575343  -33.433529 -102.743186 -122.775589    0.000000    0.000000    0.000000    0.000000
  0.031422846   -4.575045  -33.651424 -107.843154 -134.302658    0.000000    0.000000    0.000000    0.000000
  0.031623246   -4.577050  -33.876431 -102.433332 -121.102234    0.000000    0.000000    0.000000    0.000000
  0.031823647   -4.577444  -34.092720 -104.109468 -117.320381    0.000000    0.000000    0.000000    0.000000
  0.032024048   -4.580423  -34.297478 -103.239690 -119.951645    0.000000    0.000000    0.000000    0.000000
  0.032224449   -4.578677  -34.525391 -103.530720 -122.482132    0.000000    0.000000    0.000000    0.000000
  0.032424850   -4.580293  -34.723850 -102.413374 -127.084633    0.000000    0.000000    0.000000    0.000000
  0.032625251   -4.582640  -34.936890 -106.256592 -140.553146    0.000000    0.000000    0.000000    0.000000
  0.032825651   -4.581705  -35.142372 -103.324656 -124.236099    0.000000    0.000000    0.000000    0.000000
  0.033026052   -4.584579  -35.362213 -105.443598 -134.254135    0.000000    0.000000    0.000000    0.000000
  0.033226453   -4.583387  -35.591797 -101.564206 -129.265900    0.000000    0.000000    0.000000    0.000000
  0.033426854   -4.584287  -35.800922 -104.323179 -135.895676    0.000000    0.000000    0.000000    0.000000
  0.033627255   -4.584400  -36.012871 -101.334656 -146.167175    0.000000    0.000000    0.000000    0.000000
  0.033827655   -4.584868  -36.235180 -104.766408 -113.037987    0.000000    0.000000    0.000000    0.000000
  0.034028056   -4.586669  -36.444111 -102.251191 -117.773483    0.000000    0.000000    0.000000    0.000000
  0.034228457   -4.587818  -36.646976 -102.335426 -135.941452    0.000000    0.000000    0.000000    0.000000
  0.034428858   -4.587584  -36.873589 -105.884837 -125.981133    0.000000    0.000000    0.000000    0.000000
  0.034629259   -4.589319  -37.086811 -102.692288 -153.065369    0.000000    0.000000    0.000000    0.000000
  0.034829659   -4.587577  -37.295338 -105.323362 -136.052856    0.000000    0.000000    0.000000    0.000000
  0.035030060   -4.588041  -37.531704 -103.766385 -127.276543    0.000000    0.000000    0.000000    0.000000
  0.035230461   -4.589731  -37.737988 -105.189027 -144.087265    0.000000    0.000000    0.000000    0.000000
  0.035430862   -4.587878  -37.964661 -101.946609 -134.976074    0.000000    0.000000    0.000000    0.000000
  0.035631263   -4.589986  -38.168350 -103.290238 -141.948959    0.000000    0.000000    0.000000    0.000000
  0.035831663   -4.589647  -38.385345 -102.961562 -137.063232    0.000000    0.000000    0.000000    0.000000
  0.036032064   -4.590183  -38.603237 -106.478887 -161.056824    0.000000    0.000000    0.000000    0.000000
  0.036232465   -4.591464  -38.823021 -105.774043 -135.997482    0.000000    0.000000    0.000000    0.000000
  0.036432866   -4.591372  -39.033081 -105.120250 -140.160858    0.000000    0.000000    0.000000    0.000000
  0.036633267   -4.590163  -39.253677 -104.276643 -140.101227    0.000000    0.000000    0.000000    0.000000
  0.036833667   -4.593002  -39.472092 -103.323724 -134.991989    0.000000    0.000000    0.000000    0.000000
  0.037034068   -4.593897  -39.687897 -103.136971 -147.187363    0.000000    0.000000    0.000000    0.000000
  0.037234469   -4.592116  -39.900692 -107.687898 -140.961746    0.000000    0.000000    0.000000    0.000000
  0.037434870   -4.594226  -40.120171 -107.543039 -149.729706    0.000000    0.000000    0.000000    0.000000
  0.037635271   -4.594892  -40.337360 -102.596128 -152.173126    0.000000    0.000000    0.000000    0.000000
  0.037835671   -4.596135  -40.563526 -106.986970 -163.106796    0.000000    0.000000    0.000000    0.000000
  0.038036072   -4.597496  -40.772057 -103.946673 -146.230545    0.000000    0.000000    0.000000    0.000000
  0.038236473   -4.596042  -40.989399 -104.642423 -129.864670    0.000000    0.000000    0.000000    0.000000
  0.038436874   -4.597978  -41.217403 -102.416179 -134.761948    0.000000    0.000000    0.000000    0.000000
  0.038637275   -4.597417  -41.428905 -105.216924 -141.357071    0.000000    0.000000    0.000000    0.000000
  0.038837675   -4.599648  -41.654198 -103.584199 -166.679108    0.000000    0.000000    0.000000    0.000000
  0.039038076   -4.599303  -41.867256 -106.440582 -157.341095    0.000000    0.000000    0.000000    0.000000
  0.039238477   -4.599905  -42.090065 -106.293361 -147.399765    0.000000    0.000000    0.000000    0.000000
  0.039438878   -4.600926  -42.305012 -105.733115 -154.682053    0.000000    0.000000    0.000000    0.000000
  0.039639279   -4.599021  -42.506485 -104.303466 -164.864517    0.000000    0.000000    0.000000    0.000000
  0.039839679   -4.603246  -42.738182 -106.450745 -146.718155    0.000000    0.000000    0.000000    0.000000
  0.040040080   -4.601576  -42.941006 -106.010723  178.364807    0.000000    0.000000    0.000000    0.000000
  0.040240481   -4.604631  -43.171513 -102.880664 -168.408432    0.000000    0.000000    0.000000    0.000000
  0.040440882   -4.603462  -43.394386 -103.814134 -166.075562    0.000000    0.000000    0.000000    0.000000
  0.040641283   -4.604051  -43.608639 -111.348831 -132.818619    0.000000    0.000000    0.000000    0.000000
  0.040841683   -4.605533  -43.820435 -104.033283 -161.432220    0.000000    0.000000    0.000000    0.000000
  0.041042084   -4.604689  -44.038258 -105.075551 -168.124146    0.000000    0.000000    0.000000    0.000000
  0.041242485   -4.605929  -44.254471 -102.902721 -157.623077    0.000000    0.000000    0.000000    0.000000
  0.041442886   -4.607641  -44.463959 -107.020331 -156.975296    0.000000    0.000000    0.000000    0.000000
  0.041643287   -4.607785  -44.695824 -106.999149 -159.267212    0.000000    0.000000    0.000000    0.000000
  0.041843687   -4.608126  -44.912468 -105.177458 -161.712280    0.000000    0.000000    0.000000    0.000000
  0.042044088   -4.608607  -45.123001 -105.673474  171.901337    0.000000    0.000000    0.000000    0.000000
  0.042244489   -4.607926  -45.345844 -106.095304 -149.539841    0.000000    0.000000    0.000000    0.000000
  0.042444890   -4.610260  -45.565342 -105.993024 -163.249573    0.000000    0.000000    0.000000    0.000000
  0.042645291   -4.609147  -45.770260 -105.328012  173.418930    0.000000    0.000000    0.000000    0.000000
  0.042845691   -4.609240  -45.994347 -104.512226 -165.247955    0.000000    0.000000    0.000000    0.000000
  0.043046092   -4.609362  -46.223488 -106.197159 -179.495041    0.000000    0.000000    0.000000    0.000000
  0.043246493   -4.611442  -46.433830 -106.436602  167.499619    0.000000    0.000000    0.000000    0.000000
  0.043446894   -4.612534  -46.649960 -105.439622 -176.801865    0.000000    0.000000    0.000000    0.000000
  0.043647295   -4.610850  -46.863846 -106.628253 -158.271545    0.000000    0.000000    0.000000    0.000000
  0.043847695   -4.612394  -47.088379 -105.779129 -168.307281    0.000000    0.000000    0.000000    0.000000
  0.044048096   -4.610384  -47.299461 -103.495638  146.239548    0.000000    0.000000    0.000000    0.000000
  0.044248497   -4.611850  -47.531132 -108.753723 -178.744400    0.000000    0.000000    0.000000    0.000000
  0.044448898   -4.612593  -47.743587 -105.874779 -162.834106    0.000000    0.000000    0.000000    0.000000
  0.044649299   -4.613071  -47.953545 -105.032334  177.816223    0.000000    0.000000    0.000000    0.000000
  0.044849699   -4.612862  -48.177601 -103.916978  162.007202    0.000000    0.000000    0.000000    0.000000
  0.045050100   -4.612401  -48.391788 -107.652646 -173.435776    0.000000    0.000000    0.000000    0.000000
  0.045250501   -4.614241  -48.616283 -104.741111  161.537521    0.000000    0.000000    0.000000    0.000000
  0.045450902   -4.616178  -48.838001 -105.844722  153.692123    0.000000    0.000000    0.000000    0.000000
  0.045651303   -4.615038  -49.060921 -106.083912  162.361847    0.000000    0.000000    0.000000    0.000000
  0.045851703   -4.615096  -49.277527 -105.627596  169.757538    0.000000    0.000000    0.000000    0.000000
  0.046052104   -4.615346  -49.488625 -103.666304  152.453918    0.000000    0.000000    0.000000    0.000000
  0.046252505   -4.615830  -49.720398 -108.624773  179.136383    0.000000    0.000000    0.000000    0.000000
  0.046452906   -4.617569  -49.937553 -105.933867  178.805328    0.000000    0.000000    0.000000    0.000000
  0.046653307   -4.616885  -50.168591 -105.634758  163.716309    0.000000    0.000000    0.000000    0.000000
  0.046853707   -4.618082  -50.384502 -110.104063  143.757416    0.000000    0.000000    0.000000    0.000000
  0.047054108   -4.616934  -50.616280 -105.171067  158.113876    0.000000    0.000000    0.000000    0.000000
  0.047254509   -4.618406  -50.841335 -104.148364  146.945694    0.000000    0.000000    0.000000    0.000000
  0.047454910   -4.619520  -51.034683 -106.272569  127.944756    0.000000    0.000000    0.000000    0.000000
  0.047655311   -4.617716  -51.271137 -104.453498  146.437195    0.000000    0.000000    0.000000    0.000000
  0.047855711   -4.617688  -51.485062 -108.242009  173.679871    0.000000    0.000000    0.000000    0.000000
  0.048056112   -4.619496  -51.713139 -106.101134  157.318588    0.000000    0.000000    0.000000    0.000000
  0.048256513   -4.619587  -51.927044 -106.664950  155.704041    0.000000    0.000000    0.000000    0.000000
  0.048456914   -4.618720  -52.163891 -104.863744  158.172150    0.000000    0.000000    0.000000    0.000000
  0.048657315   -4.620709  -52.370640 -105.859878  132.919647    0.000000    0.000000    0.000000    0.000000
  0.048857715   -4.620085  -52.589478 -105.756268  128.084991    0.000000    0.000000    0.000000    0.000000
  0.049058116   -4.620866  -52.810307 -107.359628  126.352394    0.000000    0.000000    0.000000    0.000000
  0.049258517   -4.620239  -53.033726 -105.524607  137.184418    0.000000    0.000000    0.000000    0.000000
  0.049458918   -4.620100  -53.252346 -105.762298  140.836090    0.000000    0.000000    0.000000    0.000000
  0.049659319   -4.621876  -53.458313 -105.568218  130.057770    0.000000    0.000000    0.000000    0.000000
  0.049859719   -4.621718  -53.697418 -109.125390  140.091019    0.000000    0.000000    0.000000    0.000000
  0.050060120   -4.622848  -53.909306 -106.282087  130.801041    0.000000    0.000000    0.000000    0.000000
  0.050260521   -4.624384  -54.132843 -105.199416  135.612457    0.000000    0.000000    0.000000    0.000000
  0.050460922   -4.622632  -54.352047 -108.506214  126.863007    0.000000    0.000000    0.000000    0.000000
  0.050661323   -4.623704  -54.559467 -105.933487  112.123482    0.000000    0.000000    0.000000    0.000000
  0.050861723   -4.624829  -54.783234 -105.829771  137.238937    0.000000    0.000000    0.000000    0.000000
  0.051062124   -4.626086  -54.998806 -104.442301  109.964485    0.000000    0.000000    0.000000    0.000000
  0.051262525   -4.625277  -55.225246 -105.978548  122.899010    0.000000    0.000000    0.000000    0.000000
  0.051462926   -4.626732  -55.446907 -107.246569  133.139587    0.000000    0.000000    0.000000    0.000000
  0.051663327   -4.627250  -55.668488 -106.349228   99.161926    0.000000    0.000000    0.000000    0.000000
  0.051863727   -4.627382  -55.879562 -106.516112  101.275970    0.000000    0.000000    0.000000    0.000000
  0.052064128   -4.627176  -56.103027 -107.067808  108.355484    0.000000    0.000000    0.000000    0.000000
  0.052264529   -4.627228  -56.319248 -109.451928  112.396729    0.000000    0.000000    0.000000    0.000000
  0.052464930   -4.627984  -56.532207 -104.969488  110.552139    0.000000    0.000000    0.000000    0.000000
  0.052665331   -4.628878  -56.759380 -107.158752  103.395142    0.000000    0.000000    0.000000    0.000000
  0.052865731   -4.631298  -56.972481 -108.435283  131.009308    0.000000    0.000000    0.000000    0.000000
