! Anritsu VNA Master:                     Model: MS2036C/10/77
! SN:                                  1601066
! /card0/usr/bot.s11.19p46.s2p
! Existing Calibration Information:
! TYPE:                         Current Settings,       Active Cal Settings
! TIME:             	   05/23/2018 11:48:39 AM,    05/23/2018 11:36:58 AM
! INTERNAL TEMP:    	                   48.3 C,                    48.8 C
! # POINTS:         	                      500,                       500
! START FREQ:       	               20.000 MHz,                20.000 MHz
! STOP FREQ:        	              120.000 MHz,               120.000 MHz
! SOURCE POWER:     	                     High,                      High
! IFBW:             	                    50 Hz,                     50 Hz
! AVG FACTOR:       	                       1 ,                        1 
! REF PLANE 1:      	                     0 mm,                      0 mm
! REF PLANE 2:      	                     0 mm,                      0 mm
! CAL TYPE:         	                 Full S11,                  Full S11
! CAL METHOD:       	                     SOLT,                      SOLT
! CAL LINE TYPE:    	                     Coax,                      Coax
! DUT PORT 1:       	                K-Conn(M),                 K-Conn(M)
! DUT PORT 2:       	                K-Conn(M),                 K-Conn(M)
! CAL STATUS:       	        OK: Accuracy High,                        --
# GHZ S DB R 50.0
! FREQ.GHZ       S11DB        S11A       S21DB        S21A       S12DB        S12A       S22DB        S22A
  0.020000000   -7.260403  155.676590  -90.615931  -62.183338    0.000000    0.000000    0.000000    0.000000
  0.020200401   -7.262604  155.439865  -90.595912  -64.471970    0.000000    0.000000    0.000000    0.000000
  0.020400802   -7.263663  155.194809  -90.382642  -67.894516    0.000000    0.000000    0.000000    0.000000
  0.020601202   -7.264955  154.959595  -90.629747  -68.360146    0.000000    0.000000    0.000000    0.000000
  0.020801603   -7.263990  154.719635  -90.913865  -68.703758    0.000000    0.000000    0.000000    0.000000
  0.021002004   -7.264456  154.478546  -91.646790  -70.951881    0.000000    0.000000    0.000000    0.000000
  0.021202405   -7.265677  154.247742  -91.834620  -70.966393    0.000000    0.000000    0.000000    0.000000
  0.021402806   -7.266319  154.004044  -91.098338  -76.762428    0.000000    0.000000    0.000000    0.000000
  0.021603206   -7.265838  153.758148  -91.329206  -74.340355    0.000000    0.000000    0.000000    0.000000
  0.021803607   -7.267116  153.516586  -91.544331  -74.064308    0.000000    0.000000    0.000000    0.000000
  0.022004008   -7.268202  153.295090  -91.357955  -77.613518    0.000000    0.000000    0.000000    0.000000
  0.022204409   -7.269494  153.050446  -91.518622  -77.562767    0.000000    0.000000    0.000000    0.000000
  0.022404810   -7.268480  152.814056  -91.593722  -80.441978    0.000000    0.000000    0.000000    0.000000
  0.022605210   -7.268381  152.579453  -92.331617  -83.027000    0.000000    0.000000    0.000000    0.000000
  0.022805611   -7.270619  152.331955  -91.824041  -87.231781    0.000000    0.000000    0.000000    0.000000
  0.023006012   -7.271987  152.107178  -92.829988  -86.998428    0.000000    0.000000    0.000000    0.000000
  0.023206413   -7.271699  151.857071  -92.073500  -86.119392    0.000000    0.000000    0.000000    0.000000
  0.023406814   -7.274699  151.619659  -92.333068  -88.682251    0.000000    0.000000    0.000000    0.000000
  0.023607214   -7.274784  151.376816  -92.992455  -90.370049    0.000000    0.000000    0.000000    0.000000
  0.023807615   -7.274833  151.141998  -92.995242  -89.665970    0.000000    0.000000    0.000000    0.000000
  0.024008016   -7.273910  150.895203  -93.104254  -96.640823    0.000000    0.000000    0.000000    0.000000
  0.024208417   -7.273506  150.660233  -93.027115  -94.203506    0.000000    0.000000    0.000000    0.000000
  0.024408818   -7.273973  150.418869  -93.178848  -95.760765    0.000000    0.000000    0.000000    0.000000
  0.024609218   -7.276388  150.172913  -92.858695  -95.717407    0.000000    0.000000    0.000000    0.000000
  0.024809619   -7.275773  149.937469  -93.702571  -97.534859    0.000000    0.000000    0.000000    0.000000
  0.025010020   -7.277584  149.695679  -93.748182 -103.529114    0.000000    0.000000    0.000000    0.000000
  0.025210421   -7.278092  149.467041  -93.589720  -99.700859    0.000000    0.000000    0.000000    0.000000
  0.025410822   -7.277872  149.221725  -94.651970 -104.519882    0.000000    0.000000    0.000000    0.000000
  0.025611222   -7.280788  148.999207  -94.027836 -108.745407    0.000000    0.000000    0.000000    0.000000
  0.025811623   -7.280239  148.743088  -94.425431 -105.534004    0.000000    0.000000    0.000000    0.000000
  0.026012024   -7.279692  148.513504  -94.177251 -103.730637    0.000000    0.000000    0.000000    0.000000
  0.026212425   -7.281129  148.271851  -94.343448 -100.703270    0.000000    0.000000    0.000000    0.000000
  0.026412826   -7.281741  148.031006  -94.271163 -111.726585    0.000000    0.000000    0.000000    0.000000
  0.026613226   -7.281132  147.791901  -94.492935 -107.623878    0.000000    0.000000    0.000000    0.000000
  0.026813627   -7.280581  147.538467  -94.779215 -113.633812    0.000000    0.000000    0.000000    0.000000
  0.027014028   -7.283201  147.300995  -95.199385 -112.293411    0.000000    0.000000    0.000000    0.000000
  0.027214429   -7.281030  147.060471  -95.395614 -115.259567    0.000000    0.000000    0.000000    0.000000
  0.027414830   -7.283763  146.838654  -95.117452 -116.653908    0.000000    0.000000    0.000000    0.000000
  0.027615230   -7.282455  146.593689  -95.229885 -116.121277    0.000000    0.000000    0.000000    0.000000
  0.027815631   -7.283355  146.359116  -95.902650 -122.428802    0.000000    0.000000    0.000000    0.000000
  0.028016032   -7.281421  146.129211  -95.445765 -116.295540    0.000000    0.000000    0.000000    0.000000
  0.028216433   -7.284411  145.879501  -95.686322 -122.015907    0.000000    0.000000    0.000000    0.000000
  0.028416834   -7.284727  145.647232  -95.772953 -117.643028    0.000000    0.000000    0.000000    0.000000
  0.028617234   -7.283867  145.418350  -95.262138 -126.573364    0.000000    0.000000    0.000000    0.000000
  0.028817635   -7.282979  145.176407  -96.710731 -127.576691    0.000000    0.000000    0.000000    0.000000
  0.029018036   -7.282696  144.937973  -96.535004 -124.126083    0.000000    0.000000    0.000000    0.000000
  0.029218437   -7.281269  144.699493  -96.970805 -129.671204    0.000000    0.000000    0.000000    0.000000
  0.029418838   -7.283135  144.470764  -96.601026 -125.582169    0.000000    0.000000    0.000000    0.000000
  0.029619238   -7.282373  144.231384  -97.698801 -131.388947    0.000000    0.000000    0.000000    0.000000
  0.029819639   -7.281096  144.001831  -97.798575 -138.751190    0.000000    0.000000    0.000000    0.000000
  0.030020040   -7.280159  143.764771  -97.855970 -132.691437    0.000000    0.000000    0.000000    0.000000
  0.030220441   -7.280170  143.523087  -97.210896 -134.532806    0.000000    0.000000    0.000000    0.000000
  0.030420842   -7.279855  143.289825  -97.416618 -134.148605    0.000000    0.000000    0.000000    0.000000
  0.030621242   -7.278152  143.047043  -97.540054 -139.947205    0.000000    0.000000    0.000000    0.000000
  0.030821643   -7.278280  142.811508  -97.658377 -142.974228    0.000000    0.000000    0.000000    0.000000
  0.031022044   -7.277587  142.573883  -97.596555 -138.961960    0.000000    0.000000    0.000000    0.000000
  0.031222445   -7.260779  142.414642  -98.112949 -145.765533    0.000000    0.000000    0.000000    0.000000
  0.031422846   -7.261954  142.159515  -98.906599 -149.559906    0.000000    0.000000    0.000000    0.000000
  0.031623246   -7.262430  141.932922  -98.348946 -145.318863    0.000000    0.000000    0.000000    0.000000
  0.031823647   -7.261999  141.684692  -98.535524 -141.775848    0.000000    0.000000    0.000000    0.000000
  0.032024048   -7.262793  141.443741  -97.926706 -152.052490    0.000000    0.000000    0.000000    0.000000
  0.032224449   -7.262388  141.193527  -97.889308 -153.643814    0.000000    0.000000    0.000000    0.000000
  0.032424850   -7.261229  140.963364  -97.971102 -153.299408    0.000000    0.000000    0.000000    0.000000
  0.032625251   -7.262055  140.706924  -97.746300 -152.956482    0.000000    0.000000    0.000000    0.000000
  0.032825651   -7.261120  140.464569  -98.652213 -156.282654    0.000000    0.000000    0.000000    0.000000
  0.033026052   -7.263060  140.228531  -98.397870 -147.679733    0.000000    0.000000    0.000000    0.000000
  0.033226453   -7.264283  139.973068  -99.500329 -151.933807    0.000000    0.000000    0.000000    0.000000
  0.033426854   -7.263806  139.743942  -99.255329 -154.262970    0.000000    0.000000    0.000000    0.000000
  0.033627255   -7.264408  139.505905  -99.566558 -165.453125    0.000000    0.000000    0.000000    0.000000
  0.033827655   -7.264353  139.259888  -98.577598 -158.570679    0.000000    0.000000    0.000000    0.000000
  0.034028056   -7.264683  139.023895  -99.276923 -164.816055    0.000000    0.000000    0.000000    0.000000
  0.034228457   -7.264660  138.767471  -98.475780 -167.257980    0.000000    0.000000    0.000000    0.000000
  0.034428858   -7.263979  138.538376  -99.036693 -159.150955    0.000000    0.000000    0.000000    0.000000
  0.034629259   -7.261567  138.278854 -100.913861 -165.135559    0.000000    0.000000    0.000000    0.000000
  0.034829659   -7.265323  138.040329  -98.934045 -171.838455    0.000000    0.000000    0.000000    0.000000
  0.035030060   -7.265801  137.815659  -99.064035 -169.299545    0.000000    0.000000    0.000000    0.000000
  0.035230461   -7.263920  137.557465 -100.164262  179.520523    0.000000    0.000000    0.000000    0.000000
  0.035430862   -7.265855  137.328323 -101.402402 -172.936630    0.000000    0.000000    0.000000    0.000000
  0.035631263   -7.264944  137.088623  -99.747207  178.284210    0.000000    0.000000    0.000000    0.000000
  0.035831663   -7.267333  136.839218 -101.102591  172.518478    0.000000    0.000000    0.000000    0.000000
  0.036032064   -7.266423  136.606506 -100.975127  177.591171    0.000000    0.000000    0.000000    0.000000
  0.036232465   -7.267341  136.361816 -101.334624 -171.877213    0.000000    0.000000    0.000000    0.000000
  0.036432866   -7.267160  136.118805 -100.698574  178.746307    0.000000    0.000000    0.000000    0.000000
  0.036633267   -7.267784  135.883698 -101.936868  177.387268    0.000000    0.000000    0.000000    0.000000
  0.036833667   -7.266267  135.652725 -100.227513 -179.731689    0.000000    0.000000    0.000000    0.000000
  0.037034068   -7.267410  135.402863 -101.612064  170.595322    0.000000    0.000000    0.000000    0.000000
  0.037234469   -7.268851  135.164642 -101.111153  171.960800    0.000000    0.000000    0.000000    0.000000
  0.037434870   -7.267846  134.931610  -99.903417 -177.229889    0.000000    0.000000    0.000000    0.000000
  0.037635271   -7.264128  134.696228 -100.483284 -179.900284    0.000000    0.000000    0.000000    0.000000
  0.037835671   -7.265440  134.451538 -102.022227  172.271393    0.000000    0.000000    0.000000    0.000000
  0.038036072   -7.266109  134.225983 -102.189120  164.384308    0.000000    0.000000    0.000000    0.000000
  0.038236473   -7.267571  133.991791 -101.320049  152.756500    0.000000    0.000000    0.000000    0.000000
  0.038436874   -7.264555  133.755630 -100.403466  168.135010    0.000000    0.000000    0.000000    0.000000
  0.038637275   -7.265498  133.510513 -104.545252 -167.399551    0.000000    0.000000    0.000000    0.000000
  0.038837675   -7.265407  133.297501 -101.157523  171.254745    0.000000    0.000000    0.000000    0.000000
  0.039038076   -7.267115  133.046753 -101.265741  165.339294    0.000000    0.000000    0.000000    0.000000
  0.039238477   -7.266612  132.807571 -102.735355  148.571823    0.000000    0.000000    0.000000    0.000000
  0.039438878   -7.264741  132.577911 -102.026276  160.529495    0.000000    0.000000    0.000000    0.000000
  0.039639279   -7.264338  132.318695 -100.480490  149.592789    0.000000    0.000000    0.000000    0.000000
  0.039839679   -7.264056  132.079773 -102.216698  174.415451    0.000000    0.000000    0.000000    0.000000
  0.040040080   -7.264344  131.852417 -102.357995  155.117523    0.000000    0.000000    0.000000    0.000000
  0.040240481   -7.263139  131.616226 -103.401723  156.539841    0.000000    0.000000    0.000000    0.000000
  0.040440882   -7.264151  131.377991 -102.885947  160.054657    0.000000    0.000000    0.000000    0.000000
  0.040641283   -7.264160  131.158997 -102.296883  157.754318    0.000000    0.000000    0.000000    0.000000
  0.040841683   -7.263647  130.915375 -102.731696  145.081467    0.000000    0.000000    0.000000    0.000000
  0.041042084   -7.263355  130.684906 -104.698985  138.265060    0.000000    0.000000    0.000000    0.000000
  0.041242485   -7.261184  130.443451 -101.463729  151.217514    0.000000    0.000000    0.000000    0.000000
  0.041442886   -7.261841  130.213043 -102.161985  147.196838    0.000000    0.000000    0.000000    0.000000
  0.041643287   -7.259655  129.985764 -102.986106  139.695984    0.000000    0.000000    0.000000    0.000000
  0.041843687   -7.263144  129.745789 -103.761602  146.781921    0.000000    0.000000    0.000000    0.000000
  0.042044088   -7.259847  129.524216 -105.508702  144.434479    0.000000    0.000000    0.000000    0.000000
  0.042244489   -7.263177  129.263779 -105.837526  144.698257    0.000000    0.000000    0.000000    0.000000
  0.042444890   -7.260548  129.045761 -104.400310  145.849854    0.000000    0.000000    0.000000    0.000000
  0.042645291   -7.258845  128.807678 -103.026609  142.627777    0.000000    0.000000    0.000000    0.000000
  0.042845691   -7.260865  128.580261 -103.153345  133.152725    0.000000    0.000000    0.000000    0.000000
  0.043046092   -7.261842  128.347519 -104.055934  140.277084    0.000000    0.000000    0.000000    0.000000
  0.043246493   -7.261002  128.098831 -105.695306  134.313461    0.000000    0.000000    0.000000    0.000000
  0.043446894   -7.260419  127.857384 -103.134068  136.920471    0.000000    0.000000    0.000000    0.000000
  0.043647295   -7.260591  127.616417 -102.521049  141.639664    0.000000    0.000000    0.000000    0.000000
  0.043847695   -7.258716  127.394188 -105.466619  136.223663    0.000000    0.000000    0.000000    0.000000
  0.044048096   -7.260791  127.150993 -104.721521  116.148216    0.000000    0.000000    0.000000    0.000000
  0.044248497   -7.258753  126.910080 -105.099918  134.077972    0.000000    0.000000    0.000000    0.000000
  0.044448898   -7.257966  126.671211 -104.346383  137.856461    0.000000    0.000000    0.000000    0.000000
  0.044649299   -7.259675  126.442345 -104.875878  129.900742    0.000000    0.000000    0.000000    0.000000
  0.044849699   -7.259462  126.199043 -104.315150  119.926384    0.000000    0.000000    0.000000    0.000000
  0.045050100   -7.258403  125.970589 -102.613380  123.845757    0.000000    0.000000    0.000000    0.000000
  0.045250501   -7.256076  125.728996 -104.193244  124.605179    0.000000    0.000000    0.000000    0.000000
  0.045450902   -7.253934  125.496925 -101.876385  125.711189    0.000000    0.000000    0.000000    0.000000
  0.045651303   -7.255497  125.269821 -103.964004  121.679482    0.000000    0.000000    0.000000    0.000000
  0.045851703   -7.256003  125.013542 -103.842892  102.379745    0.000000    0.000000    0.000000    0.000000
  0.046052104   -7.253944  124.776024 -104.323692  131.520996    0.000000    0.000000    0.000000    0.000000
  0.046252505   -7.255788  124.544510 -105.041399  113.354187    0.000000    0.000000    0.000000    0.000000
  0.046452906   -7.256677  124.304131 -104.083548  114.918846    0.000000    0.000000    0.000000    0.000000
  0.046653307   -7.255687  124.067802 -105.061141  110.504631    0.000000    0.000000    0.000000    0.000000
  0.046853707   -7.254307  123.826820 -107.716806  125.737389    0.000000    0.000000    0.000000    0.000000
  0.047054108   -7.253190  123.585350 -104.229466  113.651680    0.000000    0.000000    0.000000    0.000000
  0.047254509   -7.251142  123.363022 -110.520157  113.933266    0.000000    0.000000    0.000000    0.000000
  0.047454910   -7.252109  123.109253 -105.856030  113.129982    0.000000    0.000000    0.000000    0.000000
  0.047655311   -7.252055  122.872879 -108.053503   78.907013    0.000000    0.000000    0.000000    0.000000
  0.047855711   -7.251195  122.643753 -107.282102   99.959404    0.000000    0.000000    0.000000    0.000000
  0.048056112   -7.248512  122.394051 -103.744190   87.430763    0.000000    0.000000    0.000000    0.000000
  0.048256513   -7.245880  122.156578 -108.363367   98.551140    0.000000    0.000000    0.000000    0.000000
  0.048456914   -7.246915  121.925789 -104.712558  119.123871    0.000000    0.000000    0.000000    0.000000
  0.048657315   -7.244888  121.687225 -107.167532   96.915421    0.000000    0.000000    0.000000    0.000000
  0.048857715   -7.244542  121.453552 -106.373257   88.993759    0.000000    0.000000    0.000000    0.000000
  0.049058116   -7.242875  121.201927 -106.961859   84.606438    0.000000    0.000000    0.000000    0.000000
  0.049258517   -7.244153  120.976410 -103.733454   89.058578    0.000000    0.000000    0.000000    0.000000
  0.049458918   -7.242819  120.737267 -109.988584   63.960625    0.000000    0.000000    0.000000    0.000000
  0.049659319   -7.242299  120.491844 -107.897263   94.017609    0.000000    0.000000    0.000000    0.000000
  0.049859719   -7.238882  120.287842 -105.771653   98.954323    0.000000    0.000000    0.000000    0.000000
  0.050060120   -7.242212  120.040100 -107.266352   76.677483    0.000000    0.000000    0.000000    0.000000
  0.050260521   -7.238794  119.803009 -108.999431  107.776955    0.000000    0.000000    0.000000    0.000000
  0.050460922   -7.238540  119.579704 -104.438247   92.776337    0.000000    0.000000    0.000000    0.000000
  0.050661323   -7.240012  119.333511 -106.135683  116.023041    0.000000    0.000000    0.000000    0.000000
  0.050861723   -7.238652  119.082870 -109.161010   71.069809    0.000000    0.000000    0.000000    0.000000
  0.051062124   -7.238240  118.880180 -105.816617   77.686737    0.000000    0.000000    0.000000    0.000000
  0.051262525   -7.240164  118.630112 -107.336869  103.986572    0.000000    0.000000    0.000000    0.000000
  0.051462926   -7.234421  118.391106 -109.911007   84.469139    0.000000    0.000000    0.000000    0.000000
  0.051663327   -7.237350  118.160698 -106.631755   99.688828    0.000000    0.000000    0.000000    0.000000
  0.051863727   -7.233394  117.919525 -104.421350   83.476082    0.000000    0.000000    0.000000    0.000000
  0.052064128   -7.236710  117.675415 -105.107164   88.145500    0.000000    0.000000    0.000000    0.000000
  0.052264529   -7.235957  117.456779 -106.148312   71.692253    0.000000    0.000000    0.000000    0.000000
  0.052464930   -7.233095  117.201675 -105.098985   70.673439    0.000000    0.000000    0.000000    0.000000
  0.052665331   -7.231669  116.990417 -104.468452   73.242523    0.000000    0.000000    0.000000    0.000000
  0.052865731   -7.230900  116.744774 -108.527844   91.280449    0.000000    0.000000    0.000000    0.000000
