! Anritsu VNA Master:                     Model: MS2036C/10/77
! SN:                                  1601066
! /card0/usr/bot.s11.66pf.s2p
! Existing Calibration Information:
! TYPE:                         Current Settings,       Active Cal Settings
! TIME:             	   05/23/2018 11:54:57 AM,    05/23/2018 11:36:58 AM
! INTERNAL TEMP:    	                   48.3 C,                    48.8 C
! # POINTS:         	                      500,                       500
! START FREQ:       	               20.000 MHz,                20.000 MHz
! STOP FREQ:        	              120.000 MHz,               120.000 MHz
! SOURCE POWER:     	                     High,                      High
! IFBW:             	                    50 Hz,                     50 Hz
! AVG FACTOR:       	                       1 ,                        1 
! REF PLANE 1:      	                     0 mm,                      0 mm
! REF PLANE 2:      	                     0 mm,                      0 mm
! CAL TYPE:         	                 Full S11,                  Full S11
! CAL METHOD:       	                     SOLT,                      SOLT
! CAL LINE TYPE:    	                     Coax,                      Coax
! DUT PORT 1:       	                K-Conn(M),                 K-Conn(M)
! DUT PORT 2:       	                K-Conn(M),                 K-Conn(M)
! CAL STATUS:       	        OK: Accuracy High,                        --
# GHZ S DB R 50.0
! FREQ.GHZ       S11DB        S11A       S21DB        S21A       S12DB        S12A       S22DB        S22A
  0.020000000   -0.038336  -67.243942  -95.116101  -53.626896    0.000000    0.000000    0.000000    0.000000
  0.020200401   -0.037967  -67.883553  -95.576540  -55.182865    0.000000    0.000000    0.000000    0.000000
  0.020400802   -0.039137  -68.509628  -94.943484  -57.477608    0.000000    0.000000    0.000000    0.000000
  0.020601202   -0.040154  -69.136391  -95.903996  -60.778419    0.000000    0.000000    0.000000    0.000000
  0.020801603   -0.041342  -69.779060  -94.454758  -63.024101    0.000000    0.000000    0.000000    0.000000
  0.021002004   -0.042556  -70.410942  -94.726277  -60.606892    0.000000    0.000000    0.000000    0.000000
  0.021202405   -0.042405  -71.036324  -95.279248  -61.997784    0.000000    0.000000    0.000000    0.000000
  0.021402806   -0.043283  -71.664070  -96.166690  -60.526131    0.000000    0.000000    0.000000    0.000000
  0.021603206   -0.045172  -72.298485  -95.974823  -65.383102    0.000000    0.000000    0.000000    0.000000
  0.021803607   -0.046087  -72.913521  -95.483364  -59.903122    0.000000    0.000000    0.000000    0.000000
  0.022004008   -0.046029  -73.541397  -96.101495  -70.139366    0.000000    0.000000    0.000000    0.000000
  0.022204409   -0.047331  -74.166206  -94.995850  -56.831081    0.000000    0.000000    0.000000    0.000000
  0.022404810   -0.046917  -74.805954  -95.903500  -73.858261    0.000000    0.000000    0.000000    0.000000
  0.022605210   -0.048035  -75.422340  -96.273037  -62.068970    0.000000    0.000000    0.000000    0.000000
  0.022805611   -0.046484  -76.042953  -96.103612  -65.156418    0.000000    0.000000    0.000000    0.000000
  0.023006012   -0.047713  -76.669304  -96.455986  -64.428322    0.000000    0.000000    0.000000    0.000000
  0.023206413   -0.049166  -77.293930  -96.109196  -64.367661    0.000000    0.000000    0.000000    0.000000
  0.023406814   -0.050415  -77.903442  -96.454434  -69.434425    0.000000    0.000000    0.000000    0.000000
  0.023607214   -0.050057  -78.530769  -97.106059  -62.715069    0.000000    0.000000    0.000000    0.000000
  0.023807615   -0.048613  -79.158615  -95.592129  -67.890945    0.000000    0.000000    0.000000    0.000000
  0.024008016   -0.049496  -79.781418  -96.657238  -67.599800    0.000000    0.000000    0.000000    0.000000
  0.024208417   -0.050506  -80.396072  -96.601791  -70.952919    0.000000    0.000000    0.000000    0.000000
  0.024408818   -0.051528  -81.012436  -97.067872  -71.393837    0.000000    0.000000    0.000000    0.000000
  0.024609218   -0.052549  -81.620796  -96.788213  -71.255028    0.000000    0.000000    0.000000    0.000000
  0.024809619   -0.053045  -82.250809  -96.224564  -71.970940    0.000000    0.000000    0.000000    0.000000
  0.025010020   -0.052709  -82.865356  -96.509440  -69.104118    0.000000    0.000000    0.000000    0.000000
  0.025210421   -0.052686  -83.480484  -95.728426  -74.861153    0.000000    0.000000    0.000000    0.000000
  0.025410822   -0.053422  -84.096245  -96.953595  -78.195290    0.000000    0.000000    0.000000    0.000000
  0.025611222   -0.052365  -84.710152  -96.514450  -77.546021    0.000000    0.000000    0.000000    0.000000
  0.025811623   -0.053794  -85.331711  -96.591643  -76.218582    0.000000    0.000000    0.000000    0.000000
  0.026012024   -0.055058  -85.942787  -97.270020  -75.604683    0.000000    0.000000    0.000000    0.000000
  0.026212425   -0.054629  -86.561127  -96.174370  -85.568771    0.000000    0.000000    0.000000    0.000000
  0.026412826   -0.056570  -87.173897  -97.690309  -74.819916    0.000000    0.000000    0.000000    0.000000
  0.026613226   -0.056894  -87.770157  -95.863166  -80.268295    0.000000    0.000000    0.000000    0.000000
  0.026813627   -0.059777  -88.387016  -96.650061  -73.942253    0.000000    0.000000    0.000000    0.000000
  0.027014028   -0.059279  -88.992584  -96.479961  -79.479248    0.000000    0.000000    0.000000    0.000000
  0.027214429   -0.060188  -89.614052  -95.837881  -78.014328    0.000000    0.000000    0.000000    0.000000
  0.027414830   -0.061749  -90.215111  -96.798049  -81.826935    0.000000    0.000000    0.000000    0.000000
  0.027615230   -0.063615  -90.824593  -97.538855  -74.643341    0.000000    0.000000    0.000000    0.000000
  0.027815631   -0.065927  -91.426483  -97.231284  -84.291267    0.000000    0.000000    0.000000    0.000000
  0.028016032   -0.067991  -92.046394  -97.023169  -85.877693    0.000000    0.000000    0.000000    0.000000
  0.028216433   -0.069588  -92.638145  -96.767288  -88.827522    0.000000    0.000000    0.000000    0.000000
  0.028416834   -0.070913  -93.236511  -96.790976  -88.402702    0.000000    0.000000    0.000000    0.000000
  0.028617234   -0.072561  -93.836205  -97.005336  -88.900269    0.000000    0.000000    0.000000    0.000000
  0.028817635   -0.074650  -94.440025  -98.581780  -88.762360    0.000000    0.000000    0.000000    0.000000
  0.029018036   -0.077648  -95.039513  -97.050958  -94.134560    0.000000    0.000000    0.000000    0.000000
  0.029218437   -0.079510  -95.635918  -97.123729  -88.250786    0.000000    0.000000    0.000000    0.000000
  0.029418838   -0.081758  -96.219917  -96.617287  -96.879311    0.000000    0.000000    0.000000    0.000000
  0.029619238   -0.082222  -96.807487  -97.765500  -90.289642    0.000000    0.000000    0.000000    0.000000
  0.029819639   -0.085642  -97.395279  -97.061068  -97.252274    0.000000    0.000000    0.000000    0.000000
  0.030020040   -0.088562  -97.983971  -96.285638  -95.212082    0.000000    0.000000    0.000000    0.000000
  0.030220441   -0.090908  -98.559982  -97.365155  -99.200737    0.000000    0.000000    0.000000    0.000000
  0.030420842   -0.092154  -99.144226  -97.148533  -95.100266    0.000000    0.000000    0.000000    0.000000
  0.030621242   -0.095254  -99.729111  -96.594874  -96.413284    0.000000    0.000000    0.000000    0.000000
  0.030821643   -0.096163 -100.295258  -96.952947  -94.103180    0.000000    0.000000    0.000000    0.000000
  0.031022044   -0.097925 -100.866920  -96.834525 -105.158920    0.000000    0.000000    0.000000    0.000000
  0.031222445   -0.095794 -101.457428  -97.629732 -102.390892    0.000000    0.000000    0.000000    0.000000
  0.031422846   -0.098219 -102.016174  -97.160347 -105.355057    0.000000    0.000000    0.000000    0.000000
  0.031623246   -0.100200 -102.573502  -97.312721 -105.254112    0.000000    0.000000    0.000000    0.000000
  0.031823647   -0.102357 -103.145119  -98.519233 -108.236588    0.000000    0.000000    0.000000    0.000000
  0.032024048   -0.105263 -103.695625  -97.306901 -108.749832    0.000000    0.000000    0.000000    0.000000
  0.032224449   -0.106235 -104.248505  -98.132129 -114.360214    0.000000    0.000000    0.000000    0.000000
  0.032424850   -0.107918 -104.816887  -97.559543 -119.999474    0.000000    0.000000    0.000000    0.000000
  0.032625251   -0.110460 -105.363144  -98.544511 -108.322601    0.000000    0.000000    0.000000    0.000000
  0.032825651   -0.110851 -105.907059  -97.834629 -108.315704    0.000000    0.000000    0.000000    0.000000
  0.033026052   -0.113190 -106.462334  -97.827295 -121.629303    0.000000    0.000000    0.000000    0.000000
  0.033226453   -0.114794 -107.022278  -97.961453 -124.279228    0.000000    0.000000    0.000000    0.000000
  0.033426854   -0.115290 -107.576431  -99.131066 -118.835716    0.000000    0.000000    0.000000    0.000000
  0.033627255   -0.118625 -108.125526  -97.028198 -123.840385    0.000000    0.000000    0.000000    0.000000
  0.033827655   -0.117531 -108.683998  -98.193889 -121.996605    0.000000    0.000000    0.000000    0.000000
  0.034028056   -0.119492 -109.230797  -97.249429 -120.141975    0.000000    0.000000    0.000000    0.000000
  0.034228457   -0.121243 -109.767677  -97.983441 -126.886719    0.000000    0.000000    0.000000    0.000000
  0.034428858   -0.123100 -110.332077  -97.037674 -136.081177    0.000000    0.000000    0.000000    0.000000
  0.034629259   -0.125309 -110.865387  -97.843455 -127.507828    0.000000    0.000000    0.000000    0.000000
  0.034829659   -0.124672 -111.410423  -98.602593 -128.379639    0.000000    0.000000    0.000000    0.000000
  0.035030060   -0.125048 -111.977043  -97.515577 -134.756622    0.000000    0.000000    0.000000    0.000000
  0.035230461   -0.128134 -112.512680  -98.165018 -132.850479    0.000000    0.000000    0.000000    0.000000
  0.035430862   -0.127855 -113.063072  -98.562963 -134.935135    0.000000    0.000000    0.000000    0.000000
  0.035631263   -0.129631 -113.609619  -97.813289 -129.583435    0.000000    0.000000    0.000000    0.000000
  0.035831663   -0.129591 -114.136292  -98.848393 -140.025375    0.000000    0.000000    0.000000    0.000000
  0.036032064   -0.130120 -114.681564  -98.339337 -141.423553    0.000000    0.000000    0.000000    0.000000
  0.036232465   -0.131977 -115.222900  -97.588349 -150.480408    0.000000    0.000000    0.000000    0.000000
  0.036432866   -0.132283 -115.765381  -98.862342 -140.225845    0.000000    0.000000    0.000000    0.000000
  0.036633267   -0.132077 -116.299942  -96.945677 -143.112000    0.000000    0.000000    0.000000    0.000000
  0.036833667   -0.132577 -116.847855  -98.759006 -147.682663    0.000000    0.000000    0.000000    0.000000
  0.037034068   -0.133789 -117.374207  -99.185570 -151.371475    0.000000    0.000000    0.000000    0.000000
  0.037234469   -0.134251 -117.913177  -98.221256 -143.241013    0.000000    0.000000    0.000000    0.000000
  0.037434870   -0.133218 -118.445244  -97.625759 -147.225662    0.000000    0.000000    0.000000    0.000000
  0.037635271   -0.134820 -118.978737  -98.985752 -150.101334    0.000000    0.000000    0.000000    0.000000
  0.037835671   -0.135247 -119.514954  -99.971557 -146.375839    0.000000    0.000000    0.000000    0.000000
  0.038036072   -0.136706 -120.045700  -99.289571 -149.016525    0.000000    0.000000    0.000000    0.000000
  0.038236473   -0.133999 -120.565010  -97.880573 -155.754181    0.000000    0.000000    0.000000    0.000000
  0.038436874   -0.135922 -121.098419 -100.540758 -157.345093    0.000000    0.000000    0.000000    0.000000
  0.038637275   -0.136047 -121.621338  -99.388144 -159.470566    0.000000    0.000000    0.000000    0.000000
  0.038837675   -0.136306 -122.153633 -100.156051 -163.996201    0.000000    0.000000    0.000000    0.000000
  0.039038076   -0.137132 -122.670181  -98.227689 -165.533463    0.000000    0.000000    0.000000    0.000000
  0.039238477   -0.136077 -123.188553  -99.389833 -166.699707    0.000000    0.000000    0.000000    0.000000
  0.039438878   -0.138404 -123.712631  -98.601796 -160.586639    0.000000    0.000000    0.000000    0.000000
  0.039639279   -0.137742 -124.225899  -98.913564 -166.245010    0.000000    0.000000    0.000000    0.000000
  0.039839679   -0.139959 -124.753624  -99.117010 -171.529770    0.000000    0.000000    0.000000    0.000000
  0.040040080   -0.140399 -125.261543 -100.083393 -161.890991    0.000000    0.000000    0.000000    0.000000
  0.040240481   -0.139908 -125.789871  -98.699806 -173.735916    0.000000    0.000000    0.000000    0.000000
  0.040440882   -0.140791 -126.301697  -99.438227 -175.128403    0.000000    0.000000    0.000000    0.000000
  0.040641283   -0.141383 -126.812363  -99.715035 -172.684265    0.000000    0.000000    0.000000    0.000000
  0.040841683   -0.142932 -127.326584  -99.269154 -172.606888    0.000000    0.000000    0.000000    0.000000
  0.041042084   -0.143413 -127.841782  -99.698252 -179.947372    0.000000    0.000000    0.000000    0.000000
  0.041242485   -0.145573 -128.350479 -100.248499  167.039169    0.000000    0.000000    0.000000    0.000000
  0.041442886   -0.145427 -128.862000  -99.756887  179.602768    0.000000    0.000000    0.000000    0.000000
  0.041643287   -0.147220 -129.382889  -99.083355  171.172897    0.000000    0.000000    0.000000    0.000000
  0.041843687   -0.146926 -129.876053 -100.051581  174.032425    0.000000    0.000000    0.000000    0.000000
  0.042044088   -0.147746 -130.387695 -100.078394  165.292709    0.000000    0.000000    0.000000    0.000000
  0.042244489   -0.149038 -130.881714  -99.854161  172.843628    0.000000    0.000000    0.000000    0.000000
  0.042444890   -0.149704 -131.400574  -98.476014  167.210403    0.000000    0.000000    0.000000    0.000000
  0.042645291   -0.150238 -131.901764  -99.974972  171.908295    0.000000    0.000000    0.000000    0.000000
  0.042845691   -0.149867 -132.401840 -100.032524  167.523361    0.000000    0.000000    0.000000    0.000000
  0.043046092   -0.151661 -132.918686 -100.521913  174.398163    0.000000    0.000000    0.000000    0.000000
  0.043246493   -0.153218 -133.410385  -99.173686  153.579239    0.000000    0.000000    0.000000    0.000000
  0.043446894   -0.155077 -133.912079  -98.145540  166.996582    0.000000    0.000000    0.000000    0.000000
  0.043647295   -0.154695 -134.406387  -99.783183  162.642136    0.000000    0.000000    0.000000    0.000000
  0.043847695   -0.155826 -134.914505 -100.391917  154.926498    0.000000    0.000000    0.000000    0.000000
  0.044048096   -0.156710 -135.408554 -100.637462  164.343887    0.000000    0.000000    0.000000    0.000000
  0.044248497   -0.158025 -135.914566  -99.751739  161.701508    0.000000    0.000000    0.000000    0.000000
  0.044448898   -0.159659 -136.405487  -99.329603  154.693649    0.000000    0.000000    0.000000    0.000000
  0.044649299   -0.162146 -136.893829 -100.774918  151.431870    0.000000    0.000000    0.000000    0.000000
  0.044849699   -0.163205 -137.399643 -101.058519  154.092529    0.000000    0.000000    0.000000    0.000000
  0.045050100   -0.163299 -137.894806 -101.301800  154.644135    0.000000    0.000000    0.000000    0.000000
  0.045250501   -0.164344 -138.398224  -99.942571  144.960129    0.000000    0.000000    0.000000    0.000000
  0.045450902   -0.167308 -138.903732  -99.540599  151.230865    0.000000    0.000000    0.000000    0.000000
  0.045651303   -0.167970 -139.394943 -100.429831  149.420700    0.000000    0.000000    0.000000    0.000000
  0.045851703   -0.170406 -139.880508 -102.110591  140.091080    0.000000    0.000000    0.000000    0.000000
  0.046052104   -0.172199 -140.375137 -101.546690  139.458389    0.000000    0.000000    0.000000    0.000000
  0.046252505   -0.172783 -140.863174  -99.785832  140.432373    0.000000    0.000000    0.000000    0.000000
  0.046452906   -0.173281 -141.362274 -101.207865  139.487061    0.000000    0.000000    0.000000    0.000000
  0.046653307   -0.174832 -141.849564 -100.999679  138.218155    0.000000    0.000000    0.000000    0.000000
  0.046853707   -0.175407 -142.346344 -102.140532  134.068710    0.000000    0.000000    0.000000    0.000000
  0.047054108   -0.171710 -142.814987 -100.197081  131.775620    0.000000    0.000000    0.000000    0.000000
  0.047254509   -0.173397 -143.302704 -102.216848  137.941772    0.000000    0.000000    0.000000    0.000000
  0.047454910   -0.174568 -143.785461  -99.889204  124.496811    0.000000    0.000000    0.000000    0.000000
  0.047655311   -0.173960 -144.271667 -102.124164  122.546707    0.000000    0.000000    0.000000    0.000000
  0.047855711   -0.175011 -144.756714 -101.761729  122.755562    0.000000    0.000000    0.000000    0.000000
  0.048056112   -0.176262 -145.244629 -101.922174  111.675789    0.000000    0.000000    0.000000    0.000000
  0.048256513   -0.177665 -145.720276 -100.056123  139.671280    0.000000    0.000000    0.000000    0.000000
  0.048456914   -0.177853 -146.207443 -102.713977  114.995674    0.000000    0.000000    0.000000    0.000000
  0.048657315   -0.178111 -146.687424 -101.125662  122.611145    0.000000    0.000000    0.000000    0.000000
  0.048857715   -0.179077 -147.164398 -102.362216  118.490257    0.000000    0.000000    0.000000    0.000000
  0.049058116   -0.180385 -147.645203 -101.425248  119.794891    0.000000    0.000000    0.000000    0.000000
  0.049258517   -0.180171 -148.122940 -102.881517  113.244316    0.000000    0.000000    0.000000    0.000000
  0.049458918   -0.180886 -148.608063 -101.877332  123.503098    0.000000    0.000000    0.000000    0.000000
  0.049659319   -0.183142 -149.074265 -102.795873  117.312622    0.000000    0.000000    0.000000    0.000000
  0.049859719   -0.182033 -149.556931  -99.973272  104.146362    0.000000    0.000000    0.000000    0.000000
  0.050060120   -0.184030 -150.019592 -103.963917  108.824326    0.000000    0.000000    0.000000    0.000000
  0.050260521   -0.184188 -150.499557 -101.573321  101.942902    0.000000    0.000000    0.000000    0.000000
  0.050460922   -0.183573 -150.968414 -102.300653  116.775566    0.000000    0.000000    0.000000    0.000000
  0.050661323   -0.185462 -151.431335 -101.165379  107.660576    0.000000    0.000000    0.000000    0.000000
  0.050861723   -0.185815 -151.902954 -100.274240  104.259460    0.000000    0.000000    0.000000    0.000000
  0.051062124   -0.187223 -152.368927 -102.213144  102.378532    0.000000    0.000000    0.000000    0.000000
  0.051262525   -0.186808 -152.834366 -102.800185  101.341667    0.000000    0.000000    0.000000    0.000000
  0.051462926   -0.187183 -153.304825 -101.737759  103.252533    0.000000    0.000000    0.000000    0.000000
  0.051663327   -0.188908 -153.759750 -102.685980   90.615295    0.000000    0.000000    0.000000    0.000000
  0.051863727   -0.189295 -154.218567 -101.676321   82.940605    0.000000    0.000000    0.000000    0.000000
  0.052064128   -0.190139 -154.678391 -102.288501   84.173874    0.000000    0.000000    0.000000    0.000000
  0.052264529   -0.189694 -155.139328 -102.561766   82.491447    0.000000    0.000000    0.000000    0.000000
  0.052464930   -0.190237 -155.594208 -103.750040   88.996017    0.000000    0.000000    0.000000    0.000000
  0.052665331   -0.191817 -156.048721 -101.266956   92.378365    0.000000    0.000000    0.000000    0.000000
  0.052865731   -0.193278 -156.501602 -101.831792   97.147766    0.000000    0.000000    0.000000    0.000000
