! Anritsu VNA Master:                     Model: MS2036C/10/77
! SN:                                  1601066
! /bd0/18may10/256.ew.m9.s2p
! Existing Calibration Information:
! TYPE:                         Current Settings,       Active Cal Settings
! TIME:             	   05/10/2018 10:31:35 AM,    05/10/2018 10:22:12 AM
! INTERNAL TEMP:    	                   47.5 C,                    47.0 C
! # POINTS:         	                      494,                       494
! START FREQ:       	               20.000 MHz,                20.000 MHz
! STOP FREQ:        	          118.797 594 MHz,           118.797 594 MHz
! SOURCE POWER:     	                     High,                      High
! IFBW:             	                    50 Hz,                     50 Hz
! AVG FACTOR:       	                       1 ,                        1 
! REF PLANE 1:      	                     0 mm,                      0 mm
! REF PLANE 2:      	                     0 mm,                      0 mm
! CAL TYPE:         	                 Full S22,                  Full S22
! CAL METHOD:       	                     SOLT,                      SOLT
! CAL LINE TYPE:    	                     Coax,                      Coax
! DUT PORT 1:       	                K-Conn(M),                 K-Conn(M)
! DUT PORT 2:       	                K-Conn(M),                 K-Conn(M)
! CAL STATUS:       	        OK: Accuracy High,                        --
# GHZ S DB R 50.0
! FREQ.GHZ       S11DB        S11A       S21DB        S21A       S12DB        S12A       S22DB        S22A
  0.020000000    0.000000    0.000000    0.000000    0.000000  -89.828391   38.429348   -0.622511 -126.965500
  0.020200401    0.000000    0.000000    0.000000    0.000000  -90.139423   35.403652   -0.624805 -128.434036
  0.020400802    0.000000    0.000000    0.000000    0.000000  -90.682845   35.003452   -0.626178 -129.910431
  0.020601202    0.000000    0.000000    0.000000    0.000000  -90.989802   35.684380   -0.630841 -131.413422
  0.020801603    0.000000    0.000000    0.000000    0.000000  -90.800647   38.709797   -0.635088 -132.950302
  0.021002004    0.000000    0.000000    0.000000    0.000000  -90.543962   41.149200   -0.638298 -134.488693
  0.021202405    0.000000    0.000000    0.000000    0.000000  -91.015050   32.872757   -0.643662 -136.034485
  0.021402806    0.000000    0.000000    0.000000    0.000000  -91.268281   36.797142   -0.645886 -137.561447
  0.021603206    0.000000    0.000000    0.000000    0.000000  -92.351758   39.131775   -0.650206 -139.099258
  0.021803607    0.000000    0.000000    0.000000    0.000000  -91.578770   38.761280   -0.655544 -140.635757
  0.022004008    0.000000    0.000000    0.000000    0.000000  -91.670284   43.164715   -0.660217 -142.181976
  0.022204409    0.000000    0.000000    0.000000    0.000000  -92.483764   42.470757   -0.664803 -143.759857
  0.022404810    0.000000    0.000000    0.000000    0.000000  -91.397715   43.798893   -0.673110 -145.360031
  0.022605210    0.000000    0.000000    0.000000    0.000000  -91.663869   43.468781   -0.679402 -146.934921
  0.022805611    0.000000    0.000000    0.000000    0.000000  -91.711120   39.739777   -0.686579 -148.546570
  0.023006012    0.000000    0.000000    0.000000    0.000000  -90.977138   46.641548   -0.689263 -150.143021
  0.023206413    0.000000    0.000000    0.000000    0.000000  -91.793219   46.272827   -0.692966 -151.739777
  0.023406814    0.000000    0.000000    0.000000    0.000000  -91.290012   43.809975   -0.698735 -153.340103
  0.023607214    0.000000    0.000000    0.000000    0.000000  -90.871230   43.774204   -0.710050 -154.936844
  0.023807615    0.000000    0.000000    0.000000    0.000000  -91.455201   38.473583   -0.722492 -156.572495
  0.024008016    0.000000    0.000000    0.000000    0.000000  -91.291599   36.859344   -0.731211 -158.213257
  0.024208417    0.000000    0.000000    0.000000    0.000000  -90.861648   39.595863   -0.737927 -159.876099
  0.024408818    0.000000    0.000000    0.000000    0.000000  -91.087136   35.735756   -0.746048 -161.537552
  0.024609218    0.000000    0.000000    0.000000    0.000000  -91.092135   34.391224   -0.755620 -163.206024
  0.024809619    0.000000    0.000000    0.000000    0.000000  -91.605268   35.232758   -0.765572 -164.864838
  0.025010020    0.000000    0.000000    0.000000    0.000000  -91.664085   29.359787   -0.775165 -166.539185
  0.025210421    0.000000    0.000000    0.000000    0.000000  -91.749755   28.689507   -0.788422 -168.221375
  0.025410822    0.000000    0.000000    0.000000    0.000000  -92.153926   28.438318   -0.801026 -169.920258
  0.025611222    0.000000    0.000000    0.000000    0.000000  -92.396851   25.534164   -0.815724 -171.628769
  0.025811623    0.000000    0.000000    0.000000    0.000000  -92.040156   28.680853   -0.828552 -173.357605
  0.026012024    0.000000    0.000000    0.000000    0.000000  -92.912554   27.162428   -0.839980 -175.083954
  0.026212425    0.000000    0.000000    0.000000    0.000000  -93.321368   27.585648   -0.854483 -176.828461
  0.026412826    0.000000    0.000000    0.000000    0.000000  -93.451233   25.750240   -0.870613 -178.588272
  0.026613226    0.000000    0.000000    0.000000    0.000000  -93.778754   24.932003   -0.884482  179.655670
  0.026813627    0.000000    0.000000    0.000000    0.000000  -94.492656   27.120466   -0.902172  177.887344
  0.027014028    0.000000    0.000000    0.000000    0.000000  -94.482773   24.658417   -0.919701  176.104263
  0.027214429    0.000000    0.000000    0.000000    0.000000  -94.081501   27.343929   -0.936920  174.332047
  0.027414830    0.000000    0.000000    0.000000    0.000000  -94.451808   30.391781   -0.955846  172.537125
  0.027615230    0.000000    0.000000    0.000000    0.000000  -94.343329   34.356236   -0.974220  170.726028
  0.027815631    0.000000    0.000000    0.000000    0.000000  -94.336503   32.179726   -0.994972  168.915237
  0.028016032    0.000000    0.000000    0.000000    0.000000  -94.162231   31.197477   -1.015927  167.085220
  0.028216433    0.000000    0.000000    0.000000    0.000000  -94.288109   35.606071   -1.039244  165.249420
  0.028416834    0.000000    0.000000    0.000000    0.000000  -94.182377   34.533199   -1.061849  163.406860
  0.028617234    0.000000    0.000000    0.000000    0.000000  -94.864943   34.482204   -1.084775  161.572922
  0.028817635    0.000000    0.000000    0.000000    0.000000  -94.244414   37.070267   -1.107921  159.726898
  0.029018036    0.000000    0.000000    0.000000    0.000000  -93.822919   35.140369   -1.134540  157.886932
  0.029218437    0.000000    0.000000    0.000000    0.000000  -93.946943   33.265301   -1.161082  156.034668
  0.029418838    0.000000    0.000000    0.000000    0.000000  -94.177924   30.806322   -1.188240  154.158630
  0.029619238    0.000000    0.000000    0.000000    0.000000  -94.199464   29.618109   -1.216752  152.278076
  0.029819639    0.000000    0.000000    0.000000    0.000000  -93.878904   31.938177   -1.246639  150.396927
  0.030020040    0.000000    0.000000    0.000000    0.000000  -94.021169   27.956039   -1.274786  148.512817
  0.030220441    0.000000    0.000000    0.000000    0.000000  -93.641277   26.180710   -1.302816  146.620956
  0.030420842    0.000000    0.000000    0.000000    0.000000  -94.187184   30.699648   -1.332646  144.746582
  0.030621242    0.000000    0.000000    0.000000    0.000000  -94.127313   24.263752   -1.364426  142.854111
  0.030821643    0.000000    0.000000    0.000000    0.000000  -94.867996   23.310854   -1.399351  140.945282
  0.031022044    0.000000    0.000000    0.000000    0.000000  -94.382673   24.019241   -1.430857  139.027084
  0.031222445    0.000000    0.000000    0.000000    0.000000  -94.060876   19.504431   -1.462000  137.112808
  0.031422846    0.000000    0.000000    0.000000    0.000000  -94.811863   22.490925   -1.494227  135.139633
  0.031623246    0.000000    0.000000    0.000000    0.000000  -94.991151   14.163460   -1.530613  133.174011
  0.031823647    0.000000    0.000000    0.000000    0.000000  -94.483414   18.975685   -1.564574  131.196899
  0.032024048    0.000000    0.000000    0.000000    0.000000  -95.617237   21.248257   -1.602549  129.221008
  0.032224449    0.000000    0.000000    0.000000    0.000000  -95.397465   17.219246   -1.639935  127.240334
  0.032424850    0.000000    0.000000    0.000000    0.000000  -95.034081   17.838228   -1.678254  125.241653
  0.032625250    0.000000    0.000000    0.000000    0.000000  -96.142243   17.626373   -1.716849  123.219246
  0.032825651    0.000000    0.000000    0.000000    0.000000  -96.046826   25.006716   -1.755898  121.179451
  0.033026052    0.000000    0.000000    0.000000    0.000000  -96.370001   18.358219   -1.797185  119.127075
  0.033226453    0.000000    0.000000    0.000000    0.000000  -96.179290   17.219053   -1.836424  117.098465
  0.033426854    0.000000    0.000000    0.000000    0.000000  -96.481786   32.010342   -1.879489  115.037788
  0.033627254    0.000000    0.000000    0.000000    0.000000  -96.613189   23.254896   -1.921102  113.002190
  0.033827655    0.000000    0.000000    0.000000    0.000000  -96.077052   21.583355   -1.966333  110.957504
  0.034028056    0.000000    0.000000    0.000000    0.000000  -96.504778   26.834343   -2.009803  108.890335
  0.034228457    0.000000    0.000000    0.000000    0.000000  -96.659866   27.752647   -2.054839  106.830620
  0.034428858    0.000000    0.000000    0.000000    0.000000  -96.271355   28.492229   -2.101958  104.771698
  0.034629258    0.000000    0.000000    0.000000    0.000000  -95.361922   26.610750   -2.147739  102.666168
  0.034829659    0.000000    0.000000    0.000000    0.000000  -95.880511   29.481030   -2.194890  100.590263
  0.035030060    0.000000    0.000000    0.000000    0.000000  -95.586708   28.648249   -2.244820   98.522797
  0.035230461    0.000000    0.000000    0.000000    0.000000  -96.094326   31.019537   -2.291101   96.430595
  0.035430862    0.000000    0.000000    0.000000    0.000000  -95.847591   29.545326   -2.340520   94.359734
  0.035631262    0.000000    0.000000    0.000000    0.000000  -95.955832   26.379332   -2.389760   92.272736
  0.035831663    0.000000    0.000000    0.000000    0.000000  -97.127494   19.452444   -2.439745   90.174225
  0.036032064    0.000000    0.000000    0.000000    0.000000  -96.071363   18.700436   -2.488353   88.107986
  0.036232465    0.000000    0.000000    0.000000    0.000000  -96.837024   30.837591   -2.538483   86.035896
  0.036432866    0.000000    0.000000    0.000000    0.000000  -96.097310   26.525682   -2.590983   83.938980
  0.036633266    0.000000    0.000000    0.000000    0.000000  -95.951675   20.589918   -2.643825   81.827560
  0.036833667    0.000000    0.000000    0.000000    0.000000  -96.748967   21.765882   -2.698973   79.752449
  0.037034068    0.000000    0.000000    0.000000    0.000000  -96.483691   23.105484   -2.753828   77.664764
  0.037234469    0.000000    0.000000    0.000000    0.000000  -97.759607   19.155983   -2.807718   75.565582
  0.037434870    0.000000    0.000000    0.000000    0.000000  -97.149506   21.501324   -2.859803   73.472107
  0.037635270    0.000000    0.000000    0.000000    0.000000  -98.108453   20.697554   -2.914474   71.357574
  0.037835671    0.000000    0.000000    0.000000    0.000000  -97.145285   21.954557   -2.971631   69.238907
  0.038036072    0.000000    0.000000    0.000000    0.000000  -97.230954   27.130554   -3.029249   67.101898
  0.038236473    0.000000    0.000000    0.000000    0.000000  -97.620714   26.335804   -3.087887   64.975349
  0.038436874    0.000000    0.000000    0.000000    0.000000  -98.212005   28.703405   -3.147154   62.837139
  0.038637274    0.000000    0.000000    0.000000    0.000000  -98.520752   20.811045   -3.205689   60.706013
  0.038837675    0.000000    0.000000    0.000000    0.000000  -98.541324   21.822142   -3.261061   58.600449
  0.039038076    0.000000    0.000000    0.000000    0.000000  -98.938715   21.137012   -3.315305   56.490093
  0.039238477    0.000000    0.000000    0.000000    0.000000  -96.349636   25.286064   -3.373675   54.360508
  0.039438878    0.000000    0.000000    0.000000    0.000000  -98.996467   28.229694   -3.432170   52.262428
  0.039639278    0.000000    0.000000    0.000000    0.000000  -99.243711   28.158434   -3.490743   50.121780
  0.039839679    0.000000    0.000000    0.000000    0.000000  -98.377042   26.584608   -3.546409   48.003395
  0.040040080    0.000000    0.000000    0.000000    0.000000  -97.517874   38.555248   -3.601305   45.864479
  0.040240481    0.000000    0.000000    0.000000    0.000000  -96.959805   38.394222   -3.657449   43.743679
  0.040440882    0.000000    0.000000    0.000000    0.000000  -98.486484   26.948259   -3.712419   41.643372
  0.040641283    0.000000    0.000000    0.000000    0.000000  -98.228716   28.952332   -3.768191   39.544662
  0.040841683    0.000000    0.000000    0.000000    0.000000  -97.585780   28.832407   -3.822794   37.473171
  0.041042084    0.000000    0.000000    0.000000    0.000000  -98.907352   31.735914   -3.879904   35.395119
  0.041242485    0.000000    0.000000    0.000000    0.000000  -97.951483   34.912937   -3.936805   33.318497
  0.041442886    0.000000    0.000000    0.000000    0.000000  -97.873632   34.347519   -3.991884   31.228693
  0.041643287    0.000000    0.000000    0.000000    0.000000  -98.560292   29.824120   -4.043971   29.143526
  0.041843687    0.000000    0.000000    0.000000    0.000000  -98.091947   24.551039   -4.098187   27.081171
  0.042044088    0.000000    0.000000    0.000000    0.000000  -98.836040   27.604836   -4.151823   25.037153
  0.042244489    0.000000    0.000000    0.000000    0.000000  -97.497415   30.374767   -4.203587   23.005314
  0.042444890    0.000000    0.000000    0.000000    0.000000  -98.118816   31.181278   -4.256614   20.979433
  0.042645291    0.000000    0.000000    0.000000    0.000000  -98.677009   28.401499   -4.308719   18.964209
  0.042845691    0.000000    0.000000    0.000000    0.000000  -98.883245   25.198986   -4.362854   16.954025
  0.043046092    0.000000    0.000000    0.000000    0.000000  -98.201046   39.177750   -4.413159   14.948660
  0.043246493    0.000000    0.000000    0.000000    0.000000  -98.253547   25.118324   -4.463462   12.931719
  0.043446894    0.000000    0.000000    0.000000    0.000000 -100.007277   23.758244   -4.509230   10.945466
  0.043647295    0.000000    0.000000    0.000000    0.000000  -97.849225   23.348772   -4.555072    8.954797
  0.043847695    0.000000    0.000000    0.000000    0.000000  -99.181561   24.948204   -4.603123    6.972336
  0.044048096    0.000000    0.000000    0.000000    0.000000 -101.340363   13.860407   -4.649013    4.988976
  0.044248497    0.000000    0.000000    0.000000    0.000000  -98.567590   31.608601   -4.693992    3.021974
  0.044448898    0.000000    0.000000    0.000000    0.000000 -100.542320   33.865612   -4.736237    1.068438
  0.044649299    0.000000    0.000000    0.000000    0.000000  -99.741071   23.645813   -4.780182   -0.908145
  0.044849699    0.000000    0.000000    0.000000    0.000000  -98.337495   35.050449   -4.822529   -2.854843
  0.045050100    0.000000    0.000000    0.000000    0.000000 -100.181183   29.508251   -4.861875   -4.820924
  0.045250501    0.000000    0.000000    0.000000    0.000000  -99.393869   38.569370   -4.905231   -6.767837
  0.045450902    0.000000    0.000000    0.000000    0.000000  -99.234925   37.144855   -4.944767   -8.703306
  0.045651303    0.000000    0.000000    0.000000    0.000000 -100.675920   38.015835   -4.983667  -10.646649
  0.045851703    0.000000    0.000000    0.000000    0.000000  -97.480463   28.676529   -5.019850  -12.547272
  0.046052104    0.000000    0.000000    0.000000    0.000000  -97.631638   33.497532   -5.057325  -14.456163
  0.046252505    0.000000    0.000000    0.000000    0.000000  -97.556345   33.126335   -5.095524  -16.325626
  0.046452906    0.000000    0.000000    0.000000    0.000000  -97.743643   37.191147   -5.133316  -18.183378
  0.046653307    0.000000    0.000000    0.000000    0.000000  -99.245291   35.351505   -5.166989  -20.024237
  0.046853707    0.000000    0.000000    0.000000    0.000000  -99.249205   32.361576   -5.200756  -21.835485
  0.047054108    0.000000    0.000000    0.000000    0.000000  -98.169210   30.175661   -5.224863  -23.665026
  0.047254509    0.000000    0.000000    0.000000    0.000000  -98.590249   32.675690   -5.248620  -25.506290
  0.047454910    0.000000    0.000000    0.000000    0.000000 -100.589899   37.528587   -5.271553  -27.333496
  0.047655311    0.000000    0.000000    0.000000    0.000000  -98.649731   30.552771   -5.293255  -29.160793
  0.047855711    0.000000    0.000000    0.000000    0.000000  -99.334534   27.473875   -5.317926  -30.966619
  0.048056112    0.000000    0.000000    0.000000    0.000000  -98.884978   30.294659   -5.340134  -32.779263
  0.048256513    0.000000    0.000000    0.000000    0.000000  -99.563522   32.427826   -5.362024  -34.591827
  0.048456914    0.000000    0.000000    0.000000    0.000000  -98.998923   21.593863   -5.386323  -36.392056
  0.048657315    0.000000    0.000000    0.000000    0.000000  -99.486507   32.775814   -5.410234  -38.201237
  0.048857715    0.000000    0.000000    0.000000    0.000000 -101.068803   28.719744   -5.431686  -39.992538
  0.049058116    0.000000    0.000000    0.000000    0.000000 -100.462778   31.114603   -5.452203  -41.763832
  0.049258517    0.000000    0.000000    0.000000    0.000000 -100.421354   40.904507   -5.478464  -43.512035
  0.049458918    0.000000    0.000000    0.000000    0.000000  -99.709289   31.798363   -5.498460  -45.266369
  0.049659319    0.000000    0.000000    0.000000    0.000000  -99.139707   38.830421   -5.524772  -46.983891
  0.049859719    0.000000    0.000000    0.000000    0.000000  -99.221782   34.502506   -5.546190  -48.704086
  0.050060120    0.000000    0.000000    0.000000    0.000000  -99.018262   37.558849   -5.570043  -50.415337
  0.050260521    0.000000    0.000000    0.000000    0.000000  -99.859543   27.963295   -5.589472  -52.121754
  0.050460922    0.000000    0.000000    0.000000    0.000000  -98.852884   24.160442   -5.609029  -53.835773
  0.050661323    0.000000    0.000000    0.000000    0.000000  -99.521574   33.800953   -5.625562  -55.521347
  0.050861723    0.000000    0.000000    0.000000    0.000000 -100.376951   33.087280   -5.643946  -57.207016
  0.051062124    0.000000    0.000000    0.000000    0.000000  -99.638025   37.467037   -5.661666  -58.842297
  0.051262525    0.000000    0.000000    0.000000    0.000000  -98.466951   25.811037   -5.684308  -60.502445
  0.051462926    0.000000    0.000000    0.000000    0.000000  -99.424807   37.595551   -5.698719  -62.144325
  0.051663327    0.000000    0.000000    0.000000    0.000000  -98.269797   31.144270   -5.716510  -63.765999
  0.051863727    0.000000    0.000000    0.000000    0.000000  -98.145861   40.078281   -5.733780  -65.390999
  0.052064128    0.000000    0.000000    0.000000    0.000000  -98.715728   36.504105   -5.747005  -67.021744
  0.052264529    0.000000    0.000000    0.000000    0.000000  -98.745382   34.237541   -5.757319  -68.599762
  0.052464930    0.000000    0.000000    0.000000    0.000000  -98.645279   25.387217   -5.771692  -70.183044
  0.052665331    0.000000    0.000000    0.000000    0.000000  -98.183524   26.112989   -5.784563  -71.755913
  0.052865731    0.000000    0.000000    0.000000    0.000000  -98.396413   30.174051   -5.797801  -73.283844
