! Anritsu VNA Master:                     Model: MS2036C/10/77
! SN:                                  1601066
! /bd0/18may10/256.ew.m5.s2p
! Existing Calibration Information:
! TYPE:                         Current Settings,       Active Cal Settings
! TIME:             	   05/10/2018 10:18:19 AM,    05/10/2018 10:05:08 AM
! INTERNAL TEMP:    	                   46.8 C,                    45.0 C
! # POINTS:         	                      494,                       494
! START FREQ:       	               20.000 MHz,                20.000 MHz
! STOP FREQ:        	          118.797 594 MHz,           118.797 594 MHz
! SOURCE POWER:     	                     High,                      High
! IFBW:             	                    50 Hz,                     50 Hz
! AVG FACTOR:       	                       1 ,                        1 
! REF PLANE 1:      	                     0 mm,                      0 mm
! REF PLANE 2:      	                     0 mm,                      0 mm
! CAL TYPE:         	                 Full S22,                  Full S22
! CAL METHOD:       	                     SOLT,                      SOLT
! CAL LINE TYPE:    	                     Coax,                      Coax
! DUT PORT 1:       	                K-Conn(M),                 K-Conn(M)
! DUT PORT 2:       	                K-Conn(M),                 K-Conn(M)
! CAL STATUS:       	        OK: Accuracy High,                        --
# GHZ S DB R 50.0
! FREQ.GHZ       S11DB        S11A       S21DB        S21A       S12DB        S12A       S22DB        S22A
  0.020000000    0.000000    0.000000    0.000000    0.000000  -89.562512   38.506039   -0.625260 -126.903580
  0.020200401    0.000000    0.000000    0.000000    0.000000  -90.010117   32.787964   -0.628200 -128.361282
  0.020400802    0.000000    0.000000    0.000000    0.000000  -90.201107   37.770378   -0.632886 -129.825546
  0.020601202    0.000000    0.000000    0.000000    0.000000  -90.662036   38.333637   -0.636352 -131.316833
  0.020801603    0.000000    0.000000    0.000000    0.000000  -90.628762   35.677479   -0.640937 -132.841370
  0.021002004    0.000000    0.000000    0.000000    0.000000  -91.403976   35.759480   -0.642055 -134.363495
  0.021202405    0.000000    0.000000    0.000000    0.000000  -91.587881   38.437870   -0.649245 -135.900665
  0.021402806    0.000000    0.000000    0.000000    0.000000  -91.444829   44.979271   -0.652453 -137.425858
  0.021603206    0.000000    0.000000    0.000000    0.000000  -92.135246   41.158138   -0.654823 -138.946320
  0.021803607    0.000000    0.000000    0.000000    0.000000  -91.623643   34.428989   -0.660544 -140.483200
  0.022004008    0.000000    0.000000    0.000000    0.000000  -91.566599   41.734722   -0.669153 -142.023666
  0.022204409    0.000000    0.000000    0.000000    0.000000  -91.018876   40.601627   -0.675075 -143.585495
  0.022404810    0.000000    0.000000    0.000000    0.000000  -91.980859   47.633820   -0.682788 -145.188873
  0.022605210    0.000000    0.000000    0.000000    0.000000  -91.537996   43.180378   -0.688635 -146.787369
  0.022805611    0.000000    0.000000    0.000000    0.000000  -91.927871   49.766109   -0.693848 -148.383453
  0.023006012    0.000000    0.000000    0.000000    0.000000  -91.100521   47.218842   -0.700370 -149.978485
  0.023206413    0.000000    0.000000    0.000000    0.000000  -91.249184   41.673916   -0.706442 -151.578598
  0.023406814    0.000000    0.000000    0.000000    0.000000  -91.177388   44.968605   -0.712668 -153.170212
  0.023607214    0.000000    0.000000    0.000000    0.000000  -91.195614   42.038349   -0.719712 -154.789429
  0.023807615    0.000000    0.000000    0.000000    0.000000  -90.616420   44.375420   -0.731520 -156.434937
  0.024008016    0.000000    0.000000    0.000000    0.000000  -91.068385   36.629303   -0.742230 -158.071808
  0.024208417    0.000000    0.000000    0.000000    0.000000  -90.697778   35.826683   -0.750089 -159.741043
  0.024408818    0.000000    0.000000    0.000000    0.000000  -91.058411   36.466335   -0.755308 -161.407455
  0.024609218    0.000000    0.000000    0.000000    0.000000  -91.219299   32.760895   -0.764277 -163.070847
  0.024809619    0.000000    0.000000    0.000000    0.000000  -90.820992   30.355577   -0.774191 -164.737869
  0.025010020    0.000000    0.000000    0.000000    0.000000  -91.709697   32.101837   -0.785373 -166.422684
  0.025210421    0.000000    0.000000    0.000000    0.000000  -92.121327   28.343430   -0.797582 -168.102051
  0.025410822    0.000000    0.000000    0.000000    0.000000  -92.123143   28.150549   -0.809962 -169.798141
  0.025611222    0.000000    0.000000    0.000000    0.000000  -91.991594   25.392694   -0.821674 -171.519531
  0.025811623    0.000000    0.000000    0.000000    0.000000  -93.366203   24.699913   -0.834167 -173.239502
  0.026012024    0.000000    0.000000    0.000000    0.000000  -92.589642   29.427914   -0.847068 -174.975861
  0.026212425    0.000000    0.000000    0.000000    0.000000  -92.384935   28.025417   -0.859727 -176.713043
  0.026412826    0.000000    0.000000    0.000000    0.000000  -94.316459   23.808037   -0.877628 -178.467545
  0.026613226    0.000000    0.000000    0.000000    0.000000  -94.176705   29.063547   -0.893444  179.777130
  0.026813627    0.000000    0.000000    0.000000    0.000000  -94.199993   29.226721   -0.909020  178.011505
  0.027014028    0.000000    0.000000    0.000000    0.000000  -94.059096   25.900236   -0.925367  176.238068
  0.027214429    0.000000    0.000000    0.000000    0.000000  -94.432634   29.507315   -0.944004  174.465134
  0.027414830    0.000000    0.000000    0.000000    0.000000  -94.041716   29.418888   -0.961832  172.681885
  0.027615230    0.000000    0.000000    0.000000    0.000000  -94.352691   32.636456   -0.981389  170.871994
  0.027815631    0.000000    0.000000    0.000000    0.000000  -94.918897   28.514906   -1.002120  169.066696
  0.028016032    0.000000    0.000000    0.000000    0.000000  -94.846533   33.593666   -1.024015  167.239273
  0.028216433    0.000000    0.000000    0.000000    0.000000  -94.480920   34.830750   -1.044894  165.405533
  0.028416834    0.000000    0.000000    0.000000    0.000000  -94.391085   35.914211   -1.068906  163.567093
  0.028617234    0.000000    0.000000    0.000000    0.000000  -94.018961   28.940594   -1.092712  161.731812
  0.028817635    0.000000    0.000000    0.000000    0.000000  -94.189229   36.009724   -1.115913  159.889847
  0.029018036    0.000000    0.000000    0.000000    0.000000  -93.892169   36.699841   -1.141713  158.051056
  0.029218437    0.000000    0.000000    0.000000    0.000000  -93.463883   35.614380   -1.167196  156.194504
  0.029418838    0.000000    0.000000    0.000000    0.000000  -93.635463   30.135809   -1.195854  154.329590
  0.029619238    0.000000    0.000000    0.000000    0.000000  -93.940464   27.946440   -1.221966  152.446793
  0.029819639    0.000000    0.000000    0.000000    0.000000  -94.192132   31.891827   -1.251457  150.563828
  0.030020040    0.000000    0.000000    0.000000    0.000000  -93.566845   30.655378   -1.280201  148.683960
  0.030220441    0.000000    0.000000    0.000000    0.000000  -94.106977   29.994577   -1.309077  146.804718
  0.030420842    0.000000    0.000000    0.000000    0.000000  -93.622867   28.952612   -1.338762  144.920792
  0.030621242    0.000000    0.000000    0.000000    0.000000  -94.132740   28.229179   -1.370379  143.039352
  0.030821643    0.000000    0.000000    0.000000    0.000000  -94.515116   25.189486   -1.403848  141.141754
  0.031022044    0.000000    0.000000    0.000000    0.000000  -94.636960   28.464724   -1.437577  139.218948
  0.031222445    0.000000    0.000000    0.000000    0.000000  -94.708104   17.619614   -1.468246  137.297974
  0.031422846    0.000000    0.000000    0.000000    0.000000  -93.490831   22.232506   -1.502079  135.336517
  0.031623246    0.000000    0.000000    0.000000    0.000000  -94.552831   23.030815   -1.537445  133.367905
  0.031823647    0.000000    0.000000    0.000000    0.000000  -94.757149   18.268486   -1.572409  131.402618
  0.032024048    0.000000    0.000000    0.000000    0.000000  -95.102688   18.609095   -1.610254  129.439911
  0.032224449    0.000000    0.000000    0.000000    0.000000  -95.760605   24.133875   -1.646947  127.451019
  0.032424850    0.000000    0.000000    0.000000    0.000000  -95.318676   18.822145   -1.685446  125.463570
  0.032625250    0.000000    0.000000    0.000000    0.000000  -95.206291   12.606219   -1.725487  123.447098
  0.032825651    0.000000    0.000000    0.000000    0.000000  -96.459442   17.126532   -1.766814  121.416977
  0.033026052    0.000000    0.000000    0.000000    0.000000  -96.150179   26.031431   -1.806623  119.373894
  0.033226453    0.000000    0.000000    0.000000    0.000000  -96.930715   22.525837   -1.846622  117.324348
  0.033426854    0.000000    0.000000    0.000000    0.000000  -96.162841   24.725132   -1.887244  115.275604
  0.033627254    0.000000    0.000000    0.000000    0.000000  -96.921618   28.203308   -1.932470  113.229866
  0.033827655    0.000000    0.000000    0.000000    0.000000  -96.500240   20.763382   -1.978882  111.187431
  0.034028056    0.000000    0.000000    0.000000    0.000000  -97.190182   30.997458   -2.021288  109.132507
  0.034228457    0.000000    0.000000    0.000000    0.000000  -96.012528   26.688522   -2.067152  107.051575
  0.034428858    0.000000    0.000000    0.000000    0.000000  -97.446414   24.638863   -2.112842  104.964317
  0.034629258    0.000000    0.000000    0.000000    0.000000  -95.950688   30.827389   -2.160364  102.866165
  0.034829659    0.000000    0.000000    0.000000    0.000000  -96.880272   25.426600   -2.208875  100.786560
  0.035030060    0.000000    0.000000    0.000000    0.000000  -95.872228   33.613743   -2.257834   98.705597
  0.035230461    0.000000    0.000000    0.000000    0.000000  -95.216459   24.205832   -2.305351   96.606178
  0.035430862    0.000000    0.000000    0.000000    0.000000  -95.893318   30.104807   -2.356774   94.540047
  0.035631262    0.000000    0.000000    0.000000    0.000000  -96.262051   25.906168   -2.405541   92.449722
  0.035831663    0.000000    0.000000    0.000000    0.000000  -95.856677   24.238510   -2.456710   90.360802
  0.036032064    0.000000    0.000000    0.000000    0.000000  -95.828155   26.741753   -2.506023   88.272957
  0.036232465    0.000000    0.000000    0.000000    0.000000  -96.981018   26.142548   -2.556806   86.210548
  0.036432866    0.000000    0.000000    0.000000    0.000000  -95.855819   22.720926   -2.608336   84.109756
  0.036633266    0.000000    0.000000    0.000000    0.000000  -96.758442   18.238230   -2.661918   82.026146
  0.036833667    0.000000    0.000000    0.000000    0.000000  -97.211733   17.501211   -2.716441   79.945351
  0.037034068    0.000000    0.000000    0.000000    0.000000  -97.153260   18.152615   -2.771173   77.832436
  0.037234469    0.000000    0.000000    0.000000    0.000000  -96.943776   25.429241   -2.823812   75.750175
  0.037434870    0.000000    0.000000    0.000000    0.000000  -97.870677   18.140087   -2.879039   73.644630
  0.037635270    0.000000    0.000000    0.000000    0.000000  -97.191719   25.514723   -2.933988   71.551590
  0.037835671    0.000000    0.000000    0.000000    0.000000  -97.819172   19.804838   -2.989160   69.422783
  0.038036072    0.000000    0.000000    0.000000    0.000000  -98.074644   23.756697   -3.049720   67.313683
  0.038236473    0.000000    0.000000    0.000000    0.000000  -99.015899   24.261591   -3.106333   65.176819
  0.038436874    0.000000    0.000000    0.000000    0.000000  -98.056502   18.807602   -3.166027   63.057720
  0.038637274    0.000000    0.000000    0.000000    0.000000  -97.734656   27.375486   -3.225810   60.941689
  0.038837675    0.000000    0.000000    0.000000    0.000000  -98.592397   29.226177   -3.284073   58.819641
  0.039038076    0.000000    0.000000    0.000000    0.000000  -99.193045   28.012144   -3.338902   56.727600
  0.039238477    0.000000    0.000000    0.000000    0.000000  -97.567574   27.260036   -3.396732   54.620422
  0.039438878    0.000000    0.000000    0.000000    0.000000  -98.659325   23.270857   -3.454478   52.520733
  0.039639278    0.000000    0.000000    0.000000    0.000000  -98.174834   36.500042   -3.513997   50.373524
  0.039839679    0.000000    0.000000    0.000000    0.000000  -99.032940   35.057316   -3.570963   48.252880
  0.040040080    0.000000    0.000000    0.000000    0.000000  -99.286200   32.436413   -3.628631   46.113087
  0.040240481    0.000000    0.000000    0.000000    0.000000  -99.149074   35.230015   -3.682539   44.003937
  0.040440882    0.000000    0.000000    0.000000    0.000000  -98.554132   26.416533   -3.739370   41.876530
  0.040641283    0.000000    0.000000    0.000000    0.000000  -96.789511   31.032333   -3.794065   39.776108
  0.040841683    0.000000    0.000000    0.000000    0.000000  -98.272546   29.031727   -3.852644   37.689484
  0.041042084    0.000000    0.000000    0.000000    0.000000  -98.768898   31.806580   -3.906260   35.602859
  0.041242485    0.000000    0.000000    0.000000    0.000000  -97.583698   27.012596   -3.964215   33.511887
  0.041442886    0.000000    0.000000    0.000000    0.000000  -97.754558   29.808220   -4.019047   31.413351
  0.041643287    0.000000    0.000000    0.000000    0.000000  -98.193749   27.134659   -4.072006   29.335888
  0.041843687    0.000000    0.000000    0.000000    0.000000  -98.113157   30.645672   -4.125949   27.262648
  0.042044088    0.000000    0.000000    0.000000    0.000000  -98.394601   30.330685   -4.175570   25.208315
  0.042244489    0.000000    0.000000    0.000000    0.000000  -98.366257   29.306683   -4.227840   23.171270
  0.042444890    0.000000    0.000000    0.000000    0.000000  -97.974232   32.018089   -4.280007   21.151278
  0.042645291    0.000000    0.000000    0.000000    0.000000  -98.317764   16.951237   -4.330953   19.136951
  0.042845691    0.000000    0.000000    0.000000    0.000000  -98.380000   19.851181   -4.382224   17.106478
  0.043046092    0.000000    0.000000    0.000000    0.000000  -98.788278   33.864292   -4.431629   15.115824
  0.043246493    0.000000    0.000000    0.000000    0.000000  -99.918489   27.827532   -4.477289   13.112502
  0.043446894    0.000000    0.000000    0.000000    0.000000  -97.253222   26.628590   -4.524100   11.131721
  0.043647295    0.000000    0.000000    0.000000    0.000000  -99.274141   33.500877   -4.570422    9.140193
  0.043847695    0.000000    0.000000    0.000000    0.000000  -97.991962   31.542105   -4.615079    7.177467
  0.044048096    0.000000    0.000000    0.000000    0.000000  -99.887896   28.725111   -4.661512    5.207536
  0.044248497    0.000000    0.000000    0.000000    0.000000  -99.619335   37.366360   -4.706153    3.242079
  0.044448898    0.000000    0.000000    0.000000    0.000000 -100.058575   32.902420   -4.750281    1.292737
  0.044649299    0.000000    0.000000    0.000000    0.000000  -97.613267   36.655766   -4.793435   -0.658606
  0.044849699    0.000000    0.000000    0.000000    0.000000  -99.842950   24.475975   -4.835325   -2.594343
  0.045050100    0.000000    0.000000    0.000000    0.000000  -99.071090   31.084980   -4.875553   -4.550640
  0.045250501    0.000000    0.000000    0.000000    0.000000  -98.904271   44.447231   -4.919197   -6.501299
  0.045450902    0.000000    0.000000    0.000000    0.000000  -98.786507   38.275127   -4.957878   -8.430517
  0.045651303    0.000000    0.000000    0.000000    0.000000  -98.409955   31.289787   -5.000626  -10.368917
  0.045851703    0.000000    0.000000    0.000000    0.000000  -98.525074   31.055214   -5.038446  -12.289661
  0.046052104    0.000000    0.000000    0.000000    0.000000  -99.356330   29.399746   -5.079397  -14.189365
  0.046252505    0.000000    0.000000    0.000000    0.000000  -98.016233   26.014757   -5.120396  -16.064753
  0.046452906    0.000000    0.000000    0.000000    0.000000  -99.087640   35.447666   -5.158056  -17.929482
  0.046653307    0.000000    0.000000    0.000000    0.000000  -97.986390   32.259171   -5.197823  -19.783714
  0.046853707    0.000000    0.000000    0.000000    0.000000  -98.455763   42.852013   -5.224717  -21.632433
  0.047054108    0.000000    0.000000    0.000000    0.000000  -98.753831   31.652081   -5.253295  -23.472151
  0.047254509    0.000000    0.000000    0.000000    0.000000  -98.332405   29.579868   -5.277272  -25.320414
  0.047454910    0.000000    0.000000    0.000000    0.000000  -98.407762   37.935036   -5.299550  -27.173862
  0.047655311    0.000000    0.000000    0.000000    0.000000 -100.963478   30.688747   -5.319386  -29.015734
  0.047855711    0.000000    0.000000    0.000000    0.000000  -99.472593   35.215458   -5.341016  -30.864292
  0.048056112    0.000000    0.000000    0.000000    0.000000  -98.543726   34.487198   -5.366087  -32.708439
  0.048256513    0.000000    0.000000    0.000000    0.000000 -100.619730   25.527630   -5.388772  -34.528111
  0.048456914    0.000000    0.000000    0.000000    0.000000  -99.350520   32.467228   -5.411549  -36.343834
  0.048657315    0.000000    0.000000    0.000000    0.000000  -99.513056   22.455090   -5.429648  -38.160870
  0.048857715    0.000000    0.000000    0.000000    0.000000 -102.796705   29.269293   -5.450144  -39.983150
  0.049058116    0.000000    0.000000    0.000000    0.000000 -100.272354   32.062134   -5.470029  -41.764256
  0.049258517    0.000000    0.000000    0.000000    0.000000  -99.069955   26.273113   -5.490340  -43.517929
  0.049458918    0.000000    0.000000    0.000000    0.000000 -100.059903   37.926743   -5.507454  -45.280239
  0.049659319    0.000000    0.000000    0.000000    0.000000  -99.973117   32.735645   -5.531767  -46.981274
  0.049859719    0.000000    0.000000    0.000000    0.000000  -99.728506   35.475613   -5.553166  -48.695446
  0.050060120    0.000000    0.000000    0.000000    0.000000  -98.032270   40.858429   -5.571905  -50.412945
  0.050260521    0.000000    0.000000    0.000000    0.000000  -99.156920   36.922630   -5.589890  -52.096535
  0.050460922    0.000000    0.000000    0.000000    0.000000  -98.489546   33.991615   -5.607534  -53.792488
  0.050661323    0.000000    0.000000    0.000000    0.000000  -99.997771   33.800591   -5.623540  -55.459438
  0.050861723    0.000000    0.000000    0.000000    0.000000  -98.395850   33.951057   -5.640085  -57.110119
  0.051062124    0.000000    0.000000    0.000000    0.000000  -98.862423   41.094402   -5.661469  -58.744232
  0.051262525    0.000000    0.000000    0.000000    0.000000  -99.430237   41.017635   -5.680238  -60.391857
  0.051462926    0.000000    0.000000    0.000000    0.000000  -99.324796   48.128063   -5.695939  -62.016350
  0.051663327    0.000000    0.000000    0.000000    0.000000 -100.031590   36.275963   -5.713213  -63.630638
  0.051863727    0.000000    0.000000    0.000000    0.000000  -98.470602   40.776726   -5.733120  -65.229988
  0.052064128    0.000000    0.000000    0.000000    0.000000  -99.042226   34.679188   -5.743970  -66.832245
  0.052264529    0.000000    0.000000    0.000000    0.000000  -98.662772   35.924770   -5.756121  -68.417694
  0.052464930    0.000000    0.000000    0.000000    0.000000  -98.938636   29.570951   -5.770488  -69.997620
  0.052665331    0.000000    0.000000    0.000000    0.000000  -98.698725   40.735340   -5.788333  -71.558701
  0.052865731    0.000000    0.000000    0.000000    0.000000  -98.171474   25.134756   -5.800404  -73.119263
