! Anritsu VNA Master:                     Model: MS2036C/10/77
! SN:                                  1601066
! /bd0/18may10/256.ew.m8.s2p
! Existing Calibration Information:
! TYPE:                         Current Settings,       Active Cal Settings
! TIME:             	   05/10/2018 10:29:39 AM,    05/10/2018 10:22:12 AM
! INTERNAL TEMP:    	                   47.3 C,                    47.0 C
! # POINTS:         	                      494,                       494
! START FREQ:       	               20.000 MHz,                20.000 MHz
! STOP FREQ:        	          118.797 594 MHz,           118.797 594 MHz
! SOURCE POWER:     	                     High,                      High
! IFBW:             	                    50 Hz,                     50 Hz
! AVG FACTOR:       	                       1 ,                        1 
! REF PLANE 1:      	                     0 mm,                      0 mm
! REF PLANE 2:      	                     0 mm,                      0 mm
! CAL TYPE:         	                 Full S22,                  Full S22
! CAL METHOD:       	                     SOLT,                      SOLT
! CAL LINE TYPE:    	                     Coax,                      Coax
! DUT PORT 1:       	                K-Conn(M),                 K-Conn(M)
! DUT PORT 2:       	                K-Conn(M),                 K-Conn(M)
! CAL STATUS:       	        OK: Accuracy High,                        --
# GHZ S DB R 50.0
! FREQ.GHZ       S11DB        S11A       S21DB        S21A       S12DB        S12A       S22DB        S22A
  0.020000000    0.000000    0.000000    0.000000    0.000000  -89.110993   37.762047   -0.610718 -126.999786
  0.020200401    0.000000    0.000000    0.000000    0.000000  -89.519979   34.134331   -0.613662 -128.470901
  0.020400802    0.000000    0.000000    0.000000    0.000000  -90.163227   33.126751   -0.616392 -129.953018
  0.020601202    0.000000    0.000000    0.000000    0.000000  -90.264674   37.213371   -0.620187 -131.444107
  0.020801603    0.000000    0.000000    0.000000    0.000000  -91.040749   38.180145   -0.626392 -132.981323
  0.021002004    0.000000    0.000000    0.000000    0.000000  -91.220327   35.613281   -0.628686 -134.519531
  0.021202405    0.000000    0.000000    0.000000    0.000000  -90.997604   36.533863   -0.634310 -136.052429
  0.021402806    0.000000    0.000000    0.000000    0.000000  -91.815895   39.477329   -0.636915 -137.593964
  0.021603206    0.000000    0.000000    0.000000    0.000000  -91.570930   42.649162   -0.641424 -139.116364
  0.021803607    0.000000    0.000000    0.000000    0.000000  -91.520840   40.156212   -0.646470 -140.657501
  0.022004008    0.000000    0.000000    0.000000    0.000000  -91.780625   42.356812   -0.652219 -142.209122
  0.022204409    0.000000    0.000000    0.000000    0.000000  -91.983553   45.292831   -0.657388 -143.767487
  0.022404810    0.000000    0.000000    0.000000    0.000000  -91.246149   44.232468   -0.665771 -145.363022
  0.022605210    0.000000    0.000000    0.000000    0.000000  -92.600262   48.038403   -0.669325 -146.958450
  0.022805611    0.000000    0.000000    0.000000    0.000000  -92.045013   44.634075   -0.678881 -148.548721
  0.023006012    0.000000    0.000000    0.000000    0.000000  -91.461230   42.665634   -0.683306 -150.136475
  0.023206413    0.000000    0.000000    0.000000    0.000000  -91.396282   47.074093   -0.688619 -151.735825
  0.023406814    0.000000    0.000000    0.000000    0.000000  -91.512139   42.562927   -0.694092 -153.338196
  0.023607214    0.000000    0.000000    0.000000    0.000000  -91.031978   42.503742   -0.702439 -154.941864
  0.023807615    0.000000    0.000000    0.000000    0.000000  -91.142186   37.109901   -0.714010 -156.572189
  0.024008016    0.000000    0.000000    0.000000    0.000000  -90.718453   39.560638   -0.725126 -158.211380
  0.024208417    0.000000    0.000000    0.000000    0.000000  -91.392366   38.503727   -0.731554 -159.872650
  0.024408818    0.000000    0.000000    0.000000    0.000000  -90.953400   37.801296   -0.740368 -161.528610
  0.024609218    0.000000    0.000000    0.000000    0.000000  -91.512505   33.311947   -0.749961 -163.196091
  0.024809619    0.000000    0.000000    0.000000    0.000000  -91.168514   34.833977   -0.759850 -164.857559
  0.025010020    0.000000    0.000000    0.000000    0.000000  -91.655451   34.551373   -0.770493 -166.531494
  0.025210421    0.000000    0.000000    0.000000    0.000000  -91.973146   27.429482   -0.783394 -168.207657
  0.025410822    0.000000    0.000000    0.000000    0.000000  -91.869336   29.982887   -0.796433 -169.906326
  0.025611222    0.000000    0.000000    0.000000    0.000000  -92.163095   28.441753   -0.809871 -171.614502
  0.025811623    0.000000    0.000000    0.000000    0.000000  -92.549346   23.698019   -0.822868 -173.338577
  0.026012024    0.000000    0.000000    0.000000    0.000000  -93.281075   27.506243   -0.835871 -175.067749
  0.026212425    0.000000    0.000000    0.000000    0.000000  -92.883989   26.398355   -0.850657 -176.813049
  0.026412826    0.000000    0.000000    0.000000    0.000000  -92.638005   24.870556   -0.865956 -178.562653
  0.026613226    0.000000    0.000000    0.000000    0.000000  -93.459530   26.800631   -0.881932  179.674667
  0.026813627    0.000000    0.000000    0.000000    0.000000  -94.053693   26.770353   -0.899222  177.908157
  0.027014028    0.000000    0.000000    0.000000    0.000000  -93.797549   31.193642   -0.916331  176.134094
  0.027214429    0.000000    0.000000    0.000000    0.000000  -94.136837   31.148716   -0.933565  174.365021
  0.027414830    0.000000    0.000000    0.000000    0.000000  -95.462536   27.053921   -0.953063  172.572876
  0.027615230    0.000000    0.000000    0.000000    0.000000  -94.939935   29.041622   -0.971840  170.760788
  0.027815631    0.000000    0.000000    0.000000    0.000000  -94.860127   31.348997   -0.992023  168.950256
  0.028016032    0.000000    0.000000    0.000000    0.000000  -94.317158   38.747627   -1.014343  167.124146
  0.028216433    0.000000    0.000000    0.000000    0.000000  -94.730117   30.998066   -1.036914  165.286438
  0.028416834    0.000000    0.000000    0.000000    0.000000  -94.587851   35.058750   -1.059217  163.448837
  0.028617234    0.000000    0.000000    0.000000    0.000000  -94.342980   34.714748   -1.082224  161.608887
  0.028817635    0.000000    0.000000    0.000000    0.000000  -94.288672   32.117851   -1.106730  159.770660
  0.029018036    0.000000    0.000000    0.000000    0.000000  -94.023344   33.908642   -1.132706  157.925156
  0.029218437    0.000000    0.000000    0.000000    0.000000  -94.199793   34.254684   -1.160298  156.067062
  0.029418838    0.000000    0.000000    0.000000    0.000000  -93.674203   32.903671   -1.187602  154.192627
  0.029619238    0.000000    0.000000    0.000000    0.000000  -93.720572   30.851118   -1.215637  152.309540
  0.029819639    0.000000    0.000000    0.000000    0.000000  -94.217445   31.031977   -1.244514  150.430511
  0.030020040    0.000000    0.000000    0.000000    0.000000  -94.122069   28.476194   -1.273271  148.540329
  0.030220441    0.000000    0.000000    0.000000    0.000000  -94.330158   25.674431   -1.301777  146.648651
  0.030420842    0.000000    0.000000    0.000000    0.000000  -93.844525   27.575890   -1.331992  144.768036
  0.030621242    0.000000    0.000000    0.000000    0.000000  -94.532849   27.913078   -1.363434  142.875885
  0.030821643    0.000000    0.000000    0.000000    0.000000  -94.218127   25.862982   -1.397409  140.967209
  0.031022044    0.000000    0.000000    0.000000    0.000000  -94.405432   17.542379   -1.429339  139.045517
  0.031222445    0.000000    0.000000    0.000000    0.000000  -94.210830   21.706892   -1.460130  137.130005
  0.031422846    0.000000    0.000000    0.000000    0.000000  -95.345549   22.739662   -1.492220  135.160004
  0.031623246    0.000000    0.000000    0.000000    0.000000  -94.949879   21.542553   -1.528676  133.187531
  0.031823647    0.000000    0.000000    0.000000    0.000000  -95.720587   20.085842   -1.563698  131.219635
  0.032024048    0.000000    0.000000    0.000000    0.000000  -94.116369   21.605503   -1.599531  129.242554
  0.032224449    0.000000    0.000000    0.000000    0.000000  -95.329167   20.996183   -1.638230  127.260727
  0.032424850    0.000000    0.000000    0.000000    0.000000  -96.088639   24.363029   -1.676861  125.254662
  0.032625250    0.000000    0.000000    0.000000    0.000000  -95.658296   22.734268   -1.714596  123.235054
  0.032825651    0.000000    0.000000    0.000000    0.000000  -96.262809   22.348598   -1.754192  121.199127
  0.033026052    0.000000    0.000000    0.000000    0.000000  -95.635371   15.590460   -1.794925  119.152237
  0.033226453    0.000000    0.000000    0.000000    0.000000  -97.565017   30.501053   -1.834700  117.115860
  0.033426854    0.000000    0.000000    0.000000    0.000000  -97.108376   25.231249   -1.876601  115.073166
  0.033627254    0.000000    0.000000    0.000000    0.000000  -96.321898   17.586775   -1.917913  113.037979
  0.033827655    0.000000    0.000000    0.000000    0.000000  -95.852618   27.056000   -1.963770  110.997795
  0.034028056    0.000000    0.000000    0.000000    0.000000  -96.614990   25.310015   -2.008241  108.926201
  0.034228457    0.000000    0.000000    0.000000    0.000000  -96.480571   21.360027   -2.053261  106.858490
  0.034428858    0.000000    0.000000    0.000000    0.000000  -95.683103   26.513206   -2.098954  104.794174
  0.034629258    0.000000    0.000000    0.000000    0.000000  -97.260858   30.151901   -2.146483  102.700996
  0.034829659    0.000000    0.000000    0.000000    0.000000  -96.056763   28.615599   -2.191946  100.629845
  0.035030060    0.000000    0.000000    0.000000    0.000000  -96.021952   30.144890   -2.241932   98.557220
  0.035230461    0.000000    0.000000    0.000000    0.000000  -95.951358   25.077084   -2.290842   96.469627
  0.035430862    0.000000    0.000000    0.000000    0.000000  -94.898339   26.262733   -2.338772   94.392433
  0.035631262    0.000000    0.000000    0.000000    0.000000  -96.538045   21.952965   -2.391308   92.319374
  0.035831663    0.000000    0.000000    0.000000    0.000000  -96.405969   30.291315   -2.442337   90.229668
  0.036032064    0.000000    0.000000    0.000000    0.000000  -96.217659   29.200022   -2.490828   88.151802
  0.036232465    0.000000    0.000000    0.000000    0.000000  -96.396814   18.907412   -2.542353   86.083702
  0.036432866    0.000000    0.000000    0.000000    0.000000  -96.917233   25.888506   -2.594202   83.973778
  0.036633266    0.000000    0.000000    0.000000    0.000000  -97.766529   26.006216   -2.647639   81.871681
  0.036833667    0.000000    0.000000    0.000000    0.000000  -96.938713   21.557697   -2.702464   79.788025
  0.037034068    0.000000    0.000000    0.000000    0.000000  -96.174491   23.578995   -2.756947   77.697395
  0.037234469    0.000000    0.000000    0.000000    0.000000  -97.353397   16.762814   -2.810560   75.598122
  0.037434870    0.000000    0.000000    0.000000    0.000000  -97.153515   17.927471   -2.864018   73.509308
  0.037635270    0.000000    0.000000    0.000000    0.000000  -97.786416   17.140278   -2.918595   71.383766
  0.037835671    0.000000    0.000000    0.000000    0.000000  -98.408936   21.677343   -2.975237   69.260002
  0.038036072    0.000000    0.000000    0.000000    0.000000  -97.272088   20.671534   -3.031812   67.120422
  0.038236473    0.000000    0.000000    0.000000    0.000000  -98.140248   24.149061   -3.091943   64.996346
  0.038436874    0.000000    0.000000    0.000000    0.000000  -97.856853   17.724854   -3.151573   62.864384
  0.038637274    0.000000    0.000000    0.000000    0.000000  -97.375755   27.544855   -3.209649   60.723099
  0.038837675    0.000000    0.000000    0.000000    0.000000  -98.866129   33.878426   -3.264861   58.624237
  0.039038076    0.000000    0.000000    0.000000    0.000000  -98.172627   15.936385   -3.318526   56.500290
  0.039238477    0.000000    0.000000    0.000000    0.000000  -98.130395   24.266569   -3.375355   54.373360
  0.039438878    0.000000    0.000000    0.000000    0.000000  -98.288855   25.515390   -3.434253   52.277828
  0.039639278    0.000000    0.000000    0.000000    0.000000  -97.369026   31.550890   -3.492210   50.140583
  0.039839679    0.000000    0.000000    0.000000    0.000000  -97.690497   33.032558   -3.550289   48.015850
  0.040040080    0.000000    0.000000    0.000000    0.000000  -97.243123   21.085695   -3.605186   45.878918
  0.040240481    0.000000    0.000000    0.000000    0.000000  -98.548212   36.552483   -3.662218   43.767513
  0.040440882    0.000000    0.000000    0.000000    0.000000  -97.185814   35.979527   -3.715731   41.658215
  0.040641283    0.000000    0.000000    0.000000    0.000000  -97.373640   32.494617   -3.772942   39.563667
  0.040841683    0.000000    0.000000    0.000000    0.000000  -97.357571   29.687147   -3.826855   37.483727
  0.041042084    0.000000    0.000000    0.000000    0.000000  -97.921283   27.553341   -3.883970   35.415829
  0.041242485    0.000000    0.000000    0.000000    0.000000  -98.090287   31.277533   -3.941629   33.319668
  0.041442886    0.000000    0.000000    0.000000    0.000000  -97.881822   30.284010   -3.996509   31.237005
  0.041643287    0.000000    0.000000    0.000000    0.000000  -97.394266   29.832136   -4.048499   29.158201
  0.041843687    0.000000    0.000000    0.000000    0.000000  -98.280623   28.297590   -4.104247   27.091192
  0.042044088    0.000000    0.000000    0.000000    0.000000  -97.610991   21.975681   -4.155686   25.040483
  0.042244489    0.000000    0.000000    0.000000    0.000000  -97.510818   23.350367   -4.208094   23.008339
  0.042444890    0.000000    0.000000    0.000000    0.000000  -98.694517   32.482876   -4.261991   20.989630
  0.042645291    0.000000    0.000000    0.000000    0.000000  -98.926631   25.239758   -4.313706   18.962873
  0.042845691    0.000000    0.000000    0.000000    0.000000  -98.769914   24.242167   -4.366873   16.952110
  0.043046092    0.000000    0.000000    0.000000    0.000000  -98.715526   19.593706   -4.418145   14.939592
  0.043246493    0.000000    0.000000    0.000000    0.000000  -98.534147   26.840542   -4.467112   12.927024
  0.043446894    0.000000    0.000000    0.000000    0.000000  -99.038302   28.456688   -4.513620   10.929581
  0.043647295    0.000000    0.000000    0.000000    0.000000  -98.775000   27.745787   -4.559950    8.942807
  0.043847695    0.000000    0.000000    0.000000    0.000000 -100.751057   23.426218   -4.606541    6.980451
  0.044048096    0.000000    0.000000    0.000000    0.000000  -99.082795   31.222256   -4.654485    4.986261
  0.044248497    0.000000    0.000000    0.000000    0.000000 -101.060043   30.149561   -4.697505    3.013945
  0.044448898    0.000000    0.000000    0.000000    0.000000  -98.754627   44.552967   -4.739640    1.046526
  0.044649299    0.000000    0.000000    0.000000    0.000000  -98.394144   26.493958   -4.780428   -0.912142
  0.044849699    0.000000    0.000000    0.000000    0.000000  -99.471981   26.106674   -4.824609   -2.854358
  0.045050100    0.000000    0.000000    0.000000    0.000000 -101.536363   36.254955   -4.864094   -4.834722
  0.045250501    0.000000    0.000000    0.000000    0.000000  -99.358054   39.308716   -4.908736   -6.772358
  0.045450902    0.000000    0.000000    0.000000    0.000000  -98.086174   30.375555   -4.948774   -8.701983
  0.045651303    0.000000    0.000000    0.000000    0.000000  -98.770315   36.213837   -4.986696  -10.638916
  0.045851703    0.000000    0.000000    0.000000    0.000000  -98.728158   31.442896   -5.024130  -12.561932
  0.046052104    0.000000    0.000000    0.000000    0.000000  -98.920400   31.066050   -5.061293  -14.479129
  0.046252505    0.000000    0.000000    0.000000    0.000000  -99.990175   37.368866   -5.100819  -16.324047
  0.046452906    0.000000    0.000000    0.000000    0.000000 -100.421457   32.498920   -5.137869  -18.198044
  0.046653307    0.000000    0.000000    0.000000    0.000000  -99.178749   30.187548   -5.169335  -20.033640
  0.046853707    0.000000    0.000000    0.000000    0.000000  -99.215202   38.006180   -5.202270  -21.848701
  0.047054108    0.000000    0.000000    0.000000    0.000000  -98.724630   28.530117   -5.227153  -23.685005
  0.047254509    0.000000    0.000000    0.000000    0.000000  -99.025156   29.111301   -5.251288  -25.514690
  0.047454910    0.000000    0.000000    0.000000    0.000000  -98.601848   32.841713   -5.273153  -27.342384
  0.047655311    0.000000    0.000000    0.000000    0.000000  -98.343424   26.382910   -5.296187  -29.174368
  0.047855711    0.000000    0.000000    0.000000    0.000000  -98.129980   24.180328   -5.317941  -30.993555
  0.048056112    0.000000    0.000000    0.000000    0.000000  -99.781199   27.838070   -5.343419  -32.803940
  0.048256513    0.000000    0.000000    0.000000    0.000000  -99.137364   28.475285   -5.368190  -34.614468
  0.048456914    0.000000    0.000000    0.000000    0.000000  -99.221969   22.812101   -5.389057  -36.422703
  0.048657315    0.000000    0.000000    0.000000    0.000000  -99.955908   28.924164   -5.411900  -38.230965
  0.048857715    0.000000    0.000000    0.000000    0.000000 -100.780951   37.173122   -5.437050  -40.012024
  0.049058116    0.000000    0.000000    0.000000    0.000000  -99.468072   32.159134   -5.457216  -41.809799
  0.049258517    0.000000    0.000000    0.000000    0.000000 -100.190975   26.998446   -5.481089  -43.557590
  0.049458918    0.000000    0.000000    0.000000    0.000000  -99.360029   38.973415   -5.502451  -45.311985
  0.049659319    0.000000    0.000000    0.000000    0.000000 -102.859197   33.114372   -5.524819  -47.042789
  0.049859719    0.000000    0.000000    0.000000    0.000000 -100.356398   32.633846   -5.550613  -48.761364
  0.050060120    0.000000    0.000000    0.000000    0.000000  -99.392102   31.589102   -5.569496  -50.472641
  0.050260521    0.000000    0.000000    0.000000    0.000000 -100.031702   43.306736   -5.589823  -52.181961
  0.050460922    0.000000    0.000000    0.000000    0.000000 -100.840082   26.845615   -5.607819  -53.893024
  0.050661323    0.000000    0.000000    0.000000    0.000000  -98.497164   40.998451   -5.628507  -55.572701
  0.050861723    0.000000    0.000000    0.000000    0.000000  -98.932125   26.678892   -5.643342  -57.248470
  0.051062124    0.000000    0.000000    0.000000    0.000000  -99.210427   36.581547   -5.661318  -58.911247
  0.051262525    0.000000    0.000000    0.000000    0.000000  -98.661847   35.146599   -5.684523  -60.548874
  0.051462926    0.000000    0.000000    0.000000    0.000000  -97.926721   36.216789   -5.698652  -62.193878
  0.051663327    0.000000    0.000000    0.000000    0.000000  -98.305893   38.494213   -5.715625  -63.813271
  0.051863727    0.000000    0.000000    0.000000    0.000000  -98.786619   36.912560   -5.731793  -65.430038
  0.052064128    0.000000    0.000000    0.000000    0.000000  -98.636705   26.638201   -5.744652  -67.047134
  0.052264529    0.000000    0.000000    0.000000    0.000000  -99.364667   32.521492   -5.757075  -68.633461
  0.052464930    0.000000    0.000000    0.000000    0.000000  -97.943564   30.775747   -5.769618  -70.226898
  0.052665331    0.000000    0.000000    0.000000    0.000000  -98.589479   32.410641   -5.784039  -71.785339
  0.052865731    0.000000    0.000000    0.000000    0.000000  -97.790618   29.728992   -5.796249  -73.318512
