! Anritsu VNA Master:                 Model: MS2034B/10/19/501
! SN:                                  1337062
! /bd0/ovro-jan-2016/d1-s22.s2p
! Existing Calibration Information:
! TYPE:                         Current Settings,       Active Cal Settings
! TIME:             	   01/08/2016 01:37:04 PM,    01/08/2016 01:28:30 PM
! INTERNAL TEMP:    	                   47.8 C,                    48.5 C
! # POINTS:         	                      401,                       401
! START FREQ:       	               10.000 MHz,                10.000 MHz
! STOP FREQ:        	              110.000 MHz,               110.000 MHz
! SOURCE POWER:     	                      Low,                       Low
! IFBW:             	                   100 Hz,                    100 Hz
! AVG FACTOR:       	                       1 ,                        1 
! REF PLANE 1:      	                     0 mm,                      0 mm
! REF PLANE 2:      	                     0 mm,                      0 mm
! CAL TYPE:         	                 Full S11,                  Full S11
! CAL METHOD:       	                     SOLT,                      SOLT
! CAL LINE TYPE:    	                     Coax,                      Coax
! DUT PORT 1:       	                K-Conn(M),                 K-Conn(M)
! DUT PORT 2:       	                N-Conn(M),                 N-Conn(M)
! CAL STATUS:       	        OK: Accuracy High,                        --
# GHZ S DB R 50.0
! FREQ.GHZ       S11DB        S11A       S21DB        S21A       S12DB        S12A       S22DB        S22A
  0.010000000  -22.732711  103.002899  -65.145733  175.718719    0.000000    0.000000    0.000000    0.000000
  0.010250000  -23.027246  103.426865  -64.883287  168.409760    0.000000    0.000000    0.000000    0.000000
  0.010500000  -23.174739  104.842453  -64.409983  176.620834    0.000000    0.000000    0.000000    0.000000
  0.010750000  -23.225325  106.152809  -66.538540  158.641739    0.000000    0.000000    0.000000    0.000000
  0.011000000  -23.251687  107.487045  -64.230219  164.758163    0.000000    0.000000    0.000000    0.000000
  0.011250000  -23.708641  108.123604  -65.764747  159.695435    0.000000    0.000000    0.000000    0.000000
  0.011500000  -23.670844  109.785599  -65.359375  169.607376    0.000000    0.000000    0.000000    0.000000
  0.011750000  -23.780312  110.176399  -66.168847  161.063889    0.000000    0.000000    0.000000    0.000000
  0.012000000  -24.037288  112.353333  -65.734727  177.479507    0.000000    0.000000    0.000000    0.000000
  0.012250000  -24.163501  112.947304  -67.405975  159.064819    0.000000    0.000000    0.000000    0.000000
  0.012500000  -24.135801  115.861465  -65.703941  157.018295    0.000000    0.000000    0.000000    0.000000
  0.012750000  -24.201312  115.295998  -64.896056  168.001022    0.000000    0.000000    0.000000    0.000000
  0.013000000  -24.441326  116.795822  -65.577826  146.682129    0.000000    0.000000    0.000000    0.000000
  0.013250000  -24.138786  116.390129  -65.779549  146.972458    0.000000    0.000000    0.000000    0.000000
  0.013500000  -24.281226  115.365990  -64.391326 -178.793655    0.000000    0.000000    0.000000    0.000000
  0.013750000  -24.414642  118.212379  -67.858768  173.818970    0.000000    0.000000    0.000000    0.000000
  0.014000000  -24.359307  118.969002  -65.091834  152.527908    0.000000    0.000000    0.000000    0.000000
  0.014250000  -24.423493  118.492073  -65.883994  152.668640    0.000000    0.000000    0.000000    0.000000
  0.014500000  -24.280334  120.573326  -63.328345  163.470596    0.000000    0.000000    0.000000    0.000000
  0.014750000  -24.058012  120.340096  -65.937483  172.175781    0.000000    0.000000    0.000000    0.000000
  0.015000000  -24.052719  120.167068  -65.357003  179.712143    0.000000    0.000000    0.000000    0.000000
  0.015250000  -23.862354  119.815956  -64.466483  146.419418    0.000000    0.000000    0.000000    0.000000
  0.015500000  -24.206447  120.074997  -66.753782  160.306656    0.000000    0.000000    0.000000    0.000000
  0.015750000  -24.107649  119.921158  -65.102780  158.201096    0.000000    0.000000    0.000000    0.000000
  0.016000000  -23.717400  119.527351  -65.728418  140.814560    0.000000    0.000000    0.000000    0.000000
  0.016250000  -23.772775  118.876167  -64.327183  164.410995    0.000000    0.000000    0.000000    0.000000
  0.016500000  -23.759809  120.473648  -65.233051  155.119217    0.000000    0.000000    0.000000    0.000000
  0.016750000  -23.755370  119.843620  -64.528249  155.762299    0.000000    0.000000    0.000000    0.000000
  0.017000000  -23.595124  119.481209  -63.267458  170.469177    0.000000    0.000000    0.000000    0.000000
  0.017250000  -23.686964  119.403030  -63.612803  153.879852    0.000000    0.000000    0.000000    0.000000
  0.017500000  -23.621640  118.087868  -66.656159  161.238083    0.000000    0.000000    0.000000    0.000000
  0.017750000  -23.682368  117.763351  -65.287316  154.412003    0.000000    0.000000    0.000000    0.000000
  0.018000000  -23.349436  116.935036  -65.623025  150.702713    0.000000    0.000000    0.000000    0.000000
  0.018250000  -23.467192  117.013420  -63.632957  140.240738    0.000000    0.000000    0.000000    0.000000
  0.018500000  -23.492672  116.079132  -68.189149  146.767502    0.000000    0.000000    0.000000    0.000000
  0.018750000  -23.456027  115.075890  -66.022836  177.732880    0.000000    0.000000    0.000000    0.000000
  0.019000000  -23.566931  113.962341  -67.521274  153.931686    0.000000    0.000000    0.000000    0.000000
  0.019250000  -23.545757  112.788979  -64.120467  152.196564    0.000000    0.000000    0.000000    0.000000
  0.019500000  -23.523203  111.629547  -63.236617  158.081177    0.000000    0.000000    0.000000    0.000000
  0.019750000  -23.567201  110.217270  -64.972658  161.336807    0.000000    0.000000    0.000000    0.000000
  0.020000000  -23.577940  110.402687  -64.605722  167.319931    0.000000    0.000000    0.000000    0.000000
  0.020250000  -23.782055  107.627029  -63.940318  165.325394    0.000000    0.000000    0.000000    0.000000
  0.020500000  -23.669052  107.891685  -64.787322  158.743179    0.000000    0.000000    0.000000    0.000000
  0.020750000  -23.646781  105.522690  -67.125166  162.232040    0.000000    0.000000    0.000000    0.000000
  0.021000000  -23.746098  105.834442  -65.457518  158.550171    0.000000    0.000000    0.000000    0.000000
  0.021250000  -23.928462  104.660194  -65.138063  161.627319    0.000000    0.000000    0.000000    0.000000
  0.021500000  -23.766840  103.447685  -63.591258  144.619308    0.000000    0.000000    0.000000    0.000000
  0.021750000  -23.832001  102.698662  -63.081030  167.068436    0.000000    0.000000    0.000000    0.000000
  0.022000000  -23.979755  100.407951  -64.350651  157.948883    0.000000    0.000000    0.000000    0.000000
  0.022250000  -23.962525   98.556679  -64.625622  162.259491    0.000000    0.000000    0.000000    0.000000
  0.022500000  -24.323493   98.774490  -62.866526  147.144196    0.000000    0.000000    0.000000    0.000000
  0.022750000  -24.118811   95.943329  -65.101046  152.417587    0.000000    0.000000    0.000000    0.000000
  0.023000000  -24.497931   94.506584  -63.070257  141.048126    0.000000    0.000000    0.000000    0.000000
  0.023250000  -24.433646   94.726318  -64.516403  146.639236    0.000000    0.000000    0.000000    0.000000
  0.023500000  -24.695387   91.175102  -64.375602  151.096375    0.000000    0.000000    0.000000    0.000000
  0.023750000  -24.891389   90.324692  -64.445904  166.085114    0.000000    0.000000    0.000000    0.000000
  0.024000000  -25.063890   88.496796  -63.995343  153.414444    0.000000    0.000000    0.000000    0.000000
  0.024250000  -25.360333   86.858078  -64.138031  143.907730    0.000000    0.000000    0.000000    0.000000
  0.024500000  -25.405855   84.709846  -63.863681  146.872086    0.000000    0.000000    0.000000    0.000000
  0.024750000  -26.053971   82.304688  -63.650683  153.957565    0.000000    0.000000    0.000000    0.000000
  0.025000000  -26.106864   81.066238  -65.183212 -179.991959    0.000000    0.000000    0.000000    0.000000
  0.025250000  -26.322079   78.351624  -64.820700  150.540085    0.000000    0.000000    0.000000    0.000000
  0.025500000  -26.391655   79.871536  -67.284736  167.456390    0.000000    0.000000    0.000000    0.000000
  0.025750000  -27.174877   76.983154  -67.416512  159.576508    0.000000    0.000000    0.000000    0.000000
  0.026000000  -27.160444   75.493347  -65.525477  168.972641    0.000000    0.000000    0.000000    0.000000
  0.026250000  -27.985305   72.800423  -65.892422  165.714737    0.000000    0.000000    0.000000    0.000000
  0.026500000  -28.645389   74.756355  -65.067980  171.154312    0.000000    0.000000    0.000000    0.000000
  0.026750000  -28.868495   70.034966  -66.219231  157.668518    0.000000    0.000000    0.000000    0.000000
  0.027000000  -30.160765   72.406311  -65.846427 -179.671844    0.000000    0.000000    0.000000    0.000000
  0.027250000  -31.180946   77.449501  -64.616484  173.442368    0.000000    0.000000    0.000000    0.000000
  0.027500000  -31.609849   80.416374  -65.604188  148.994720    0.000000    0.000000    0.000000    0.000000
  0.027750000  -32.258513   77.928207  -66.644586  143.216736    0.000000    0.000000    0.000000    0.000000
  0.028000000  -31.624732   79.741241  -66.601294  170.879623    0.000000    0.000000    0.000000    0.000000
  0.028250000  -32.760775   82.926125  -64.572726  176.031235    0.000000    0.000000    0.000000    0.000000
  0.028500000  -32.621829   89.796112  -65.586832  166.006744    0.000000    0.000000    0.000000    0.000000
  0.028750000  -32.000512   94.675552  -63.856868  153.807465    0.000000    0.000000    0.000000    0.000000
  0.029000000  -32.047559   97.242241  -63.381311  154.801605    0.000000    0.000000    0.000000    0.000000
  0.029250000  -32.435337  101.619881  -63.068265  154.149612    0.000000    0.000000    0.000000    0.000000
  0.029500000  -32.636481  100.978645  -64.476387  159.216171    0.000000    0.000000    0.000000    0.000000
  0.029750000  -31.972539   97.451538  -67.119578  166.475449    0.000000    0.000000    0.000000    0.000000
  0.030000000  -31.798103  104.312447  -62.549819  167.200134    0.000000    0.000000    0.000000    0.000000
  0.030250000  -31.334351  102.205765  -67.878100  176.355011    0.000000    0.000000    0.000000    0.000000
  0.030500000  -31.356621  100.004295  -65.304147  150.008224    0.000000    0.000000    0.000000    0.000000
  0.030750000  -30.988285  103.687408  -62.650979  166.241501    0.000000    0.000000    0.000000    0.000000
  0.031000000  -30.747387   98.039124  -65.231029  162.518967    0.000000    0.000000    0.000000    0.000000
  0.031250000  -31.353815  105.390488  -65.467502  151.515732    0.000000    0.000000    0.000000    0.000000
  0.031500000  -31.502935  101.725716  -66.169820  153.841034    0.000000    0.000000    0.000000    0.000000
  0.031750000  -31.449926  101.403442  -62.918899  162.748718    0.000000    0.000000    0.000000    0.000000
  0.032000000  -31.629161   99.720001  -63.189188  161.035660    0.000000    0.000000    0.000000    0.000000
  0.032250000  -31.669633   96.954269  -65.428857  149.573792    0.000000    0.000000    0.000000    0.000000
  0.032500000  -31.257928   99.683495  -64.564244  172.998108    0.000000    0.000000    0.000000    0.000000
  0.032750000  -31.640428  100.715721  -64.685809  159.785751    0.000000    0.000000    0.000000    0.000000
  0.033000000  -32.017037   98.187767  -64.427784  153.512802    0.000000    0.000000    0.000000    0.000000
  0.033250000  -31.603804   97.848236  -67.794690  157.254990    0.000000    0.000000    0.000000    0.000000
  0.033500000  -31.684489   94.527138  -63.981964  147.595551    0.000000    0.000000    0.000000    0.000000
  0.033750000  -31.805225   95.184669  -64.822709  170.530182    0.000000    0.000000    0.000000    0.000000
  0.034000000  -31.921736   97.414268  -64.284489  160.953201    0.000000    0.000000    0.000000    0.000000
  0.034250000  -32.098026   97.070534  -66.632270  165.297882    0.000000    0.000000    0.000000    0.000000
  0.034500000  -32.090509   95.445259  -63.239530  143.572952    0.000000    0.000000    0.000000    0.000000
  0.034750000  -32.348582   98.144005  -65.264206  164.067123    0.000000    0.000000    0.000000    0.000000
  0.035000000  -32.989786   97.357681  -64.495630  151.505737    0.000000    0.000000    0.000000    0.000000
  0.035250000  -32.636941   94.393730  -64.505849  151.966110    0.000000    0.000000    0.000000    0.000000
  0.035500000  -32.449636   93.486191  -66.383159  147.323441    0.000000    0.000000    0.000000    0.000000
  0.035750000  -33.077025   97.415009  -64.432594  144.645432    0.000000    0.000000    0.000000    0.000000
  0.036000000  -33.054271   94.758018  -65.076408  142.416351    0.000000    0.000000    0.000000    0.000000
  0.036250000  -33.225114   95.373062  -64.247092  156.309479    0.000000    0.000000    0.000000    0.000000
  0.036500000  -33.047869   97.308258  -63.958626  154.823105    0.000000    0.000000    0.000000    0.000000
  0.036750000  -33.496029   94.971741  -65.159684  147.472534    0.000000    0.000000    0.000000    0.000000
  0.037000000  -33.205476   94.609871  -64.649084  165.844391    0.000000    0.000000    0.000000    0.000000
  0.037250000  -33.437880   93.423378  -66.060191  147.048584    0.000000    0.000000    0.000000    0.000000
  0.037500000  -33.770776   98.159584  -64.451933  151.528687    0.000000    0.000000    0.000000    0.000000
  0.037750000  -34.329941   97.100571  -64.255600  156.772705    0.000000    0.000000    0.000000    0.000000
  0.038000000  -34.077173   97.715439  -65.408598  146.878189    0.000000    0.000000    0.000000    0.000000
  0.038250000  -34.268526   97.523125  -63.324457  166.974472    0.000000    0.000000    0.000000    0.000000
  0.038500000  -34.070824   95.185371  -63.396328  142.326752    0.000000    0.000000    0.000000    0.000000
  0.038750000  -34.708248   93.286652  -63.398197  152.774399    0.000000    0.000000    0.000000    0.000000
  0.039000000  -34.771547   97.300911  -66.143750  154.218445    0.000000    0.000000    0.000000    0.000000
  0.039250000  -34.647045   93.761116  -63.780889  167.858093    0.000000    0.000000    0.000000    0.000000
  0.039500000  -34.678600   97.019890  -65.897821  151.804596    0.000000    0.000000    0.000000    0.000000
  0.039750000  -34.943787   94.803215  -64.713196  149.947830    0.000000    0.000000    0.000000    0.000000
  0.040000000  -34.891599   95.308037  -64.157012  153.824310    0.000000    0.000000    0.000000    0.000000
  0.040250000  -34.909116   94.146614  -64.559330  162.469803    0.000000    0.000000    0.000000    0.000000
  0.040500000  -35.434841   91.400597  -64.002470  157.033691    0.000000    0.000000    0.000000    0.000000
  0.040750000  -35.023044   94.561623  -65.316890  164.830612    0.000000    0.000000    0.000000    0.000000
  0.041000000  -35.871217   97.100639  -67.037398  158.727264    0.000000    0.000000    0.000000    0.000000
  0.041250000  -35.160049   94.161201  -66.732851  166.969925    0.000000    0.000000    0.000000    0.000000
  0.041500000  -36.083294   93.073120  -67.111101  160.493378    0.000000    0.000000    0.000000    0.000000
  0.041750000  -36.046843   94.040916  -65.097739  160.310776    0.000000    0.000000    0.000000    0.000000
  0.042000000  -35.304465   96.419373  -66.051903  158.286301    0.000000    0.000000    0.000000    0.000000
  0.042250000  -35.847228   92.718918  -64.864089  161.017151    0.000000    0.000000    0.000000    0.000000
  0.042500000  -36.060091   95.007156  -64.801744  163.146942    0.000000    0.000000    0.000000    0.000000
  0.042750000  -35.833579   96.769325  -64.404914  155.149994    0.000000    0.000000    0.000000    0.000000
  0.043000000  -36.876186   93.846054  -63.126758  156.811264    0.000000    0.000000    0.000000    0.000000
  0.043250000  -36.861320   93.742813  -63.728671  159.336441    0.000000    0.000000    0.000000    0.000000
  0.043500000  -36.567458   89.483284  -61.599135  156.998093    0.000000    0.000000    0.000000    0.000000
  0.043750000  -36.473872   96.208939  -65.453546  158.155563    0.000000    0.000000    0.000000    0.000000
  0.044000000  -37.079787   94.262650  -63.974412  144.235855    0.000000    0.000000    0.000000    0.000000
  0.044250000  -37.113047   93.363953  -65.324783  150.775497    0.000000    0.000000    0.000000    0.000000
  0.044500000  -37.406277   96.074364  -65.060247  147.759735    0.000000    0.000000    0.000000    0.000000
  0.044750000  -36.816962   97.251915  -64.156621  175.899765    0.000000    0.000000    0.000000    0.000000
  0.045000000  -37.813027   95.618095  -66.467648  156.790237    0.000000    0.000000    0.000000    0.000000
  0.045250000  -36.948420   95.427567  -66.238889  155.149887    0.000000    0.000000    0.000000    0.000000
  0.045500000  -38.204518   94.869965  -65.118451  166.596100    0.000000    0.000000    0.000000    0.000000
  0.045750000  -37.941394   94.913948  -66.740591  157.430252    0.000000    0.000000    0.000000    0.000000
  0.046000000  -37.770686   99.017151  -65.153725  163.330963    0.000000    0.000000    0.000000    0.000000
  0.046250000  -38.523920   91.318382  -66.528204  164.226028    0.000000    0.000000    0.000000    0.000000
  0.046500000  -38.593831   88.766624  -64.663495  155.813599    0.000000    0.000000    0.000000    0.000000
  0.046750000  -37.530302   95.724625  -63.598201  165.981430    0.000000    0.000000    0.000000    0.000000
  0.047000000  -38.418409   92.452728  -65.812411  168.935211    0.000000    0.000000    0.000000    0.000000
  0.047250000  -38.235692   92.931862  -68.261747  162.738007    0.000000    0.000000    0.000000    0.000000
  0.047500000  -38.534260   86.440521  -64.114462  154.844284    0.000000    0.000000    0.000000    0.000000
  0.047750000  -39.399681   94.748993  -64.109706  159.513504    0.000000    0.000000    0.000000    0.000000
  0.048000000  -38.928452   87.887138  -66.361393  148.485825    0.000000    0.000000    0.000000    0.000000
  0.048250000  -38.491560   85.911469  -64.829934  159.123215    0.000000    0.000000    0.000000    0.000000
  0.048500000  -39.170910   94.627701  -63.029604  158.128159    0.000000    0.000000    0.000000    0.000000
  0.048750000  -39.888597   94.312927  -63.513527  146.616348    0.000000    0.000000    0.000000    0.000000
  0.049000000  -39.252865   95.634216  -64.725993  156.501358    0.000000    0.000000    0.000000    0.000000
  0.049250000  -39.667145   87.504944  -65.957240  140.092575    0.000000    0.000000    0.000000    0.000000
  0.049500000  -40.605774   91.101105  -64.068068  153.997299    0.000000    0.000000    0.000000    0.000000
  0.049750000  -40.575609   87.851807  -66.310479  149.692413    0.000000    0.000000    0.000000    0.000000
  0.050000000  -41.494467   88.628334  -66.481421 -167.285294    0.000000    0.000000    0.000000    0.000000
  0.050250000  -42.485021   85.727524  -66.849381  176.234924    0.000000    0.000000    0.000000    0.000000
  0.050500000  -40.670390   94.814934  -69.159373  175.751007    0.000000    0.000000    0.000000    0.000000
  0.050750000  -39.749034   94.790031  -66.714489  173.357834    0.000000    0.000000    0.000000    0.000000
  0.051000000  -42.696809   75.264313  -65.912582  167.106842    0.000000    0.000000    0.000000    0.000000
