! Anritsu VNA Master:                 Model: MS2034B/10/19/501
! SN:                                  1337062
! /bd0/ovro-jan-2016/d2-s22.s2p
! Existing Calibration Information:
! TYPE:                         Current Settings,       Active Cal Settings
! TIME:             	   01/08/2016 01:38:23 PM,    01/08/2016 01:28:30 PM
! INTERNAL TEMP:    	                   47.5 C,                    48.5 C
! # POINTS:         	                      401,                       401
! START FREQ:       	               10.000 MHz,                10.000 MHz
! STOP FREQ:        	              110.000 MHz,               110.000 MHz
! SOURCE POWER:     	                      Low,                       Low
! IFBW:             	                   100 Hz,                    100 Hz
! AVG FACTOR:       	                       1 ,                        1 
! REF PLANE 1:      	                     0 mm,                      0 mm
! REF PLANE 2:      	                     0 mm,                      0 mm
! CAL TYPE:         	                 Full S11,                  Full S11
! CAL METHOD:       	                     SOLT,                      SOLT
! CAL LINE TYPE:    	                     Coax,                      Coax
! DUT PORT 1:       	                K-Conn(M),                 K-Conn(M)
! DUT PORT 2:       	                N-Conn(M),                 N-Conn(M)
! CAL STATUS:       	        OK: Accuracy High,                        --
# GHZ S DB R 50.0
! FREQ.GHZ       S11DB        S11A       S21DB        S21A       S12DB        S12A       S22DB        S22A
  0.010000000  -21.789581  102.572563  -65.011498  153.626526    0.000000    0.000000    0.000000    0.000000
  0.010250000  -22.130230  103.531570  -62.540119  173.206665    0.000000    0.000000    0.000000    0.000000
  0.010500000  -22.259605  106.364990  -65.767144  169.243179    0.000000    0.000000    0.000000    0.000000
  0.010750000  -22.407224  105.143181  -64.319782  167.596268    0.000000    0.000000    0.000000    0.000000
  0.011000000  -22.457222  106.991150  -67.696093  160.529175    0.000000    0.000000    0.000000    0.000000
  0.011250000  -22.891415  108.483955  -64.554016  168.906418    0.000000    0.000000    0.000000    0.000000
  0.011500000  -23.001822  109.787544  -64.154907  174.686539    0.000000    0.000000    0.000000    0.000000
  0.011750000  -23.096514  110.750587  -64.499566 -170.924698    0.000000    0.000000    0.000000    0.000000
  0.012000000  -23.211378  111.559196  -63.792247  169.835373    0.000000    0.000000    0.000000    0.000000
  0.012250000  -23.260827  112.655746  -67.591487  159.843933    0.000000    0.000000    0.000000    0.000000
  0.012500000  -23.278105  114.794731  -64.242627  152.580627    0.000000    0.000000    0.000000    0.000000
  0.012750000  -23.320643  115.975204  -63.570016  154.936646    0.000000    0.000000    0.000000    0.000000
  0.013000000  -23.270773  116.186897  -65.012371  153.138626    0.000000    0.000000    0.000000    0.000000
  0.013250000  -23.515442  115.207161  -65.163509  165.951584    0.000000    0.000000    0.000000    0.000000
  0.013500000  -23.499638  115.778854  -63.756855  145.228546    0.000000    0.000000    0.000000    0.000000
  0.013750000  -23.650986  118.093956  -65.160291  160.698502    0.000000    0.000000    0.000000    0.000000
  0.014000000  -23.429588  118.510651  -64.795146  171.853104    0.000000    0.000000    0.000000    0.000000
  0.014250000  -23.486132  118.990089  -65.428924  173.014221    0.000000    0.000000    0.000000    0.000000
  0.014500000  -23.417748  120.231834  -66.496130  158.287506    0.000000    0.000000    0.000000    0.000000
  0.014750000  -23.416557  119.955811  -66.358660  160.984390    0.000000    0.000000    0.000000    0.000000
  0.015000000  -23.566990  119.933235  -65.447798  144.600693    0.000000    0.000000    0.000000    0.000000
  0.015250000  -23.265039  121.015556  -69.099776  163.357086    0.000000    0.000000    0.000000    0.000000
  0.015500000  -23.360633  119.756081  -67.985334  160.560104    0.000000    0.000000    0.000000    0.000000
  0.015750000  -23.160777  119.898750  -65.621224  152.739685    0.000000    0.000000    0.000000    0.000000
  0.016000000  -22.826921  119.883087  -64.892407  159.295593    0.000000    0.000000    0.000000    0.000000
  0.016250000  -23.066012  120.024498  -67.888841  148.434753    0.000000    0.000000    0.000000    0.000000
  0.016500000  -22.987362  119.743584  -63.185527  136.204315    0.000000    0.000000    0.000000    0.000000
  0.016750000  -23.085396  119.637703  -61.948280  149.625137    0.000000    0.000000    0.000000    0.000000
  0.017000000  -23.123905  119.985085  -67.128673  146.922958    0.000000    0.000000    0.000000    0.000000
  0.017250000  -23.034484  120.487648  -66.135033  158.812302    0.000000    0.000000    0.000000    0.000000
  0.017500000  -22.923925  118.775856  -64.028374  158.706207    0.000000    0.000000    0.000000    0.000000
  0.017750000  -22.824455  117.985916  -64.222528  171.151794    0.000000    0.000000    0.000000    0.000000
  0.018000000  -22.846480  117.338577  -64.241958  145.145782    0.000000    0.000000    0.000000    0.000000
  0.018250000  -22.865640  116.941254  -65.096430  155.627701    0.000000    0.000000    0.000000    0.000000
  0.018500000  -22.829320  115.840324  -64.966679  153.744019    0.000000    0.000000    0.000000    0.000000
  0.018750000  -22.872262  116.466080  -64.902339  145.597885    0.000000    0.000000    0.000000    0.000000
  0.019000000  -22.940168  115.417015  -66.683062  158.167313    0.000000    0.000000    0.000000    0.000000
  0.019250000  -23.038653  113.006866  -65.500526  154.803925    0.000000    0.000000    0.000000    0.000000
  0.019500000  -22.854719  112.680542  -64.680799  151.892227    0.000000    0.000000    0.000000    0.000000
  0.019750000  -22.779624  110.654182  -64.216197  157.079865    0.000000    0.000000    0.000000    0.000000
  0.020000000  -22.984902  110.066216  -64.283436  162.394424    0.000000    0.000000    0.000000    0.000000
  0.020250000  -23.047502  108.880447  -63.351874  169.041672    0.000000    0.000000    0.000000    0.000000
  0.020500000  -22.974271  109.379929  -64.877457  152.116928    0.000000    0.000000    0.000000    0.000000
  0.020750000  -23.065427  106.695999  -66.495548  156.818130    0.000000    0.000000    0.000000    0.000000
  0.021000000  -23.052694  106.026337  -63.743661  157.185196    0.000000    0.000000    0.000000    0.000000
  0.021250000  -23.133539  105.240471  -64.019216  157.279999    0.000000    0.000000    0.000000    0.000000
  0.021500000  -22.976495  104.162628  -64.677579  165.711502    0.000000    0.000000    0.000000    0.000000
  0.021750000  -23.406398  103.101021  -64.647799  159.143265    0.000000    0.000000    0.000000    0.000000
  0.022000000  -23.501645  100.514130  -66.835865  174.806580    0.000000    0.000000    0.000000    0.000000
  0.022250000  -23.639425   99.813347  -63.318234  153.429047    0.000000    0.000000    0.000000    0.000000
  0.022500000  -23.669548   98.879654  -64.731715  169.694870    0.000000    0.000000    0.000000    0.000000
  0.022750000  -23.752553   98.579628  -65.003383  160.206299    0.000000    0.000000    0.000000    0.000000
  0.023000000  -23.936768   96.811066  -66.063581  164.059692    0.000000    0.000000    0.000000    0.000000
  0.023250000  -23.902264   95.579514  -66.918405  163.299698    0.000000    0.000000    0.000000    0.000000
  0.023500000  -24.252705   93.115631  -63.806743  170.773895    0.000000    0.000000    0.000000    0.000000
  0.023750000  -24.436137   92.086685  -65.641925  148.924103    0.000000    0.000000    0.000000    0.000000
  0.024000000  -24.539237   88.798309  -62.757206  172.876831    0.000000    0.000000    0.000000    0.000000
  0.024250000  -24.808674   87.759216  -64.303493  147.039032    0.000000    0.000000    0.000000    0.000000
  0.024500000  -25.185562   86.480583  -66.562460  161.868896    0.000000    0.000000    0.000000    0.000000
  0.024750000  -25.446750   85.910347  -63.418265  155.115372    0.000000    0.000000    0.000000    0.000000
  0.025000000  -25.788874   83.541771  -66.212980  174.083069    0.000000    0.000000    0.000000    0.000000
  0.025250000  -26.213841   83.109451  -67.820150  157.390762    0.000000    0.000000    0.000000    0.000000
  0.025500000  -26.397818   82.644821  -66.191329 -179.173599    0.000000    0.000000    0.000000    0.000000
  0.025750000  -26.840832   78.579651  -66.429286  173.561127    0.000000    0.000000    0.000000    0.000000
  0.026000000  -27.063475   77.833832  -64.568774  169.296783    0.000000    0.000000    0.000000    0.000000
  0.026250000  -27.789684   76.780861  -65.453818 -173.625610    0.000000    0.000000    0.000000    0.000000
  0.026500000  -28.255934   79.162811  -67.789582  163.119446    0.000000    0.000000    0.000000    0.000000
  0.026750000  -29.212218   76.107544  -67.427696  168.732773    0.000000    0.000000    0.000000    0.000000
  0.027000000  -30.253672   79.639107  -68.962292  151.977875    0.000000    0.000000    0.000000    0.000000
  0.027250000  -30.828002   85.136887  -65.791736  156.461868    0.000000    0.000000    0.000000    0.000000
  0.027500000  -30.731027   87.753532  -66.723251  166.791306    0.000000    0.000000    0.000000    0.000000
  0.027750000  -31.437842   88.614029  -65.107663  159.380463    0.000000    0.000000    0.000000    0.000000
  0.028000000  -32.023197   93.888443  -66.835514  154.711990    0.000000    0.000000    0.000000    0.000000
  0.028250000  -31.817497  100.869637  -66.356238  167.550232    0.000000    0.000000    0.000000    0.000000
  0.028500000  -31.113748  105.684288  -66.252483  169.963257    0.000000    0.000000    0.000000    0.000000
  0.028750000  -30.610564  108.421402  -66.588146  169.561264    0.000000    0.000000    0.000000    0.000000
  0.029000000  -30.649477  107.958519  -65.584248  160.754532    0.000000    0.000000    0.000000    0.000000
  0.029250000  -30.387401  108.167465  -63.149829  165.298599    0.000000    0.000000    0.000000    0.000000
  0.029500000  -30.095235  109.318031  -64.717201  165.374130    0.000000    0.000000    0.000000    0.000000
  0.029750000  -29.694156  106.132004  -64.091409  173.418167    0.000000    0.000000    0.000000    0.000000
  0.030000000  -29.914756  107.419380  -67.004386  148.186966    0.000000    0.000000    0.000000    0.000000
  0.030250000  -29.674573  109.154350  -65.710097  163.968658    0.000000    0.000000    0.000000    0.000000
  0.030500000  -29.120278  104.567017  -64.879105  168.388840    0.000000    0.000000    0.000000    0.000000
  0.030750000  -29.079631  104.754204  -64.308525  169.380768    0.000000    0.000000    0.000000    0.000000
  0.031000000  -29.381446  103.998672  -67.053513  153.620804    0.000000    0.000000    0.000000    0.000000
  0.031250000  -30.052269  106.745529  -63.877682  150.874664    0.000000    0.000000    0.000000    0.000000
  0.031500000  -29.875653  101.075256  -65.542797  169.553635    0.000000    0.000000    0.000000    0.000000
  0.031750000  -29.863076  103.608856  -65.425867  172.684937    0.000000    0.000000    0.000000    0.000000
  0.032000000  -30.114650  103.662071  -65.094846  167.585358    0.000000    0.000000    0.000000    0.000000
  0.032250000  -29.922044  101.050056  -66.264032  152.823792    0.000000    0.000000    0.000000    0.000000
  0.032500000  -29.937118  103.148407  -67.178598  165.841553    0.000000    0.000000    0.000000    0.000000
  0.032750000  -30.148090  102.204330  -65.378945  171.602829    0.000000    0.000000    0.000000    0.000000
  0.033000000  -30.691858  102.207771  -65.324173  176.617859    0.000000    0.000000    0.000000    0.000000
  0.033250000  -29.932300   99.708344  -64.629772  156.150055    0.000000    0.000000    0.000000    0.000000
  0.033500000  -30.513333   98.667671  -64.043917  162.447891    0.000000    0.000000    0.000000    0.000000
  0.033750000  -30.630973   98.889656  -64.569267  168.111237    0.000000    0.000000    0.000000    0.000000
  0.034000000  -30.414806  102.147881  -64.410803  168.108261    0.000000    0.000000    0.000000    0.000000
  0.034250000  -30.811174  100.908287  -64.523262  158.480713    0.000000    0.000000    0.000000    0.000000
  0.034500000  -30.784012  102.403061  -65.330869  150.257248    0.000000    0.000000    0.000000    0.000000
  0.034750000  -30.991898  100.455887  -63.301509  154.731354    0.000000    0.000000    0.000000    0.000000
  0.035000000  -31.137324  103.765862  -64.507815  157.578339    0.000000    0.000000    0.000000    0.000000
  0.035250000  -30.808595  103.276863  -66.261330  148.042374    0.000000    0.000000    0.000000    0.000000
  0.035500000  -31.079825  100.603935  -65.592668  150.622986    0.000000    0.000000    0.000000    0.000000
  0.035750000  -31.924704  103.114716  -63.317730  159.423492    0.000000    0.000000    0.000000    0.000000
  0.036000000  -31.306757  102.003311  -66.368761  140.783554    0.000000    0.000000    0.000000    0.000000
  0.036250000  -32.058629  104.882767  -63.563445  152.412628    0.000000    0.000000    0.000000    0.000000
  0.036500000  -31.989789  104.092903  -64.643850  150.570465    0.000000    0.000000    0.000000    0.000000
  0.036750000  -32.163692  104.799217  -66.553529  152.038666    0.000000    0.000000    0.000000    0.000000
  0.037000000  -31.975623  106.120560  -63.420499  137.622269    0.000000    0.000000    0.000000    0.000000
  0.037250000  -31.879269  100.211456  -64.075333  143.577759    0.000000    0.000000    0.000000    0.000000
  0.037500000  -32.324057  105.254272  -63.470365  143.541962    0.000000    0.000000    0.000000    0.000000
  0.037750000  -32.443154  107.214302  -63.915706  142.381134    0.000000    0.000000    0.000000    0.000000
  0.038000000  -32.832952  110.430115  -66.225547  168.602356    0.000000    0.000000    0.000000    0.000000
  0.038250000  -32.416876  106.258446  -65.480660  154.386017    0.000000    0.000000    0.000000    0.000000
  0.038500000  -32.360976  106.140816  -65.813393  175.459351    0.000000    0.000000    0.000000    0.000000
  0.038750000  -32.354589  103.837791  -65.880691  160.143692    0.000000    0.000000    0.000000    0.000000
  0.039000000  -32.147616  103.125549  -64.798005  155.275970    0.000000    0.000000    0.000000    0.000000
  0.039250000  -32.557732  106.012344  -63.987195  145.343338    0.000000    0.000000    0.000000    0.000000
  0.039500000  -32.590943  103.545471  -63.267982  165.055038    0.000000    0.000000    0.000000    0.000000
  0.039750000  -32.609926  105.856789  -67.695843  153.832138    0.000000    0.000000    0.000000    0.000000
  0.040000000  -32.741909  107.217743  -64.355075  167.118057    0.000000    0.000000    0.000000    0.000000
  0.040250000  -32.708811  102.782623  -63.429656  160.479965    0.000000    0.000000    0.000000    0.000000
  0.040500000  -32.884170  101.759201  -67.014896  152.235626    0.000000    0.000000    0.000000    0.000000
  0.040750000  -32.437156  103.641716  -65.511748  170.991257    0.000000    0.000000    0.000000    0.000000
  0.041000000  -32.955075  110.711380  -64.111078  146.224762    0.000000    0.000000    0.000000    0.000000
  0.041250000  -32.411380  105.478661  -65.392143  157.228394    0.000000    0.000000    0.000000    0.000000
  0.041500000  -33.476980  102.900528  -66.932055  147.638672    0.000000    0.000000    0.000000    0.000000
  0.041750000  -33.770172  103.866959  -64.472842  147.814636    0.000000    0.000000    0.000000    0.000000
  0.042000000  -33.042621  107.570442  -63.828482  158.319641    0.000000    0.000000    0.000000    0.000000
  0.042250000  -33.073527  104.840652  -65.319072  164.295105    0.000000    0.000000    0.000000    0.000000
  0.042500000  -32.979712  106.340073  -65.079870  149.991104    0.000000    0.000000    0.000000    0.000000
  0.042750000  -32.959262  104.617744  -63.658062  148.143967    0.000000    0.000000    0.000000    0.000000
  0.043000000  -33.105337  105.299568  -64.443093  143.365829    0.000000    0.000000    0.000000    0.000000
  0.043250000  -33.460606  102.176758  -65.348211  153.747223    0.000000    0.000000    0.000000    0.000000
  0.043500000  -33.641221  105.078606  -63.223795  155.327927    0.000000    0.000000    0.000000    0.000000
  0.043750000  -33.422953  103.716248  -67.305025  162.819595    0.000000    0.000000    0.000000    0.000000
  0.044000000  -33.394858  103.028519  -64.042611  145.815781    0.000000    0.000000    0.000000    0.000000
  0.044250000  -33.777176  105.321754  -64.603102  153.673233    0.000000    0.000000    0.000000    0.000000
  0.044500000  -33.631330  107.068581  -64.459959  157.072815    0.000000    0.000000    0.000000    0.000000
  0.044750000  -33.421522  102.129440  -63.850845  170.104874    0.000000    0.000000    0.000000    0.000000
  0.045000000  -33.819506  103.880402  -66.572063  167.628098    0.000000    0.000000    0.000000    0.000000
  0.045250000  -33.903206  104.833725  -63.985491  144.642776    0.000000    0.000000    0.000000    0.000000
  0.045500000  -34.154834  104.446098  -67.271056  171.982056    0.000000    0.000000    0.000000    0.000000
  0.045750000  -34.139079  105.942009  -64.671584  143.570984    0.000000    0.000000    0.000000    0.000000
  0.046000000  -34.250799  102.224541  -66.699127  149.957169    0.000000    0.000000    0.000000    0.000000
  0.046250000  -34.671989   98.214691  -65.194399  152.988449    0.000000    0.000000    0.000000    0.000000
  0.046500000  -34.528231  101.024162  -64.800093  156.226730    0.000000    0.000000    0.000000    0.000000
  0.046750000  -34.359120  102.344170  -63.978482  168.757111    0.000000    0.000000    0.000000    0.000000
  0.047000000  -35.048020  101.825775  -63.368102  178.063965    0.000000    0.000000    0.000000    0.000000
  0.047250000  -34.256418   99.377831  -67.118225  155.432739    0.000000    0.000000    0.000000    0.000000
  0.047500000  -34.664486   98.065666  -67.796168  151.366318    0.000000    0.000000    0.000000    0.000000
  0.047750000  -34.918918  103.007454  -64.429186  138.673859    0.000000    0.000000    0.000000    0.000000
  0.048000000  -34.929352  103.140297  -65.346535  156.615356    0.000000    0.000000    0.000000    0.000000
  0.048250000  -34.901173  101.671280  -65.549160  162.354050    0.000000    0.000000    0.000000    0.000000
  0.048500000  -34.872548  101.132408  -65.435714  145.125961    0.000000    0.000000    0.000000    0.000000
  0.048750000  -35.871214  104.381561  -62.980815  161.267471    0.000000    0.000000    0.000000    0.000000
  0.049000000  -35.025865  101.481941  -64.247614  166.229767    0.000000    0.000000    0.000000    0.000000
  0.049250000  -35.708681  100.201630  -65.236962  151.004471    0.000000    0.000000    0.000000    0.000000
  0.049500000  -35.551533   98.629562  -64.421623  143.212143    0.000000    0.000000    0.000000    0.000000
  0.049750000  -35.598493   97.972954  -63.104756  136.899094    0.000000    0.000000    0.000000    0.000000
  0.050000000  -35.640065   98.399445  -66.614633 -162.866043    0.000000    0.000000    0.000000    0.000000
  0.050250000  -36.247021  102.532593  -65.908258  166.312775    0.000000    0.000000    0.000000    0.000000
  0.050500000  -36.074099  103.150589  -67.620870  171.314621    0.000000    0.000000    0.000000    0.000000
  0.050750000  -34.741920   99.183212  -65.705822  148.128784    0.000000    0.000000    0.000000    0.000000
  0.051000000  -37.128914   99.045509  -67.114225  170.414612    0.000000    0.000000    0.000000    0.000000
