! Anritsu VNA Master:                 Model: MS2034B/10/19/501
! SN:                                  1337062
! /bd0/ovro-jan-2016/dcp-b1-s21-40db.s2p
! Existing Calibration Information:
! TYPE:                         Current Settings,       Active Cal Settings
! TIME:             	   01/09/2016 05:41:28 PM,    01/09/2016 12:40:35 PM
! INTERNAL TEMP:    	                   41.5 C,                    41.8 C
! # POINTS:         	                      500,                       500
! START FREQ:       	               10.000 MHz,                10.000 MHz
! STOP FREQ:        	              110.000 MHz,               110.000 MHz
! SOURCE POWER:     	                      Low,                       Low
! IFBW:             	                   100 Hz,                    100 Hz
! AVG FACTOR:       	                       3 ,                        3 
! REF PLANE 1:      	                 2.2245 m,                  2.2245 m
! REF PLANE 2:      	                     0 mm,                      0 mm
! CAL TYPE:         	             1P2P S11,S21,              1P2P S11,S21
! CAL METHOD:       	                     SOLT,                      SOLT
! CAL LINE TYPE:    	                     Coax,                      Coax
! DUT PORT 1:       	                K-Conn(M),                 K-Conn(M)
! DUT PORT 2:       	                N-Conn(M),                 N-Conn(M)
! CAL STATUS:       	        OK: Accuracy High,                        --
# GHZ S DB R 50.0
! FREQ.GHZ       S11DB        S11A       S21DB        S21A       S12DB        S12A       S22DB        S22A
  0.010000000  -41.356098 -119.762199  -64.293659  106.709335    0.000000    0.000000    0.000000    0.000000
  0.010200401  -39.968787 -119.961975  -65.090366   97.769699    0.000000    0.000000    0.000000    0.000000
  0.010400802  -40.309833 -114.522087  -63.666022   89.743820    0.000000    0.000000    0.000000    0.000000
  0.010601202  -39.425385 -124.847549  -66.202621   96.941551    0.000000    0.000000    0.000000    0.000000
  0.010801603  -40.936069 -119.376884  -63.185310  103.595757    0.000000    0.000000    0.000000    0.000000
  0.011002004  -39.544389 -118.771141  -64.050115   97.060028    0.000000    0.000000    0.000000    0.000000
  0.011202405  -39.726849 -120.370445  -65.563421   95.758194    0.000000    0.000000    0.000000    0.000000
  0.011402806  -39.655342 -114.610481  -63.042770   90.792397    0.000000    0.000000    0.000000    0.000000
  0.011603206  -38.553377 -114.185242  -63.459010   95.956436    0.000000    0.000000    0.000000    0.000000
  0.011803607  -40.016118 -114.034523  -64.681942   96.053535    0.000000    0.000000    0.000000    0.000000
  0.012004008  -40.416188 -113.972748  -62.955781   96.575630    0.000000    0.000000    0.000000    0.000000
  0.012204409  -39.329735 -112.062912  -65.389387  100.614433    0.000000    0.000000    0.000000    0.000000
  0.012404810  -39.801698 -112.442505  -64.196622  103.359879    0.000000    0.000000    0.000000    0.000000
  0.012605210  -39.543855 -108.282265  -64.291465  103.885216    0.000000    0.000000    0.000000    0.000000
  0.012805611  -40.639420 -100.569061  -64.868032   91.375153    0.000000    0.000000    0.000000    0.000000
  0.013006012  -40.592938 -100.257629  -63.618042  106.773026    0.000000    0.000000    0.000000    0.000000
  0.013206413  -40.045376 -108.401436  -64.039339  101.121735    0.000000    0.000000    0.000000    0.000000
  0.013406814  -40.596701  -95.084633  -65.090894  103.865013    0.000000    0.000000    0.000000    0.000000
  0.013607214  -39.569420 -100.296219  -65.475255  111.021698    0.000000    0.000000    0.000000    0.000000
  0.013807615  -39.607316 -100.986931  -65.898264  112.823158    0.000000    0.000000    0.000000    0.000000
  0.014008016  -38.491254 -108.563683  -65.740869  125.466270    0.000000    0.000000    0.000000    0.000000
  0.014208417  -40.753919  -98.352943  -67.752684  109.084717    0.000000    0.000000    0.000000    0.000000
  0.014408818  -40.251033  -88.140930  -64.954808  112.157112    0.000000    0.000000    0.000000    0.000000
  0.014609218  -39.511764  -95.656052  -64.852757  121.741539    0.000000    0.000000    0.000000    0.000000
  0.014809619  -40.953346  -89.758087  -63.759789  128.656235    0.000000    0.000000    0.000000    0.000000
  0.015010020  -39.327087  -93.011200  -64.429655  132.204605    0.000000    0.000000    0.000000    0.000000
  0.015210421  -39.568385  -89.075127  -66.417328  138.714539    0.000000    0.000000    0.000000    0.000000
  0.015410822  -39.928931  -87.886742  -65.342911  129.435226    0.000000    0.000000    0.000000    0.000000
  0.015611222  -40.117792  -84.462875  -64.340475  140.590347    0.000000    0.000000    0.000000    0.000000
  0.015811623  -39.177915  -84.577293  -63.892405  140.017883    0.000000    0.000000    0.000000    0.000000
  0.016012024  -39.417788  -83.550652  -63.673357  148.830948    0.000000    0.000000    0.000000    0.000000
  0.016212425  -39.129501  -81.028381  -64.501225  141.947052    0.000000    0.000000    0.000000    0.000000
  0.016412826  -40.644466  -81.175438  -62.388285  149.988205    0.000000    0.000000    0.000000    0.000000
  0.016613226  -39.684329  -83.085876  -63.362540  150.903687    0.000000    0.000000    0.000000    0.000000
  0.016813627  -39.351134  -79.780731  -61.817435  151.050446    0.000000    0.000000    0.000000    0.000000
  0.017014028  -39.352634  -71.727036  -61.864911  144.370438    0.000000    0.000000    0.000000    0.000000
  0.017214429  -38.761512  -78.534805  -61.334447  153.664719    0.000000    0.000000    0.000000    0.000000
  0.017414830  -39.894231  -72.740379  -61.702470  155.695831    0.000000    0.000000    0.000000    0.000000
  0.017615230  -39.281462  -77.126663  -61.057540  150.830948    0.000000    0.000000    0.000000    0.000000
  0.017815631  -39.833849  -74.715576  -61.181750  153.845673    0.000000    0.000000    0.000000    0.000000
  0.018016032  -39.272582  -66.496857  -59.479286  155.863586    0.000000    0.000000    0.000000    0.000000
  0.018216433  -39.644541  -66.397583  -60.794772  150.238815    0.000000    0.000000    0.000000    0.000000
  0.018416834  -39.814304  -70.505005  -60.525847  151.803741    0.000000    0.000000    0.000000    0.000000
  0.018617234  -38.973243  -70.374664  -60.839608  151.389069    0.000000    0.000000    0.000000    0.000000
  0.018817635  -39.053523  -69.563576  -59.718539  150.928879    0.000000    0.000000    0.000000    0.000000
  0.019018036  -38.749378  -66.762619  -60.692855  149.858978    0.000000    0.000000    0.000000    0.000000
  0.019218437  -39.222583  -62.221546  -60.911828  153.939224    0.000000    0.000000    0.000000    0.000000
  0.019418838  -40.172780  -57.842468  -61.198495  153.406357    0.000000    0.000000    0.000000    0.000000
  0.019619238  -40.340067  -56.366947  -63.663342  167.383682    0.000000    0.000000    0.000000    0.000000
  0.019819639  -39.978027  -57.585854  -63.696563  174.554306    0.000000    0.000000    0.000000    0.000000
  0.020020040  -40.246843  -56.765339  -65.533307 -177.809067    0.000000    0.000000    0.000000    0.000000
  0.020220441  -39.600264  -61.147701  -64.841434 -143.579971    0.000000    0.000000    0.000000    0.000000
  0.020420842  -40.088291  -59.958706  -63.683008 -122.737526    0.000000    0.000000    0.000000    0.000000
  0.020621242  -39.338328  -54.049408  -60.466363 -109.206093    0.000000    0.000000    0.000000    0.000000
  0.020821643  -39.293594  -53.337013  -58.610026 -100.540421    0.000000    0.000000    0.000000    0.000000
  0.021022044  -39.267249  -53.328182  -55.327578  -92.440002    0.000000    0.000000    0.000000    0.000000
  0.021222445  -39.711590  -48.634193  -53.146659  -89.621231    0.000000    0.000000    0.000000    0.000000
  0.021422846  -39.186519  -54.994137  -50.431709  -88.714912    0.000000    0.000000    0.000000    0.000000
  0.021623246  -38.501921  -50.608162  -48.677579  -88.485657    0.000000    0.000000    0.000000    0.000000
  0.021823647  -38.652376  -48.447075  -46.462528  -88.644974    0.000000    0.000000    0.000000    0.000000
  0.022024048  -38.592938  -47.044422  -44.618224  -90.602745    0.000000    0.000000    0.000000    0.000000
  0.022224449  -39.584812  -39.206966  -42.847600  -94.020172    0.000000    0.000000    0.000000    0.000000
  0.022424850  -39.339835  -36.337578  -41.369219  -96.634262    0.000000    0.000000    0.000000    0.000000
  0.022625251  -38.735408  -43.224758  -39.775596  -97.137566    0.000000    0.000000    0.000000    0.000000
  0.022825651  -39.774812  -36.428036  -38.569418  -98.516678    0.000000    0.000000    0.000000    0.000000
  0.023026052  -39.421233  -39.640606  -36.810132 -102.029594    0.000000    0.000000    0.000000    0.000000
  0.023226453  -38.922410  -31.681843  -35.524037 -103.924110    0.000000    0.000000    0.000000    0.000000
  0.023426854  -39.186271  -35.125252  -34.062857 -106.837044    0.000000    0.000000    0.000000    0.000000
  0.023627255  -39.525051  -37.194656  -32.796547 -110.037056    0.000000    0.000000    0.000000    0.000000
  0.023827655  -38.411730  -30.749945  -31.441145 -113.002869    0.000000    0.000000    0.000000    0.000000
  0.024028056  -39.422256  -31.773739  -30.285465 -116.364250    0.000000    0.000000    0.000000    0.000000
  0.024228457  -39.132993  -27.749828  -28.962422 -119.545280    0.000000    0.000000    0.000000    0.000000
  0.024428858  -37.712130  -35.222145  -27.713934 -122.518509    0.000000    0.000000    0.000000    0.000000
  0.024629259  -38.699109  -27.230995  -26.427325 -126.097870    0.000000    0.000000    0.000000    0.000000
  0.024829659  -40.219830  -24.106647  -25.296899 -129.637711    0.000000    0.000000    0.000000    0.000000
  0.025030060  -38.875963  -24.808704  -24.020653 -132.911713    0.000000    0.000000    0.000000    0.000000
  0.025230461  -38.196340  -20.317671  -22.826634 -136.396790    0.000000    0.000000    0.000000    0.000000
  0.025430862  -38.940196  -25.520525  -21.769545 -141.389526    0.000000    0.000000    0.000000    0.000000
  0.025631263  -38.573107  -14.779220  -20.530700 -145.851440    0.000000    0.000000    0.000000    0.000000
  0.025831663  -40.426793  -12.575362  -19.492161 -151.403458    0.000000    0.000000    0.000000    0.000000
  0.026032064  -39.825466  -23.465862  -18.387101 -155.997009    0.000000    0.000000    0.000000    0.000000
  0.026232465  -37.772785  -13.654137  -17.438353 -161.666473    0.000000    0.000000    0.000000    0.000000
  0.026432866  -39.468056  -12.782055  -16.408390 -167.430679    0.000000    0.000000    0.000000    0.000000
  0.026633267  -37.697618  -14.172294  -15.408019 -173.168320    0.000000    0.000000    0.000000    0.000000
  0.026833667  -39.751274   -7.868901  -14.393047 -179.697296    0.000000    0.000000    0.000000    0.000000
  0.027034068  -38.798015  -15.594674  -13.464222  174.149887    0.000000    0.000000    0.000000    0.000000
  0.027234469  -39.799056   -4.434889  -12.633263  167.773468    0.000000    0.000000    0.000000    0.000000
  0.027434870  -39.350267   -1.485302  -11.768359  159.927597    0.000000    0.000000    0.000000    0.000000
  0.027635271  -38.874455   -9.070138  -11.088075  152.549194    0.000000    0.000000    0.000000    0.000000
  0.027835671  -39.408917   -6.584157  -10.410537  145.042725    0.000000    0.000000    0.000000    0.000000
  0.028036072  -40.031039   -4.091018   -9.870326  138.349106    0.000000    0.000000    0.000000    0.000000
  0.028236473  -39.093831   -0.780166   -9.332608  130.726822    0.000000    0.000000    0.000000    0.000000
  0.028436874  -38.770238   -8.025836   -8.978130  124.499771    0.000000    0.000000    0.000000    0.000000
  0.028637275  -38.368948   -1.399960   -8.627389  116.457611    0.000000    0.000000    0.000000    0.000000
  0.028837675  -39.908839   -0.989178   -8.298815  109.450249    0.000000    0.000000    0.000000    0.000000
  0.029038076  -39.596209   12.147305   -8.061176  102.664070    0.000000    0.000000    0.000000    0.000000
  0.029238477  -39.984293   12.794165   -7.860433   96.919601    0.000000    0.000000    0.000000    0.000000
  0.029438878  -39.210342    3.618536   -7.814303   90.539108    0.000000    0.000000    0.000000    0.000000
  0.029639279  -39.151525    7.685469   -7.667964   83.869682    0.000000    0.000000    0.000000    0.000000
  0.029839679  -38.698757   13.809093   -7.586218   78.546005    0.000000    0.000000    0.000000    0.000000
  0.030040080  -39.065208   12.101326   -7.485725   73.360634    0.000000    0.000000    0.000000    0.000000
  0.030240481  -39.068149   12.955810   -7.426784   68.276466    0.000000    0.000000    0.000000    0.000000
  0.030440882  -39.313716   19.628424   -7.376658   62.969059    0.000000    0.000000    0.000000    0.000000
  0.030641283  -38.142620   20.504799   -7.397041   58.615379    0.000000    0.000000    0.000000    0.000000
  0.030841683  -38.286449   17.826836   -7.417734   53.900242    0.000000    0.000000    0.000000    0.000000
  0.031042084  -38.638957   19.698750   -7.308074   49.620110    0.000000    0.000000    0.000000    0.000000
  0.031242485  -39.930598   26.384571   -7.304198   45.963703    0.000000    0.000000    0.000000    0.000000
  0.031442886  -38.204165   27.714025   -7.328144   41.914284    0.000000    0.000000    0.000000    0.000000
  0.031643287  -39.035471   21.462355   -7.250649   38.136433    0.000000    0.000000    0.000000    0.000000
  0.031843687  -38.040914   24.277409   -7.290524   33.998112    0.000000    0.000000    0.000000    0.000000
  0.032044088  -38.050777   31.845570   -7.263912   30.579473    0.000000    0.000000    0.000000    0.000000
  0.032244489  -38.947934   36.711273   -7.242880   26.926132    0.000000    0.000000    0.000000    0.000000
  0.032444890  -38.289715   32.429535   -7.282694   23.258619    0.000000    0.000000    0.000000    0.000000
  0.032645291  -38.967934   32.879227   -7.231177   19.352510    0.000000    0.000000    0.000000    0.000000
  0.032845691  -38.343393   35.808571   -7.235448   16.516870    0.000000    0.000000    0.000000    0.000000
  0.033046092  -38.410436   36.173302   -7.198415   13.501322    0.000000    0.000000    0.000000    0.000000
  0.033246493  -37.587516   36.389236   -7.210677   10.018209    0.000000    0.000000    0.000000    0.000000
  0.033446894  -38.779959   38.282665   -7.127534    7.252800    0.000000    0.000000    0.000000    0.000000
  0.033647295  -38.913409   38.662666   -7.180490    4.084882    0.000000    0.000000    0.000000    0.000000
  0.033847695  -38.910681   42.232193   -7.130205    1.478868    0.000000    0.000000    0.000000    0.000000
  0.034048096  -38.066206   39.449764   -7.188517   -1.070900    0.000000    0.000000    0.000000    0.000000
  0.034248497  -38.959771   46.798195   -7.062564   -4.568021    0.000000    0.000000    0.000000    0.000000
  0.034448898  -38.096455   47.975578   -7.183660   -6.931873    0.000000    0.000000    0.000000    0.000000
  0.034649299  -38.066188   42.081211   -7.156450   -9.576715    0.000000    0.000000    0.000000    0.000000
  0.034849699  -38.346601   40.766041   -7.171868  -12.060308    0.000000    0.000000    0.000000    0.000000
  0.035050100  -38.879404   45.721027   -7.204655  -14.809051    0.000000    0.000000    0.000000    0.000000
  0.035250501  -38.229452   42.463249   -7.156089  -17.483280    0.000000    0.000000    0.000000    0.000000
  0.035450902  -38.648565   50.927673   -7.079123  -20.003799    0.000000    0.000000    0.000000    0.000000
  0.035651303  -38.776495   48.834255   -7.155276  -22.832735    0.000000    0.000000    0.000000    0.000000
  0.035851703  -38.764696   53.311657   -7.103732  -25.316292    0.000000    0.000000    0.000000    0.000000
  0.036052104  -37.432815   51.889423   -7.200214  -27.463511    0.000000    0.000000    0.000000    0.000000
  0.036252505  -38.448917   57.762737   -7.135088  -29.770834    0.000000    0.000000    0.000000    0.000000
  0.036452906  -37.464568   53.720558   -7.135676  -32.169991    0.000000    0.000000    0.000000    0.000000
  0.036653307  -37.845457   60.005966   -7.164284  -34.709789    0.000000    0.000000    0.000000    0.000000
  0.036853707  -38.058106   56.841007   -7.157456  -36.586903    0.000000    0.000000    0.000000    0.000000
  0.037054108  -38.355701   57.509338   -7.162377  -38.981537    0.000000    0.000000    0.000000    0.000000
  0.037254509  -38.069126   61.073620   -7.154530  -41.238621    0.000000    0.000000    0.000000    0.000000
  0.037454910  -38.200032   62.206154   -7.156667  -43.559361    0.000000    0.000000    0.000000    0.000000
  0.037655311  -38.630050   59.742901   -7.179799  -45.651527    0.000000    0.000000    0.000000    0.000000
  0.037855711  -38.125009   61.848736   -7.146427  -47.469624    0.000000    0.000000    0.000000    0.000000
  0.038056112  -38.964045   64.991325   -7.136501  -49.454136    0.000000    0.000000    0.000000    0.000000
  0.038256513  -37.945486   66.926842   -7.141086  -51.621655    0.000000    0.000000    0.000000    0.000000
  0.038456914  -38.633221   71.619171   -7.164739  -53.718220    0.000000    0.000000    0.000000    0.000000
  0.038657315  -38.372894   69.367813   -7.222840  -55.499680    0.000000    0.000000    0.000000    0.000000
  0.038857715  -38.942953   66.932709   -7.215926  -57.697968    0.000000    0.000000    0.000000    0.000000
  0.039058116  -39.098304   70.063972   -7.231140  -59.392258    0.000000    0.000000    0.000000    0.000000
  0.039258517  -39.045125   69.280144   -7.278950  -61.500404    0.000000    0.000000    0.000000    0.000000
  0.039458918  -38.224154   72.897316   -7.184580  -63.485577    0.000000    0.000000    0.000000    0.000000
  0.039659319  -38.784890   72.200951   -7.188037  -65.444771    0.000000    0.000000    0.000000    0.000000
  0.039859719  -38.343224   74.282478   -7.265262  -66.909401    0.000000    0.000000    0.000000    0.000000
  0.040060120  -38.460582   78.584564   -7.210069  -69.116379    0.000000    0.000000    0.000000    0.000000
  0.040260521  -38.591800   76.085892   -7.220867  -70.482040    0.000000    0.000000    0.000000    0.000000
  0.040460922  -38.872958   75.533318   -7.193001  -73.140213    0.000000    0.000000    0.000000    0.000000
  0.040661323  -38.971451   82.652908   -7.279793  -74.487907    0.000000    0.000000    0.000000    0.000000
  0.040861723  -38.340852   83.559547   -7.221983  -75.787361    0.000000    0.000000    0.000000    0.000000
  0.041062124  -39.425128   88.546310   -7.242796  -78.002975    0.000000    0.000000    0.000000    0.000000
  0.041262525  -39.840464   88.192108   -7.300918  -79.722054    0.000000    0.000000    0.000000    0.000000
  0.041462926  -39.109277   80.156685   -7.187936  -81.240448    0.000000    0.000000    0.000000    0.000000
  0.041663327  -39.013951   88.081848   -7.205256  -82.966644    0.000000    0.000000    0.000000    0.000000
  0.041863727  -39.387106   91.163048   -7.219361  -84.831459    0.000000    0.000000    0.000000    0.000000
  0.042064128  -39.545545   86.276779   -7.264847  -86.295990    0.000000    0.000000    0.000000    0.000000
  0.042264529  -39.362678   88.781555   -7.239846  -87.870880    0.000000    0.000000    0.000000    0.000000
  0.042464930  -39.126555   91.721367   -7.242904  -89.540222    0.000000    0.000000    0.000000    0.000000
  0.042665331  -38.605182   98.045303   -7.238116  -91.585876    0.000000    0.000000    0.000000    0.000000
  0.042865731  -39.421599  100.249977   -7.255714  -92.632805    0.000000    0.000000    0.000000    0.000000
