! Anritsu VNA Master:                 Model: MS2034B/10/19/501
! SN:                                  1337062
! /bd0/ovro-jan-2016/dcp-a2-s11.s2p
! Existing Calibration Information:
! TYPE:                         Current Settings,       Active Cal Settings
! TIME:             	   01/10/2016 03:50:04 PM,    01/10/2016 03:13:30 PM
! INTERNAL TEMP:    	                   42.5 C,                    45.8 C
! # POINTS:         	                      500,                       500
! START FREQ:       	               10.000 MHz,                10.000 MHz
! STOP FREQ:        	              110.000 MHz,               110.000 MHz
! SOURCE POWER:     	                      Low,                       Low
! IFBW:             	                   100 Hz,                    100 Hz
! AVG FACTOR:       	                       3 ,                        3 
! REF PLANE 1:      	                 2.2245 m,                  2.2245 m
! REF PLANE 2:      	                     0 mm,                      0 mm
! CAL TYPE:         	             1P2P S11,S21,              1P2P S11,S21
! CAL METHOD:       	                     SOLT,                      SOLT
! CAL LINE TYPE:    	                     Coax,                      Coax
! DUT PORT 1:       	                K-Conn(M),                 K-Conn(M)
! DUT PORT 2:       	                N-Conn(M),                 N-Conn(M)
! CAL STATUS:       	        OK: Accuracy High,                        --
# GHZ S DB R 50.0
! FREQ.GHZ       S11DB        S11A       S21DB        S21A       S12DB        S12A       S22DB        S22A
  0.010000000  -27.602125 -174.607620  -56.276251 -129.787170    0.000000    0.000000    0.000000    0.000000
  0.010200401  -27.541003 -175.607925  -63.459907   20.174301    0.000000    0.000000    0.000000    0.000000
  0.010400802  -27.871933 -178.992859  -50.242028   28.163382    0.000000    0.000000    0.000000    0.000000
  0.010601202  -27.678135  175.644318  -46.371690   28.377859    0.000000    0.000000    0.000000    0.000000
  0.010801603  -27.774227  173.632202  -43.043220   27.701141    0.000000    0.000000    0.000000    0.000000
  0.011002004  -27.829467  169.425873  -40.968168   26.946745    0.000000    0.000000    0.000000    0.000000
  0.011202405  -27.797030  166.442413  -39.198191   24.747074    0.000000    0.000000    0.000000    0.000000
  0.011402806  -27.989179  164.397369  -37.758756   23.730427    0.000000    0.000000    0.000000    0.000000
  0.011603206  -27.513927  160.932770  -36.564863   23.368017    0.000000    0.000000    0.000000    0.000000
  0.011803607  -27.850279  157.119720  -35.678993   20.334799    0.000000    0.000000    0.000000    0.000000
  0.012004008  -27.191723  156.973495  -34.897278   18.892992    0.000000    0.000000    0.000000    0.000000
  0.012204409  -27.329599  153.490005  -34.239803   18.205587    0.000000    0.000000    0.000000    0.000000
  0.012404810  -27.302106  150.744720  -33.632526   15.828702    0.000000    0.000000    0.000000    0.000000
  0.012605210  -27.152538  147.632675  -33.254176   14.426797    0.000000    0.000000    0.000000    0.000000
  0.012805611  -27.104594  146.037170  -33.040499   13.710848    0.000000    0.000000    0.000000    0.000000
  0.013006012  -26.790380  141.373398  -32.909022   11.272557    0.000000    0.000000    0.000000    0.000000
  0.013206413  -26.864753  140.391144  -32.679624    9.698362    0.000000    0.000000    0.000000    0.000000
  0.013406814  -26.656234  138.034698  -32.670791    8.833694    0.000000    0.000000    0.000000    0.000000
  0.013607214  -26.563852  135.651871  -32.814488    6.567897    0.000000    0.000000    0.000000    0.000000
  0.013807615  -26.354140  133.648026  -32.966241    5.114755    0.000000    0.000000    0.000000    0.000000
  0.014008016  -26.152942  132.849213  -33.365550    4.230573    0.000000    0.000000    0.000000    0.000000
  0.014208417  -26.066450  129.174896  -33.915711    2.142776    0.000000    0.000000    0.000000    0.000000
  0.014408818  -25.938454  127.811417  -34.554759    1.965452    0.000000    0.000000    0.000000    0.000000
  0.014609218  -25.628878  125.425949  -35.278142   -0.375285    0.000000    0.000000    0.000000    0.000000
  0.014809619  -25.614604  124.260445  -36.604097   -0.062535    0.000000    0.000000    0.000000    0.000000
  0.015010020  -25.417824  122.819054  -38.035928   -0.788515    0.000000    0.000000    0.000000    0.000000
  0.015210421  -25.300500  119.570572  -40.322692    0.809992    0.000000    0.000000    0.000000    0.000000
  0.015410822  -25.207018  119.373199  -43.555721    3.562342    0.000000    0.000000    0.000000    0.000000
  0.015611222  -24.786674  117.232506  -48.588718   14.250288    0.000000    0.000000    0.000000    0.000000
  0.015811623  -24.689918  115.460686  -56.049537   84.046402    0.000000    0.000000    0.000000    0.000000
  0.016012024  -24.626602  113.601051  -46.590998  139.055771    0.000000    0.000000    0.000000    0.000000
  0.016212425  -24.475540  111.449020  -41.491337  147.728409    0.000000    0.000000    0.000000    0.000000
  0.016412826  -24.209519  109.689568  -37.705021  150.724731    0.000000    0.000000    0.000000    0.000000
  0.016613226  -23.982998  108.696121  -35.285364  150.922470    0.000000    0.000000    0.000000    0.000000
  0.016813627  -24.141385  106.496613  -33.335148  150.458817    0.000000    0.000000    0.000000    0.000000
  0.017014028  -23.787117  106.768944  -31.698524  149.804184    0.000000    0.000000    0.000000    0.000000
  0.017214429  -23.757546  104.880051  -30.275121  148.057877    0.000000    0.000000    0.000000    0.000000
  0.017414830  -23.614302  103.688652  -29.158881  146.909851    0.000000    0.000000    0.000000    0.000000
  0.017615230  -23.376763  101.206352  -28.208550  145.550568    0.000000    0.000000    0.000000    0.000000
  0.017815631  -23.113446  101.263443  -27.411865  144.240509    0.000000    0.000000    0.000000    0.000000
  0.018016032  -22.838189   99.419876  -26.768193  142.286774    0.000000    0.000000    0.000000    0.000000
  0.018216433  -22.757754   98.058853  -26.269671  140.804642    0.000000    0.000000    0.000000    0.000000
  0.018416834  -22.456073   97.854683  -26.165666  139.601334    0.000000    0.000000    0.000000    0.000000
  0.018617234  -22.564940   95.275307  -25.886895  138.517380    0.000000    0.000000    0.000000    0.000000
  0.018817635  -22.250819   94.118454  -26.097545  136.850235    0.000000    0.000000    0.000000    0.000000
  0.019018036  -22.052830   93.153542  -26.525722  136.140900    0.000000    0.000000    0.000000    0.000000
  0.019218437  -22.049330   91.811699  -27.406347  135.343781    0.000000    0.000000    0.000000    0.000000
  0.019418838  -21.882628   90.077484  -28.715511  136.453735    0.000000    0.000000    0.000000    0.000000
  0.019619238  -21.726229   89.557121  -30.995557  140.364227    0.000000    0.000000    0.000000    0.000000
  0.019819639  -21.591037   88.196571  -35.251509  154.175323    0.000000    0.000000    0.000000    0.000000
  0.020020040  -21.403113   86.279610  -39.369588 -143.980270    0.000000    0.000000    0.000000    0.000000
  0.020220441  -21.372627   84.020462  -32.205872  -92.524139    0.000000    0.000000    0.000000    0.000000
  0.020420842  -21.116675   83.724602  -26.252072  -82.520508    0.000000    0.000000    0.000000    0.000000
  0.020621242  -20.935908   81.804817  -22.047279  -79.719803    0.000000    0.000000    0.000000    0.000000
  0.020821643  -20.965035   81.291267  -18.763656  -79.350708    0.000000    0.000000    0.000000    0.000000
  0.021022044  -20.840322   79.279617  -15.938393  -79.999008    0.000000    0.000000    0.000000    0.000000
  0.021222445  -20.643807   78.062775  -13.497931  -81.260910    0.000000    0.000000    0.000000    0.000000
  0.021422846  -20.352386   77.270119  -11.290669  -83.090080    0.000000    0.000000    0.000000    0.000000
  0.021623246  -20.416573   75.803360   -9.292035  -84.600670    0.000000    0.000000    0.000000    0.000000
  0.021823647  -20.332290   75.138412   -7.312802  -86.831856    0.000000    0.000000    0.000000    0.000000
  0.022024048  -20.234568   72.529793   -5.514340  -89.176865    0.000000    0.000000    0.000000    0.000000
  0.022224449  -20.066583   71.127151   -3.799741  -91.652588    0.000000    0.000000    0.000000    0.000000
  0.022424850  -19.971178   69.769867   -2.258298  -93.541595    0.000000    0.000000    0.000000    0.000000
  0.022625251  -19.866111   68.293648   -0.687260  -96.460159    0.000000    0.000000    0.000000    0.000000
  0.022825651  -19.822545   66.480919    0.774488  -99.170059    0.000000    0.000000    0.000000    0.000000
  0.023026052  -19.875301   65.261482    2.337168 -101.594376    0.000000    0.000000    0.000000    0.000000
  0.023226453  -19.580631   62.942551    3.686522 -104.617821    0.000000    0.000000    0.000000    0.000000
  0.023426854  -19.558114   61.008160    5.084826 -107.673088    0.000000    0.000000    0.000000    0.000000
  0.023627255  -19.463761   59.093136    6.406408 -110.707893    0.000000    0.000000    0.000000    0.000000
  0.023827655  -19.064697   58.920734    7.477107 -111.183174    0.000000    0.000000    0.000000    0.000000
  0.024028056  -18.863729   57.255871    8.859515 -114.875587    0.000000    0.000000    0.000000    0.000000
  0.024228457  -18.988923   55.525875   10.065271 -118.264534    0.000000    0.000000    0.000000    0.000000
  0.024428858  -18.740962   53.297604   11.323210 -122.192520    0.000000    0.000000    0.000000    0.000000
  0.024629259  -18.587227   50.514858   12.597075 -125.672722    0.000000    0.000000    0.000000    0.000000
  0.024829659  -18.633434   48.131660   13.657659 -129.934265    0.000000    0.000000    0.000000    0.000000
  0.025030060  -18.622934   46.252003   14.840010 -133.792633    0.000000    0.000000    0.000000    0.000000
  0.025230461  -18.475819   43.648590   16.095289 -138.721573    0.000000    0.000000    0.000000    0.000000
  0.025430862  -18.700418   40.773159   17.375712 -143.009979    0.000000    0.000000    0.000000    0.000000
  0.025631263  -18.442571   38.843258   18.536259 -147.983582    0.000000    0.000000    0.000000    0.000000
  0.025831663  -18.440744   35.809471   19.695881 -152.747589    0.000000    0.000000    0.000000    0.000000
  0.026032064  -18.555602   32.709934   20.899005 -157.943359    0.000000    0.000000    0.000000    0.000000
  0.026232465  -18.510265   28.798233   22.019758 -163.011185    0.000000    0.000000    0.000000    0.000000
  0.026432866  -18.710812   25.078241   23.040958 -168.525772    0.000000    0.000000    0.000000    0.000000
  0.026633267  -18.928711   21.566095   24.161688 -174.708023    0.000000    0.000000    0.000000    0.000000
  0.026833667  -19.172830   16.348684   25.165990  179.733109    0.000000    0.000000    0.000000    0.000000
  0.027034068  -19.328720   13.997320   26.069732  173.036835    0.000000    0.000000    0.000000    0.000000
  0.027234469  -19.683778    9.598035   27.012390  166.133499    0.000000    0.000000    0.000000    0.000000
  0.027434870  -20.141954    5.046618   27.812734  158.775436    0.000000    0.000000    0.000000    0.000000
  0.027635271  -20.740625    1.088020   28.511517  151.233734    0.000000    0.000000    0.000000    0.000000
  0.027835671  -21.473651   -2.470471   29.149502  143.412766    0.000000    0.000000    0.000000    0.000000
  0.028036072  -22.219300   -7.073094   29.671854  135.927261    0.000000    0.000000    0.000000    0.000000
  0.028236473  -23.364710   -9.186831   30.136881  128.154144    0.000000    0.000000    0.000000    0.000000
  0.028436874  -24.230606   -9.874467   30.533508  120.647263    0.000000    0.000000    0.000000    0.000000
  0.028637275  -25.360860   -9.830132   30.829186  112.959595    0.000000    0.000000    0.000000    0.000000
  0.028837675  -26.532877  -11.355809   31.041873  105.791542    0.000000    0.000000    0.000000    0.000000
  0.029038076  -27.856917   -7.246363   31.269438   99.307289    0.000000    0.000000    0.000000    0.000000
  0.029238477  -28.845248   -6.001388   31.368701   92.347946    0.000000    0.000000    0.000000    0.000000
  0.029438878  -30.061944    0.398223   31.472406   86.582298    0.000000    0.000000    0.000000    0.000000
  0.029639279  -30.926133    7.236859   31.555825   80.556023    0.000000    0.000000    0.000000    0.000000
  0.029839679  -31.258963   16.860678   31.643030   75.023460    0.000000    0.000000    0.000000    0.000000
  0.030040080  -31.386349   22.933968   31.647871   70.174881    0.000000    0.000000    0.000000    0.000000
  0.030240481  -31.257015   29.804955   31.684653   64.612175    0.000000    0.000000    0.000000    0.000000
  0.030440882  -30.953414   30.360697   31.660756   60.361202    0.000000    0.000000    0.000000    0.000000
  0.030641283  -30.261439   38.792519   31.688092   56.055470    0.000000    0.000000    0.000000    0.000000
  0.030841683  -30.299692   41.364578   31.740229   51.361820    0.000000    0.000000    0.000000    0.000000
  0.031042084  -29.946919   44.882088   31.734809   47.377274    0.000000    0.000000    0.000000    0.000000
  0.031242485  -29.780638   45.288071   31.739020   43.219418    0.000000    0.000000    0.000000    0.000000
  0.031442886  -29.477382   46.237942   31.707951   39.073181    0.000000    0.000000    0.000000    0.000000
  0.031643287  -29.187208   46.541077   31.773296   35.360729    0.000000    0.000000    0.000000    0.000000
  0.031843687  -29.159998   44.465210   31.841034   31.454609    0.000000    0.000000    0.000000    0.000000
  0.032044088  -29.041969   49.125977   31.779058   27.523396    0.000000    0.000000    0.000000    0.000000
  0.032244489  -28.762371   49.254715   31.861021   23.914307    0.000000    0.000000    0.000000    0.000000
  0.032444890  -28.993475   49.408909   31.901684   20.605263    0.000000    0.000000    0.000000    0.000000
  0.032645291  -28.614200   48.432228   31.925965   17.428926    0.000000    0.000000    0.000000    0.000000
  0.032845691  -28.692078   49.156708   31.930700   14.201264    0.000000    0.000000    0.000000    0.000000
  0.033046092  -28.848168   46.222912   31.958543   11.277759    0.000000    0.000000    0.000000    0.000000
  0.033246493  -29.086608   48.068867   31.911836    8.671454    0.000000    0.000000    0.000000    0.000000
  0.033446894  -28.998859   51.567131   31.925422    5.544399    0.000000    0.000000    0.000000    0.000000
  0.033647295  -29.072377   50.382420   31.958860    3.129900    0.000000    0.000000    0.000000    0.000000
  0.033847695  -29.238655   50.431004   31.998917    0.301686    0.000000    0.000000    0.000000    0.000000
  0.034048096  -29.334848   49.961365   32.048831   -2.700295    0.000000    0.000000    0.000000    0.000000
  0.034248497  -29.196073   50.663448   32.086157   -5.299546    0.000000    0.000000    0.000000    0.000000
  0.034448898  -29.503740   51.616478   32.152368   -8.192263    0.000000    0.000000    0.000000    0.000000
  0.034649299  -29.832975   52.113873   32.147322  -10.505962    0.000000    0.000000    0.000000    0.000000
  0.034849699  -29.810180   54.845184   32.229893  -13.288189    0.000000    0.000000    0.000000    0.000000
  0.035050100  -30.089578   54.957932   32.176986  -15.806434    0.000000    0.000000    0.000000    0.000000
  0.035250501  -29.942993   56.752205   32.187161  -18.201462    0.000000    0.000000    0.000000    0.000000
  0.035450902  -30.151854   53.337791   32.177904  -20.783707    0.000000    0.000000    0.000000    0.000000
  0.035651303  -30.578428   56.930481   32.136924  -23.132051    0.000000    0.000000    0.000000    0.000000
  0.035851703  -30.648095   57.594574   32.140723  -25.308760    0.000000    0.000000    0.000000    0.000000
  0.036052104  -30.869757   60.993637   32.073451  -27.796833    0.000000    0.000000    0.000000    0.000000
  0.036252505  -30.683500   61.016941   32.094013  -30.264576    0.000000    0.000000    0.000000    0.000000
  0.036452906  -30.555142   60.322750   32.069869  -32.767113    0.000000    0.000000    0.000000    0.000000
  0.036653307  -30.896274   61.479012   32.055882  -35.111324    0.000000    0.000000    0.000000    0.000000
  0.036853707  -30.985169   64.801559   32.010768  -37.611885    0.000000    0.000000    0.000000    0.000000
  0.037054108  -31.299137   65.445831   32.004853  -39.792385    0.000000    0.000000    0.000000    0.000000
  0.037254509  -31.281864   69.053169   31.994916  -42.047142    0.000000    0.000000    0.000000    0.000000
  0.037454910  -30.892645   68.326744   32.036465  -44.292217    0.000000    0.000000    0.000000    0.000000
  0.037655311  -30.916665   72.773102   32.053433  -46.502148    0.000000    0.000000    0.000000    0.000000
  0.037855711  -31.042007   71.966347   32.065849  -48.519691    0.000000    0.000000    0.000000    0.000000
  0.038056112  -31.119665   70.957512   32.103718  -50.551804    0.000000    0.000000    0.000000    0.000000
  0.038256513  -31.488566   75.929871   32.099011  -52.332603    0.000000    0.000000    0.000000    0.000000
  0.038456914  -31.376177   77.184959   32.150247  -54.230190    0.000000    0.000000    0.000000    0.000000
  0.038657315  -31.106346   79.074158   32.178611  -55.787300    0.000000    0.000000    0.000000    0.000000
  0.038857715  -30.980947   79.124367   32.239446  -57.313141    0.000000    0.000000    0.000000    0.000000
  0.039058116  -31.144783   78.668274   32.168850  -59.053215    0.000000    0.000000    0.000000    0.000000
  0.039258517  -31.215946   81.541054   32.220631  -60.823627    0.000000    0.000000    0.000000    0.000000
  0.039458918  -31.258172   83.494797   32.213046  -62.589581    0.000000    0.000000    0.000000    0.000000
  0.039659319  -31.567899   85.824684   32.207108  -64.553444    0.000000    0.000000    0.000000    0.000000
  0.039859719  -31.227872   86.802170   32.183966  -66.671196    0.000000    0.000000    0.000000    0.000000
  0.040060120  -31.096548   87.259010   32.127323  -68.511780    0.000000    0.000000    0.000000    0.000000
  0.040260521  -31.263943   86.983818   32.160163  -70.759705    0.000000    0.000000    0.000000    0.000000
  0.040460922  -30.561068   87.355507   32.137501  -72.751495    0.000000    0.000000    0.000000    0.000000
  0.040661323  -31.024176   89.283958   32.130157  -74.546158    0.000000    0.000000    0.000000    0.000000
  0.040861723  -31.149957   90.846916   32.110567  -76.520325    0.000000    0.000000    0.000000    0.000000
  0.041062124  -30.967990   92.437088   32.170602  -78.068314    0.000000    0.000000    0.000000    0.000000
  0.041262525  -31.152492   92.228333   32.197572  -79.513351    0.000000    0.000000    0.000000    0.000000
  0.041462926  -31.128087   94.316254   32.231325  -80.534920    0.000000    0.000000    0.000000    0.000000
  0.041663327  -30.803858   93.475113   32.280736  -82.161865    0.000000    0.000000    0.000000    0.000000
  0.041863727  -30.659543   93.244217   32.272940  -83.282036    0.000000    0.000000    0.000000    0.000000
  0.042064128  -30.516164   94.499100   32.325434  -85.202583    0.000000    0.000000    0.000000    0.000000
  0.042264529  -30.671952   95.021461   32.374903  -86.463326    0.000000    0.000000    0.000000    0.000000
  0.042464930  -30.943943   95.883240   32.352755  -88.632576    0.000000    0.000000    0.000000    0.000000
  0.042665331  -30.762491   96.789513   32.352499  -90.213249    0.000000    0.000000    0.000000    0.000000
  0.042865731  -30.971056   98.674980   32.361601  -92.539413    0.000000    0.000000    0.000000    0.000000
