! Anritsu VNA Master:                 Model: MS2034B/10/19/501
! SN:                                  1337062
! /bd0/ovro-jan-2016/dcp-z1-s21.s2p
! Existing Calibration Information:
! TYPE:                         Current Settings,       Active Cal Settings
! TIME:             	   01/08/2016 09:38:34 PM,    01/08/2016 08:43:08 PM
! INTERNAL TEMP:    	                   42.8 C,                    45.0 C
! # POINTS:         	                      500,                       500
! START FREQ:       	               10.000 MHz,                10.000 MHz
! STOP FREQ:        	              110.000 MHz,               110.000 MHz
! SOURCE POWER:     	                      Low,                       Low
! IFBW:             	                   100 Hz,                    100 Hz
! AVG FACTOR:       	                       3 ,                        3 
! REF PLANE 1:      	                 2.2245 m,                  2.2245 m
! REF PLANE 2:      	                     0 mm,                      0 mm
! CAL TYPE:         	             1P2P S11,S21,              1P2P S11,S21
! CAL METHOD:       	                     SOLT,                      SOLT
! CAL LINE TYPE:    	                     Coax,                      Coax
! DUT PORT 1:       	                K-Conn(M),                 K-Conn(M)
! DUT PORT 2:       	                N-Conn(M),                 N-Conn(M)
! CAL STATUS:       	        OK: Accuracy High,                        --
# GHZ S DB R 50.0
! FREQ.GHZ       S11DB        S11A       S21DB        S21A       S12DB        S12A       S22DB        S22A
  0.010000000  -24.524639 -164.903900  -41.811890 -142.558868    0.000000    0.000000    0.000000    0.000000
  0.010200401  -24.679401 -167.828415  -42.941527 -141.443527    0.000000    0.000000    0.000000    0.000000
  0.010400802  -24.595245 -169.444412  -44.521253 -142.315765    0.000000    0.000000    0.000000    0.000000
  0.010601202  -24.659657 -172.270050  -46.471887 -143.825531    0.000000    0.000000    0.000000    0.000000
  0.010801603  -24.972609 -174.412384  -48.656758 -147.294098    0.000000    0.000000    0.000000    0.000000
  0.011002004  -24.861443 -175.488144  -52.103598 -148.841751    0.000000    0.000000    0.000000    0.000000
  0.011202405  -24.846619 -178.064072  -55.670179 -144.272705    0.000000    0.000000    0.000000    0.000000
  0.011402806  -25.046356  179.960312  -62.379711 -157.700653    0.000000    0.000000    0.000000    0.000000
  0.011603206  -25.285559  176.998779  -78.429603  -22.792891    0.000000    0.000000    0.000000    0.000000
  0.011803607  -25.502828  178.270996  -59.548147   14.542316    0.000000    0.000000    0.000000    0.000000
  0.012004008  -25.602057  174.842590  -57.747999   13.385326    0.000000    0.000000    0.000000    0.000000
  0.012204409  -25.350186  170.652832  -55.275287   22.636272    0.000000    0.000000    0.000000    0.000000
  0.012404810  -25.509794  168.767273  -53.786160   19.263283    0.000000    0.000000    0.000000    0.000000
  0.012605210  -25.351415  166.528351  -54.668197   28.264874    0.000000    0.000000    0.000000    0.000000
  0.012805611  -25.417395  164.085052  -55.768826   21.024946    0.000000    0.000000    0.000000    0.000000
  0.013006012  -25.398017  162.646286  -56.289405   27.064468    0.000000    0.000000    0.000000    0.000000
  0.013206413  -25.449135  161.235657  -61.777454   51.194717    0.000000    0.000000    0.000000    0.000000
  0.013406814  -25.664820  157.140564  -62.504326   91.523209    0.000000    0.000000    0.000000    0.000000
  0.013607214  -25.729436  157.314499  -56.193831  155.950104    0.000000    0.000000    0.000000    0.000000
  0.013807615  -25.671637  153.483826  -51.281922  161.906601    0.000000    0.000000    0.000000    0.000000
  0.014008016  -25.557318  153.367889  -47.692192  167.943512    0.000000    0.000000    0.000000    0.000000
  0.014208417  -25.659406  149.887238  -44.095824  169.112457    0.000000    0.000000    0.000000    0.000000
  0.014408818  -25.724521  148.764099  -41.806271  170.082413    0.000000    0.000000    0.000000    0.000000
  0.014609218  -25.456924  146.276321  -39.484920  168.837311    0.000000    0.000000    0.000000    0.000000
  0.014809619  -25.283296  144.296768  -37.372561  167.104355    0.000000    0.000000    0.000000    0.000000
  0.015010020  -25.475692  142.403168  -35.623037  165.269608    0.000000    0.000000    0.000000    0.000000
  0.015210421  -25.365451  138.963333  -34.114816  165.125626    0.000000    0.000000    0.000000    0.000000
  0.015410822  -25.351854  137.885376  -32.795028  163.790573    0.000000    0.000000    0.000000    0.000000
  0.015611222  -25.352310  135.415146  -31.423639  162.228348    0.000000    0.000000    0.000000    0.000000
  0.015811623  -25.123451  133.847412  -30.274639  160.016907    0.000000    0.000000    0.000000    0.000000
  0.016012024  -25.200876  132.038528  -29.127844  158.512421    0.000000    0.000000    0.000000    0.000000
  0.016212425  -24.927482  129.540222  -28.196402  156.732330    0.000000    0.000000    0.000000    0.000000
  0.016412826  -25.096611  127.917503  -27.185695  155.411911    0.000000    0.000000    0.000000    0.000000
  0.016613226  -24.732659  125.555542  -26.340266  153.419525    0.000000    0.000000    0.000000    0.000000
  0.016813627  -24.731492  122.952446  -25.546308  151.602829    0.000000    0.000000    0.000000    0.000000
  0.017014028  -24.641743  121.332626  -24.849137  149.674088    0.000000    0.000000    0.000000    0.000000
  0.017214429  -24.663678  119.262032  -24.295289  147.728363    0.000000    0.000000    0.000000    0.000000
  0.017414830  -24.481441  117.869774  -23.736565  146.192200    0.000000    0.000000    0.000000    0.000000
  0.017615230  -24.416461  115.811729  -23.303187  143.907394    0.000000    0.000000    0.000000    0.000000
  0.017815631  -24.286559  112.994614  -22.934992  141.772141    0.000000    0.000000    0.000000    0.000000
  0.018016032  -24.234735  112.148521  -22.613485  139.882172    0.000000    0.000000    0.000000    0.000000
  0.018216433  -23.936638  109.697037  -22.352783  137.891464    0.000000    0.000000    0.000000    0.000000
  0.018416834  -23.829041  107.963097  -22.339827  136.221313    0.000000    0.000000    0.000000    0.000000
  0.018617234  -23.713902  106.278587  -22.395919  134.659821    0.000000    0.000000    0.000000    0.000000
  0.018817635  -23.691914  103.963715  -22.748663  133.034531    0.000000    0.000000    0.000000    0.000000
  0.019018036  -23.572043  101.690094  -23.161243  131.750366    0.000000    0.000000    0.000000    0.000000
  0.019218437  -23.458460  100.306656  -23.877996  130.915512    0.000000    0.000000    0.000000    0.000000
  0.019418838  -23.273710   98.256844  -25.096497  130.165161    0.000000    0.000000    0.000000    0.000000
  0.019619238  -23.249453   95.323586  -26.951585  132.342957    0.000000    0.000000    0.000000    0.000000
  0.019819639  -23.007718   94.852303  -30.089293  137.244827    0.000000    0.000000    0.000000    0.000000
  0.020020040  -22.959026   93.049622  -35.715570  162.433090    0.000000    0.000000    0.000000    0.000000
  0.020220441  -22.734451   90.942497  -34.856261 -118.115021    0.000000    0.000000    0.000000    0.000000
  0.020420842  -22.668436   89.218735  -27.488993  -91.326714    0.000000    0.000000    0.000000    0.000000
  0.020621242  -22.526415   87.390709  -22.511048  -86.315475    0.000000    0.000000    0.000000    0.000000
  0.020821643  -22.495180   85.390869  -18.832212  -84.639084    0.000000    0.000000    0.000000    0.000000
  0.021022044  -22.240742   83.328598  -15.834480  -85.359756    0.000000    0.000000    0.000000    0.000000
  0.021222445  -22.145251   81.320717  -13.261266  -86.868225    0.000000    0.000000    0.000000    0.000000
  0.021422846  -21.978424   79.167366  -11.014871  -88.470879    0.000000    0.000000    0.000000    0.000000
  0.021623246  -21.950426   77.767128   -8.969772  -90.772087    0.000000    0.000000    0.000000    0.000000
  0.021823647  -21.760434   75.588890   -7.101930  -92.476517    0.000000    0.000000    0.000000    0.000000
  0.022024048  -21.633069   72.906128   -5.249031  -95.418228    0.000000    0.000000    0.000000    0.000000
  0.022224449  -21.472757   71.656502   -3.609995  -98.001991    0.000000    0.000000    0.000000    0.000000
  0.022424850  -21.350809   68.534660   -1.952967 -100.363609    0.000000    0.000000    0.000000    0.000000
  0.022625251  -21.215016   65.935852   -0.407310 -103.034218    0.000000    0.000000    0.000000    0.000000
  0.022825651  -21.236336   63.388977    1.083240 -106.182335    0.000000    0.000000    0.000000    0.000000
  0.023026052  -21.044115   61.012714    2.543292 -109.031418    0.000000    0.000000    0.000000    0.000000
  0.023226453  -20.963958   59.561497    3.883968 -111.942955    0.000000    0.000000    0.000000    0.000000
  0.023426854  -20.940266   56.343204    5.242426 -116.026039    0.000000    0.000000    0.000000    0.000000
  0.023627255  -20.746886   53.787979    6.582173 -119.195480    0.000000    0.000000    0.000000    0.000000
  0.023827655  -20.188379   53.502705    7.692356 -120.538567    0.000000    0.000000    0.000000    0.000000
  0.024028056  -20.229580   51.061176    8.948820 -124.103653    0.000000    0.000000    0.000000    0.000000
  0.024228457  -20.125355   47.793163   10.134525 -127.864281    0.000000    0.000000    0.000000    0.000000
  0.024428858  -19.927984   45.286079   11.389806 -131.539612    0.000000    0.000000    0.000000    0.000000
  0.024629259  -19.852780   42.614208   12.621120 -136.032486    0.000000    0.000000    0.000000    0.000000
  0.024829659  -19.623954   39.237377   13.658022 -139.922104    0.000000    0.000000    0.000000    0.000000
  0.025030060  -19.603212   36.356682   14.850809 -145.186295    0.000000    0.000000    0.000000    0.000000
  0.025230461  -19.623918   33.346252   15.989377 -150.160187    0.000000    0.000000    0.000000    0.000000
  0.025430862  -19.407089   29.308168   17.136843 -154.910553    0.000000    0.000000    0.000000    0.000000
  0.025631263  -19.536218   25.844240   18.260691 -160.187805    0.000000    0.000000    0.000000    0.000000
  0.025831663  -19.444019   22.250042   19.390775 -165.690506    0.000000    0.000000    0.000000    0.000000
  0.026032064  -19.413429   17.607832   20.419495 -171.636322    0.000000    0.000000    0.000000    0.000000
  0.026232465  -19.486894   14.333517   21.447069 -176.997559    0.000000    0.000000    0.000000    0.000000
  0.026432866  -19.673381   10.258847   22.437440  177.095001    0.000000    0.000000    0.000000    0.000000
  0.026633267  -19.649046    4.774092   23.346680  170.486893    0.000000    0.000000    0.000000    0.000000
  0.026833667  -19.945968   -0.010472   24.295052  163.921829    0.000000    0.000000    0.000000    0.000000
  0.027034068  -20.070366   -4.162564   25.079620  157.445419    0.000000    0.000000    0.000000    0.000000
  0.027234469  -20.560410   -9.390214   25.841853  150.309006    0.000000    0.000000    0.000000    0.000000
  0.027434870  -21.047145  -14.027182   26.492933  143.475327    0.000000    0.000000    0.000000    0.000000
  0.027635271  -21.497093  -18.998117   27.033115  136.196976    0.000000    0.000000    0.000000    0.000000
  0.027835671  -22.171915  -23.520597   27.567391  129.445404    0.000000    0.000000    0.000000    0.000000
  0.028036072  -22.820459  -27.863615   27.978951  122.492165    0.000000    0.000000    0.000000    0.000000
  0.028236473  -23.544785  -30.423855   28.397823  115.035805    0.000000    0.000000    0.000000    0.000000
  0.028436874  -24.444678  -35.309341   28.695182  108.143021    0.000000    0.000000    0.000000    0.000000
  0.028637275  -25.198935  -37.971077   28.899451  101.090118    0.000000    0.000000    0.000000    0.000000
  0.028837675  -26.123360  -38.996498   29.118055   94.816956    0.000000    0.000000    0.000000    0.000000
  0.029038076  -26.987851  -40.535744   29.280088   88.839714    0.000000    0.000000    0.000000    0.000000
  0.029238477  -28.172975  -41.580723   29.372629   82.533554    0.000000    0.000000    0.000000    0.000000
  0.029438878  -29.236765  -41.982971   29.441440   76.858025    0.000000    0.000000    0.000000    0.000000
  0.029639279  -29.955839  -40.994129   29.590883   71.441597    0.000000    0.000000    0.000000    0.000000
  0.029839679  -30.921673  -38.868099   29.672610   66.123222    0.000000    0.000000    0.000000    0.000000
  0.030040080  -31.887867  -36.059475   29.662809   61.358753    0.000000    0.000000    0.000000    0.000000
  0.030240481  -32.321304  -31.833042   29.734861   56.541985    0.000000    0.000000    0.000000    0.000000
  0.030440882  -33.303109  -30.678871   29.748996   52.696457    0.000000    0.000000    0.000000    0.000000
  0.030641283  -33.488760  -24.892277   29.743956   48.007336    0.000000    0.000000    0.000000    0.000000
  0.030841683  -33.881475  -20.364819   29.813575   44.261852    0.000000    0.000000    0.000000    0.000000
  0.031042084  -34.768539  -14.354193   29.805863   40.154602    0.000000    0.000000    0.000000    0.000000
  0.031242485  -34.675755  -14.067288   29.789469   36.299332    0.000000    0.000000    0.000000    0.000000
  0.031442886  -34.927045   -8.256836   29.839045   32.290913    0.000000    0.000000    0.000000    0.000000
  0.031643287  -34.526549   -9.398921   29.887510   28.369490    0.000000    0.000000    0.000000    0.000000
  0.031843687  -34.712484   -4.339026   29.882924   24.542229    0.000000    0.000000    0.000000    0.000000
  0.032044088  -34.840614   -4.515642   29.912526   21.017775    0.000000    0.000000    0.000000    0.000000
  0.032244489  -35.459949   -1.313276   29.977744   17.399429    0.000000    0.000000    0.000000    0.000000
  0.032444890  -35.094536    1.158457   29.978395   14.592284    0.000000    0.000000    0.000000    0.000000
  0.032645291  -35.092765   -2.175755   30.006963   11.100808    0.000000    0.000000    0.000000    0.000000
  0.032845691  -35.394006    1.616042   30.025658    7.803811    0.000000    0.000000    0.000000    0.000000
  0.033046092  -35.233624    7.422719   30.041470    4.931424    0.000000    0.000000    0.000000    0.000000
  0.033246493  -35.934228    6.930925   30.065893    1.892762    0.000000    0.000000    0.000000    0.000000
  0.033446894  -35.752563    5.570747   30.076231   -0.561714    0.000000    0.000000    0.000000    0.000000
  0.033647295  -35.691200    4.941034   30.075827   -3.542340    0.000000    0.000000    0.000000    0.000000
  0.033847695  -36.270273    8.105134   30.101170   -5.730070    0.000000    0.000000    0.000000    0.000000
  0.034048096  -36.271533    8.464775   30.082609   -8.671866    0.000000    0.000000    0.000000    0.000000
  0.034248497  -36.642484   14.207675   30.135794  -11.109730    0.000000    0.000000    0.000000    0.000000
  0.034448898  -36.873203   18.367369   30.128101  -13.961723    0.000000    0.000000    0.000000    0.000000
  0.034649299  -37.643172   13.311176   30.177211  -16.779604    0.000000    0.000000    0.000000    0.000000
  0.034849699  -37.356312   11.111476   30.201824  -19.485077    0.000000    0.000000    0.000000    0.000000
  0.035050100  -36.737195   15.486397   30.233048  -21.950279    0.000000    0.000000    0.000000    0.000000
  0.035250501  -37.817922   19.026421   30.187492  -24.175581    0.000000    0.000000    0.000000    0.000000
  0.035450902  -37.909774   14.599021   30.217842  -26.971148    0.000000    0.000000    0.000000    0.000000
  0.035651303  -38.551711   18.900030   30.168585  -29.155970    0.000000    0.000000    0.000000    0.000000
  0.035851703  -37.761383   21.650614   30.164079  -31.332615    0.000000    0.000000    0.000000    0.000000
  0.036052104  -38.587336   23.947071   30.137655  -33.614292    0.000000    0.000000    0.000000    0.000000
  0.036252505  -38.614887   31.036896   30.141915  -36.059975    0.000000    0.000000    0.000000    0.000000
  0.036452906  -38.937753   32.942032   30.087348  -38.135117    0.000000    0.000000    0.000000    0.000000
  0.036653307  -38.908782   38.690285   30.029233  -40.723629    0.000000    0.000000    0.000000    0.000000
  0.036853707  -38.615553   37.861687   30.057554  -43.130184    0.000000    0.000000    0.000000    0.000000
  0.037054108  -39.303748   33.507980   30.016660  -45.248074    0.000000    0.000000    0.000000    0.000000
  0.037254509  -38.960605   44.736595   30.021806  -47.631351    0.000000    0.000000    0.000000    0.000000
  0.037454910  -38.893918   43.532196   30.035697  -49.607712    0.000000    0.000000    0.000000    0.000000
  0.037655311  -39.168758   48.084782   30.007869  -51.788288    0.000000    0.000000    0.000000    0.000000
  0.037855711  -38.526294   49.697815   30.032194  -53.657249    0.000000    0.000000    0.000000    0.000000
  0.038056112  -38.259830   52.350071   30.078093  -56.029743    0.000000    0.000000    0.000000    0.000000
  0.038256513  -38.115802   60.823662   30.155683  -57.522133    0.000000    0.000000    0.000000    0.000000
  0.038456914  -38.366506   56.020107   30.170216  -59.288410    0.000000    0.000000    0.000000    0.000000
  0.038657315  -38.871453   62.770245   30.217245  -60.838264    0.000000    0.000000    0.000000    0.000000
  0.038857715  -38.193722   64.590370   30.219220  -62.481663    0.000000    0.000000    0.000000    0.000000
  0.039058116  -37.636017   64.240135   30.253613  -64.135681    0.000000    0.000000    0.000000    0.000000
  0.039258517  -37.629083   67.492104   30.279584  -65.894302    0.000000    0.000000    0.000000    0.000000
  0.039458918  -38.150860   67.634850   30.237941  -67.441414    0.000000    0.000000    0.000000    0.000000
  0.039659319  -37.254447   66.509949   30.203103  -69.780052    0.000000    0.000000    0.000000    0.000000
  0.039859719  -36.932292   70.423409   30.198619  -71.443871    0.000000    0.000000    0.000000    0.000000
  0.040060120  -37.166688   66.948944   30.162234  -73.649124    0.000000    0.000000    0.000000    0.000000
  0.040260521  -36.434901   69.523270   30.156564  -75.691956    0.000000    0.000000    0.000000    0.000000
  0.040460922  -37.128217   74.849060   30.108053  -77.527695    0.000000    0.000000    0.000000    0.000000
  0.040661323  -36.574242   73.307968   30.099504  -79.558167    0.000000    0.000000    0.000000    0.000000
  0.040861723  -36.068289   71.750664   30.119060  -81.464035    0.000000    0.000000    0.000000    0.000000
  0.041062124  -35.733271   75.215576   30.146184  -82.731995    0.000000    0.000000    0.000000    0.000000
  0.041262525  -36.476466   72.099701   30.236822  -84.009865    0.000000    0.000000    0.000000    0.000000
  0.041462926  -35.510274   70.250778   30.228565  -85.500412    0.000000    0.000000    0.000000    0.000000
  0.041663327  -35.472974   74.287766   30.272589  -86.588432    0.000000    0.000000    0.000000    0.000000
  0.041863727  -35.959278   75.499825   30.292543  -88.243027    0.000000    0.000000    0.000000    0.000000
  0.042064128  -35.781528   75.798073   30.300012  -89.791656    0.000000    0.000000    0.000000    0.000000
  0.042264529  -35.220421   73.563545   30.376121  -91.315468    0.000000    0.000000    0.000000    0.000000
  0.042464930  -35.442372   71.671997   30.348596  -93.310272    0.000000    0.000000    0.000000    0.000000
  0.042665331  -35.292239   73.848907   30.347558  -95.072227    0.000000    0.000000    0.000000    0.000000
  0.042865731  -35.316273   72.771889   30.375189  -97.170891    0.000000    0.000000    0.000000    0.000000
