! Anritsu VNA Master:                 Model: MS2034B/10/19/501
! SN:                                  1337062
! /bd0/ovro-jan-2016/dcp-d1-s22.s2p
! Existing Calibration Information:
! TYPE:                         Current Settings,       Active Cal Settings
! TIME:             	   01/08/2016 09:07:19 PM,    01/08/2016 08:43:08 PM
! INTERNAL TEMP:    	                   41.8 C,                    45.0 C
! # POINTS:         	                      500,                       500
! START FREQ:       	               10.000 MHz,                10.000 MHz
! STOP FREQ:        	              110.000 MHz,               110.000 MHz
! SOURCE POWER:     	                      Low,                       Low
! IFBW:             	                   100 Hz,                    100 Hz
! AVG FACTOR:       	                       3 ,                        3 
! REF PLANE 1:      	                 2.2245 m,                  2.2245 m
! REF PLANE 2:      	                     0 mm,                      0 mm
! CAL TYPE:         	             1P2P S11,S21,              1P2P S11,S21
! CAL METHOD:       	                     SOLT,                      SOLT
! CAL LINE TYPE:    	                     Coax,                      Coax
! DUT PORT 1:       	                K-Conn(M),                 K-Conn(M)
! DUT PORT 2:       	                N-Conn(M),                 N-Conn(M)
! CAL STATUS:       	        OK: Accuracy High,                        --
# GHZ S DB R 50.0
! FREQ.GHZ       S11DB        S11A       S21DB        S21A       S12DB        S12A       S22DB        S22A
  0.010000000  -23.471461  155.539886  -67.982144   92.782722    0.000000    0.000000    0.000000    0.000000
  0.010200401  -23.867417  157.703796  -65.471133   92.293495    0.000000    0.000000    0.000000    0.000000
  0.010400802  -23.683300  160.651703  -67.080257   84.204323    0.000000    0.000000    0.000000    0.000000
  0.010601202  -24.004040  161.632874  -67.135855   93.911629    0.000000    0.000000    0.000000    0.000000
  0.010801603  -24.317737  162.603424  -67.294939   94.062019    0.000000    0.000000    0.000000    0.000000
  0.011002004  -24.513815  166.134872  -66.942141   87.027565    0.000000    0.000000    0.000000    0.000000
  0.011202405  -24.472362  168.791077  -66.207018   89.944450    0.000000    0.000000    0.000000    0.000000
  0.011402806  -24.696002  169.828293  -65.546532   99.502739    0.000000    0.000000    0.000000    0.000000
  0.011603206  -24.842991  171.078888  -66.199751  102.524734    0.000000    0.000000    0.000000    0.000000
  0.011803607  -25.287679  177.574234  -65.398786   87.125282    0.000000    0.000000    0.000000    0.000000
  0.012004008  -25.443809  178.908142  -68.015698  102.877831    0.000000    0.000000    0.000000    0.000000
  0.012204409  -25.302200  178.791901  -66.956710  114.667702    0.000000    0.000000    0.000000    0.000000
  0.012404810  -25.520125 -178.144150  -66.926098  103.658157    0.000000    0.000000    0.000000    0.000000
  0.012605210  -25.533096 -177.419113  -66.308696  102.190033    0.000000    0.000000    0.000000    0.000000
  0.012805611  -25.650713 -174.403244  -67.682813  114.524925    0.000000    0.000000    0.000000    0.000000
  0.013006012  -25.495031 -171.632706  -69.232157  116.556442    0.000000    0.000000    0.000000    0.000000
  0.013206413  -25.569836 -169.796875  -68.432307   94.164146    0.000000    0.000000    0.000000    0.000000
  0.013406814  -25.923740 -168.942856  -67.246995  110.802345    0.000000    0.000000    0.000000    0.000000
  0.013607214  -25.624660 -164.807922  -67.430552  113.812561    0.000000    0.000000    0.000000    0.000000
  0.013807615  -25.962827 -164.811615  -66.377578  113.140800    0.000000    0.000000    0.000000    0.000000
  0.014008016  -25.506502 -161.137329  -67.581758  117.139915    0.000000    0.000000    0.000000    0.000000
  0.014208417  -25.659211 -159.794250  -67.791449  112.526428    0.000000    0.000000    0.000000    0.000000
  0.014408818  -25.717432 -157.357635  -66.516560  125.205620    0.000000    0.000000    0.000000    0.000000
  0.014609218  -25.580046 -157.098099  -67.034334  120.334740    0.000000    0.000000    0.000000    0.000000
  0.014809619  -25.287679 -155.815704  -67.417139  122.877342    0.000000    0.000000    0.000000    0.000000
  0.015010020  -25.539270 -152.602295  -68.472363  135.051361    0.000000    0.000000    0.000000    0.000000
  0.015210421  -25.565493 -152.301422  -66.862578  125.658020    0.000000    0.000000    0.000000    0.000000
  0.015410822  -25.539237 -150.007111  -67.592492  123.389633    0.000000    0.000000    0.000000    0.000000
  0.015611222  -25.442045 -148.913681  -66.484896  129.755981    0.000000    0.000000    0.000000    0.000000
  0.015811623  -25.313501 -147.804810  -67.944098  127.576271    0.000000    0.000000    0.000000    0.000000
  0.016012024  -25.187704 -146.497086  -67.690290  127.783485    0.000000    0.000000    0.000000    0.000000
  0.016212425  -25.301162 -145.381927  -68.670009  126.226143    0.000000    0.000000    0.000000    0.000000
  0.016412826  -25.154917 -143.605804  -67.823550  133.998047    0.000000    0.000000    0.000000    0.000000
  0.016613226  -25.080954 -144.283676  -67.520336  129.967743    0.000000    0.000000    0.000000    0.000000
  0.016813627  -25.138430 -142.606155  -67.068644  133.896225    0.000000    0.000000    0.000000    0.000000
  0.017014028  -24.981081 -141.950928  -67.926103  147.227753    0.000000    0.000000    0.000000    0.000000
  0.017214429  -24.977101 -139.765228  -67.425967  137.582108    0.000000    0.000000    0.000000    0.000000
  0.017414830  -24.941501 -139.666351  -66.884533  155.040619    0.000000    0.000000    0.000000    0.000000
  0.017615230  -24.920531 -138.632309  -67.458944  149.063049    0.000000    0.000000    0.000000    0.000000
  0.017815631  -25.034717 -137.750336  -67.948165  146.416122    0.000000    0.000000    0.000000    0.000000
  0.018016032  -24.721833 -137.509766  -69.196881  142.352188    0.000000    0.000000    0.000000    0.000000
  0.018216433  -24.848498 -137.384598  -67.283238  154.022385    0.000000    0.000000    0.000000    0.000000
  0.018416834  -24.694293 -136.911484  -67.561588  152.410187    0.000000    0.000000    0.000000    0.000000
  0.018617234  -24.711271 -136.642334  -68.773477  155.582687    0.000000    0.000000    0.000000    0.000000
  0.018817635  -24.724120 -134.772400  -68.290617  158.737289    0.000000    0.000000    0.000000    0.000000
  0.019018036  -24.762354 -133.944565  -66.933821  155.291016    0.000000    0.000000    0.000000    0.000000
  0.019218437  -24.714481 -134.216232  -68.571544  143.867188    0.000000    0.000000    0.000000    0.000000
  0.019418838  -24.748843 -133.405029  -67.870568  156.985397    0.000000    0.000000    0.000000    0.000000
  0.019619238  -24.834543 -131.772110  -66.228071  165.644958    0.000000    0.000000    0.000000    0.000000
  0.019819639  -24.706174 -132.845932  -68.125517  170.397781    0.000000    0.000000    0.000000    0.000000
  0.020020040  -24.500996 -132.482468  -67.406924  168.053604    0.000000    0.000000    0.000000    0.000000
  0.020220441  -24.613511 -132.432922  -67.311038  179.394363    0.000000    0.000000    0.000000    0.000000
  0.020420842  -24.548869 -131.385498  -67.445943  160.870575    0.000000    0.000000    0.000000    0.000000
  0.020621242  -24.693206 -131.797714  -68.767629  176.620667    0.000000    0.000000    0.000000    0.000000
  0.020821643  -24.647067 -131.753250  -68.271752  176.963913    0.000000    0.000000    0.000000    0.000000
  0.021022044  -24.650248 -131.259109  -68.584850  171.967148    0.000000    0.000000    0.000000    0.000000
  0.021222445  -24.762277 -131.310516  -67.163059  173.970322    0.000000    0.000000    0.000000    0.000000
  0.021422846  -24.914851 -130.270798  -67.476937  169.139847    0.000000    0.000000    0.000000    0.000000
  0.021623246  -24.692303 -131.790802  -68.671043  178.479309    0.000000    0.000000    0.000000    0.000000
  0.021823647  -24.707252 -132.046936  -68.760972  174.023773    0.000000    0.000000    0.000000    0.000000
  0.022024048  -24.925467 -131.071991  -68.332483 -174.832703    0.000000    0.000000    0.000000    0.000000
  0.022224449  -24.940185 -131.273346  -68.006599  179.359848    0.000000    0.000000    0.000000    0.000000
  0.022424850  -25.124243 -130.592804  -66.878743 -167.020966    0.000000    0.000000    0.000000    0.000000
  0.022625251  -25.007185 -130.700592  -67.503499  176.912994    0.000000    0.000000    0.000000    0.000000
  0.022825651  -25.033063 -130.422318  -68.288878  179.380173    0.000000    0.000000    0.000000    0.000000
  0.023026052  -25.159126 -129.866531  -67.378922 -170.640289    0.000000    0.000000    0.000000    0.000000
  0.023226453  -25.239947 -131.392273  -67.939447 -169.886414    0.000000    0.000000    0.000000    0.000000
  0.023426854  -25.199842 -131.229477  -67.776106 -175.847229    0.000000    0.000000    0.000000    0.000000
  0.023627255  -25.444978 -130.859497  -68.415233 -168.578888    0.000000    0.000000    0.000000    0.000000
  0.023827655  -25.844101 -132.208511  -67.142130 -175.598831    0.000000    0.000000    0.000000    0.000000
  0.024028056  -25.727384 -133.029236  -68.030525 -172.290833    0.000000    0.000000    0.000000    0.000000
  0.024228457  -25.656767 -132.036667  -68.702614 -171.270065    0.000000    0.000000    0.000000    0.000000
  0.024428858  -25.984840 -132.340042  -67.681481 -166.850052    0.000000    0.000000    0.000000    0.000000
  0.024629259  -26.168223 -133.792160  -67.262594 -162.285324    0.000000    0.000000    0.000000    0.000000
  0.024829659  -26.355136 -134.169571  -67.168098 -130.831451    0.000000    0.000000    0.000000    0.000000
  0.025030060  -26.447416 -134.546265  -66.025839 -119.653427    0.000000    0.000000    0.000000    0.000000
  0.025230461  -26.575004 -136.511200  -66.809618 -124.382065    0.000000    0.000000    0.000000    0.000000
  0.025430862  -27.046135 -134.869415  -66.711567 -136.386566    0.000000    0.000000    0.000000    0.000000
  0.025631263  -27.252049 -137.075150  -68.100086 -128.149582    0.000000    0.000000    0.000000    0.000000
  0.025831663  -27.717465 -137.721970  -65.585019 -127.658424    0.000000    0.000000    0.000000    0.000000
  0.026032064  -27.952500 -136.901917  -66.091381 -117.504745    0.000000    0.000000    0.000000    0.000000
  0.026232465  -28.379687 -137.296692  -65.401568 -126.726646    0.000000    0.000000    0.000000    0.000000
  0.026432866  -28.840486 -139.678818  -67.423386 -114.949554    0.000000    0.000000    0.000000    0.000000
  0.026633267  -29.257300 -136.728775  -65.282020 -117.922890    0.000000    0.000000    0.000000    0.000000
  0.026833667  -29.807374 -138.306564  -65.132270 -116.485146    0.000000    0.000000    0.000000    0.000000
  0.027034068  -30.632199 -135.205170  -66.667096 -115.921219    0.000000    0.000000    0.000000    0.000000
  0.027234469  -30.841907 -134.759888  -65.802503 -116.297424    0.000000    0.000000    0.000000    0.000000
  0.027434870  -31.424297 -135.735138  -66.231609 -110.962601    0.000000    0.000000    0.000000    0.000000
  0.027635271  -32.557054 -132.027481  -67.448575 -101.483490    0.000000    0.000000    0.000000    0.000000
  0.027835671  -32.470640 -129.513840  -64.517762 -114.993256    0.000000    0.000000    0.000000    0.000000
  0.028036072  -32.994354 -127.439949  -66.659226 -116.321922    0.000000    0.000000    0.000000    0.000000
  0.028236473  -33.460610 -119.342232  -66.536419 -130.226547    0.000000    0.000000    0.000000    0.000000
  0.028436874  -33.282271 -117.020592  -65.082068  -99.173805    0.000000    0.000000    0.000000    0.000000
  0.028637275  -33.466648 -111.213211  -66.594235 -106.901031    0.000000    0.000000    0.000000    0.000000
  0.028837675  -34.232877 -104.913132  -66.845056 -103.323051    0.000000    0.000000    0.000000    0.000000
  0.029038076  -33.997394 -100.835014  -66.949618 -102.788559    0.000000    0.000000    0.000000    0.000000
  0.029238477  -34.135551 -102.975296  -65.610050 -103.073318    0.000000    0.000000    0.000000    0.000000
  0.029438878  -33.486813  -96.996132  -66.068159 -105.516914    0.000000    0.000000    0.000000    0.000000
  0.029639279  -33.640065  -96.282837  -65.541899  -98.604637    0.000000    0.000000    0.000000    0.000000
  0.029839679  -33.412497  -91.566994  -66.731645 -105.623344    0.000000    0.000000    0.000000    0.000000
  0.030040080  -33.484235  -92.687332  -66.906844 -100.391968    0.000000    0.000000    0.000000    0.000000
  0.030240481  -33.299653  -90.325447  -66.578385 -100.919998    0.000000    0.000000    0.000000    0.000000
  0.030440882  -33.453047  -88.867981  -65.760000  -93.122002    0.000000    0.000000    0.000000    0.000000
  0.030641283  -33.411271  -85.943329  -65.850986 -107.064926    0.000000    0.000000    0.000000    0.000000
  0.030841683  -33.396028  -83.595154  -66.624858  -96.517700    0.000000    0.000000    0.000000    0.000000
  0.031042084  -33.159930  -85.077133  -66.616090  -91.539291    0.000000    0.000000    0.000000    0.000000
  0.031242485  -33.320589  -81.971375  -67.808269  -85.453575    0.000000    0.000000    0.000000    0.000000
  0.031442886  -33.849951  -80.573898  -66.797901  -84.428764    0.000000    0.000000    0.000000    0.000000
  0.031643287  -33.217459  -77.580994  -67.817674  -93.079758    0.000000    0.000000    0.000000    0.000000
  0.031843687  -33.702589  -79.347298  -67.794659  -81.772118    0.000000    0.000000    0.000000    0.000000
  0.032044088  -33.790915  -74.671936  -66.409067  -79.341805    0.000000    0.000000    0.000000    0.000000
  0.032244489  -33.650695  -79.383224  -67.744007  -90.737022    0.000000    0.000000    0.000000    0.000000
  0.032444890  -33.654044  -74.269203  -67.231313  -89.113892    0.000000    0.000000    0.000000    0.000000
  0.032645291  -33.303579  -72.178383  -69.971635  -66.739639    0.000000    0.000000    0.000000    0.000000
  0.032845691  -33.557074  -74.078369  -67.690311  -72.598618    0.000000    0.000000    0.000000    0.000000
  0.033046092  -34.211729  -68.748528  -67.230927  -80.750626    0.000000    0.000000    0.000000    0.000000
  0.033246493  -34.368286  -67.752213  -68.053434  -67.446960    0.000000    0.000000    0.000000    0.000000
  0.033446894  -33.944249  -68.585716  -68.299866  -68.205009    0.000000    0.000000    0.000000    0.000000
  0.033647295  -33.695609  -67.189934  -68.334250  -74.570175    0.000000    0.000000    0.000000    0.000000
  0.033847695  -34.106971  -65.805443  -69.527512  -70.338303    0.000000    0.000000    0.000000    0.000000
  0.034048096  -33.864178  -62.702625  -68.477827  -66.273949    0.000000    0.000000    0.000000    0.000000
  0.034248497  -34.025896  -63.324768  -68.745946  -72.011490    0.000000    0.000000    0.000000    0.000000
  0.034448898  -34.503001  -60.094196  -68.567522  -74.869415    0.000000    0.000000    0.000000    0.000000
  0.034649299  -34.239600  -64.445511  -70.494002  -68.357536    0.000000    0.000000    0.000000    0.000000
  0.034849699  -33.890416  -61.834408  -67.850420  -76.474815    0.000000    0.000000    0.000000    0.000000
  0.035050100  -34.131109  -56.677097  -67.524218  -59.197380    0.000000    0.000000    0.000000    0.000000
  0.035250501  -34.057347  -57.916454  -69.068809  -61.546555    0.000000    0.000000    0.000000    0.000000
  0.035450902  -33.670584  -55.989792  -68.059410  -61.124611    0.000000    0.000000    0.000000    0.000000
  0.035651303  -34.088997  -58.229595  -68.907622  -51.090965    0.000000    0.000000    0.000000    0.000000
  0.035851703  -34.017410  -51.713036  -69.529869  -58.631790    0.000000    0.000000    0.000000    0.000000
  0.036052104  -34.384039  -54.474255  -67.969215  -53.066689    0.000000    0.000000    0.000000    0.000000
  0.036252505  -34.357365  -52.127903  -68.664100  -48.780373    0.000000    0.000000    0.000000    0.000000
  0.036452906  -34.304292  -51.826439  -67.402244  -49.283508    0.000000    0.000000    0.000000    0.000000
  0.036653307  -34.637501  -50.543648  -68.443609  -52.217781    0.000000    0.000000    0.000000    0.000000
  0.036853707  -34.403986  -48.585384  -68.879577  -43.531372    0.000000    0.000000    0.000000    0.000000
  0.037054108  -33.926070  -50.264969  -68.986965  -41.353443    0.000000    0.000000    0.000000    0.000000
  0.037254509  -34.399646  -47.652870  -68.424467  -42.622345    0.000000    0.000000    0.000000    0.000000
  0.037454910  -34.149973  -46.862103  -67.810030  -41.697174    0.000000    0.000000    0.000000    0.000000
  0.037655311  -34.715983  -46.604561  -69.545678  -47.960651    0.000000    0.000000    0.000000    0.000000
  0.037855711  -34.394039  -44.040413  -67.908592  -30.846354    0.000000    0.000000    0.000000    0.000000
  0.038056112  -34.524773  -43.224522  -67.887174  -42.430332    0.000000    0.000000    0.000000    0.000000
  0.038256513  -35.050105  -45.463341  -69.087319  -29.885895    0.000000    0.000000    0.000000    0.000000
  0.038456914  -34.833393  -43.833698  -69.024539  -27.335562    0.000000    0.000000    0.000000    0.000000
  0.038657315  -35.081173  -43.226208  -71.026309  -16.109846    0.000000    0.000000    0.000000    0.000000
  0.038857715  -35.506509  -40.086277  -68.652675  -22.683550    0.000000    0.000000    0.000000    0.000000
  0.039058116  -34.786714  -39.619724  -67.723778  -30.250084    0.000000    0.000000    0.000000    0.000000
  0.039258517  -35.191818  -41.328835  -68.832151  -20.707319    0.000000    0.000000    0.000000    0.000000
  0.039458918  -35.340627  -40.679325  -67.563272  -32.810184    0.000000    0.000000    0.000000    0.000000
  0.039659319  -35.318145  -39.854610  -67.486100  -22.102407    0.000000    0.000000    0.000000    0.000000
  0.039859719  -35.242651  -36.912437  -68.243711  -17.502192    0.000000    0.000000    0.000000    0.000000
  0.040060120  -35.045816  -37.394627  -69.773312  -20.262241    0.000000    0.000000    0.000000    0.000000
  0.040260521  -35.856429  -36.319740  -68.797930  -13.055081    0.000000    0.000000    0.000000    0.000000
  0.040460922  -35.883249  -38.483669  -68.441774   -3.599173    0.000000    0.000000    0.000000    0.000000
  0.040661323  -35.826558  -35.314060  -68.440885   -1.927216    0.000000    0.000000    0.000000    0.000000
  0.040861723  -35.994647  -32.503323  -69.472033  -17.978161    0.000000    0.000000    0.000000    0.000000
  0.041062124  -36.556561  -31.150824  -68.829060   -0.078414    0.000000    0.000000    0.000000    0.000000
  0.041262525  -35.840999  -36.019524  -70.214406   -7.175780    0.000000    0.000000    0.000000    0.000000
  0.041462926  -35.856139  -30.124939  -68.902612  -12.743118    0.000000    0.000000    0.000000    0.000000
  0.041663327  -36.525727  -29.735140  -69.916936    2.195539    0.000000    0.000000    0.000000    0.000000
  0.041863727  -36.758715  -30.789232  -68.758631    0.590819    0.000000    0.000000    0.000000    0.000000
  0.042064128  -36.968337  -30.618311  -69.099752    6.579072    0.000000    0.000000    0.000000    0.000000
  0.042264529  -36.630220  -27.925335  -69.511329    6.181205    0.000000    0.000000    0.000000    0.000000
  0.042464930  -36.672042  -26.528997  -68.363754   10.523286    0.000000    0.000000    0.000000    0.000000
  0.042665331  -37.103012  -23.757006  -67.551765   11.709579    0.000000    0.000000    0.000000    0.000000
  0.042865731  -36.878731  -24.904478  -67.204605    4.298900    0.000000    0.000000    0.000000    0.000000
