! Anritsu VNA Master:                 Model: MS2034B/10/19/501
! SN:                                  1337062
! /bd0/ovro-jan-2016/dcp-c1-s21-40db.s2p
! Existing Calibration Information:
! TYPE:                         Current Settings,       Active Cal Settings
! TIME:             	   01/10/2016 05:30:59 PM,    01/10/2016 03:13:30 PM
! INTERNAL TEMP:    	                   42.5 C,                    45.8 C
! # POINTS:         	                      500,                       500
! START FREQ:       	               10.000 MHz,                10.000 MHz
! STOP FREQ:        	              110.000 MHz,               110.000 MHz
! SOURCE POWER:     	                      Low,                       Low
! IFBW:             	                   100 Hz,                    100 Hz
! AVG FACTOR:       	                       3 ,                        3 
! REF PLANE 1:      	                 2.2245 m,                  2.2245 m
! REF PLANE 2:      	                     0 mm,                      0 mm
! CAL TYPE:         	             1P2P S11,S21,              1P2P S11,S21
! CAL METHOD:       	                     SOLT,                      SOLT
! CAL LINE TYPE:    	                     Coax,                      Coax
! DUT PORT 1:       	                K-Conn(M),                 K-Conn(M)
! DUT PORT 2:       	                N-Conn(M),                 N-Conn(M)
! CAL STATUS:       	        OK: Accuracy High,                        --
# GHZ S DB R 50.0
! FREQ.GHZ       S11DB        S11A       S21DB        S21A       S12DB        S12A       S22DB        S22A
  0.010000000  -43.289467 -111.139938  -64.590747   94.736755    0.000000    0.000000    0.000000    0.000000
  0.010200401  -41.621959 -115.875854  -63.206182  106.053574    0.000000    0.000000    0.000000    0.000000
  0.010400802  -41.985345 -107.614243  -64.191773   97.934334    0.000000    0.000000    0.000000    0.000000
  0.010601202  -43.392852 -108.593254  -64.273470   93.591202    0.000000    0.000000    0.000000    0.000000
  0.010801603  -42.494190 -110.700317  -63.693141   92.319443    0.000000    0.000000    0.000000    0.000000
  0.011002004  -42.873681 -100.088669  -62.518223   93.480896    0.000000    0.000000    0.000000    0.000000
  0.011202405  -42.796607 -102.588203  -62.573128  103.855293    0.000000    0.000000    0.000000    0.000000
  0.011402806  -41.728787  -94.636696  -62.903668   94.182144    0.000000    0.000000    0.000000    0.000000
  0.011603206  -41.547161 -104.349297  -62.983952  104.351334    0.000000    0.000000    0.000000    0.000000
  0.011803607  -41.929911  -90.717262  -63.927266   96.240326    0.000000    0.000000    0.000000    0.000000
  0.012004008  -41.323842 -112.128822  -62.892284   95.545670    0.000000    0.000000    0.000000    0.000000
  0.012204409  -42.082796 -100.817184  -63.750733   94.857193    0.000000    0.000000    0.000000    0.000000
  0.012404810  -42.455422 -105.553673  -64.852557  103.536430    0.000000    0.000000    0.000000    0.000000
  0.012605210  -41.702526  -95.479813  -65.515763   96.900787    0.000000    0.000000    0.000000    0.000000
  0.012805611  -41.451157 -106.223946  -64.334260  107.032684    0.000000    0.000000    0.000000    0.000000
  0.013006012  -42.442515 -102.136063  -65.171015  103.774635    0.000000    0.000000    0.000000    0.000000
  0.013206413  -42.222991  -97.166534  -64.302946   99.746681    0.000000    0.000000    0.000000    0.000000
  0.013406814  -42.133291  -96.345154  -63.262206  100.728157    0.000000    0.000000    0.000000    0.000000
  0.013607214  -41.320490  -98.845940  -64.212752  103.128189    0.000000    0.000000    0.000000    0.000000
  0.013807615  -41.253994  -90.943123  -64.426943  112.628342    0.000000    0.000000    0.000000    0.000000
  0.014008016  -41.519691 -101.457069  -65.320098  100.715347    0.000000    0.000000    0.000000    0.000000
  0.014208417  -42.375140  -92.923088  -64.778878  108.296364    0.000000    0.000000    0.000000    0.000000
  0.014408818  -41.201528  -86.819405  -65.338178  122.924034    0.000000    0.000000    0.000000    0.000000
  0.014609218  -42.374112  -85.493805  -65.404608  104.211670    0.000000    0.000000    0.000000    0.000000
  0.014809619  -40.714072  -89.760544  -65.249502  103.089310    0.000000    0.000000    0.000000    0.000000
  0.015010020  -40.615424  -91.435768  -66.048608  121.035675    0.000000    0.000000    0.000000    0.000000
  0.015210421  -41.100639  -83.673523  -63.658892  122.887436    0.000000    0.000000    0.000000    0.000000
  0.015410822  -40.740775  -88.206833  -64.383624  128.384277    0.000000    0.000000    0.000000    0.000000
  0.015611222  -42.319065  -87.354469  -66.240508  134.413849    0.000000    0.000000    0.000000    0.000000
  0.015811623  -41.417597  -90.872276  -64.737337  143.363510    0.000000    0.000000    0.000000    0.000000
  0.016012024  -40.802803  -80.427589  -63.013929  139.395691    0.000000    0.000000    0.000000    0.000000
  0.016212425  -40.829071  -78.225395  -63.406085  132.487900    0.000000    0.000000    0.000000    0.000000
  0.016412826  -41.100539  -71.989006  -63.408578  150.286087    0.000000    0.000000    0.000000    0.000000
  0.016613226  -41.846955  -78.544373  -62.567792  151.257523    0.000000    0.000000    0.000000    0.000000
  0.016813627  -39.443491  -72.115906  -63.309814  155.388535    0.000000    0.000000    0.000000    0.000000
  0.017014028  -40.542191  -75.505264  -62.167834  153.008041    0.000000    0.000000    0.000000    0.000000
  0.017214429  -40.199101  -77.738564  -62.288148  158.576111    0.000000    0.000000    0.000000    0.000000
  0.017414830  -39.971267  -73.776367  -62.059765  153.982285    0.000000    0.000000    0.000000    0.000000
  0.017615230  -40.465247  -75.340897  -61.085088  152.181458    0.000000    0.000000    0.000000    0.000000
  0.017815631  -41.654294  -74.366890  -61.250823  156.072861    0.000000    0.000000    0.000000    0.000000
  0.018016032  -41.608912  -69.080177  -61.161817  153.673996    0.000000    0.000000    0.000000    0.000000
  0.018216433  -40.931088  -65.303154  -61.882790  156.078949    0.000000    0.000000    0.000000    0.000000
  0.018416834  -41.543285  -75.573601  -62.223821  157.616776    0.000000    0.000000    0.000000    0.000000
  0.018617234  -40.747684  -68.809105  -61.798804  152.370575    0.000000    0.000000    0.000000    0.000000
  0.018817635  -41.692303  -66.747345  -61.809856  163.623428    0.000000    0.000000    0.000000    0.000000
  0.019018036  -41.256602  -65.171661  -61.388629  158.244400    0.000000    0.000000    0.000000    0.000000
  0.019218437  -41.931800  -76.051636  -62.876955  159.551620    0.000000    0.000000    0.000000    0.000000
  0.019418838  -40.815127  -57.428066  -63.282192  166.836868    0.000000    0.000000    0.000000    0.000000
  0.019619238  -40.620500  -62.625778  -65.080811 -174.574738    0.000000    0.000000    0.000000    0.000000
  0.019819639  -40.578432  -63.887512  -65.281281 -150.909485    0.000000    0.000000    0.000000    0.000000
  0.020020040  -40.880665  -54.146446  -65.383371 -135.263474    0.000000    0.000000    0.000000    0.000000
  0.020220441  -39.352829  -54.820160  -64.151470 -108.470505    0.000000    0.000000    0.000000    0.000000
  0.020420842  -40.938509  -54.717216  -60.462537 -101.683830    0.000000    0.000000    0.000000    0.000000
  0.020621242  -41.037478  -51.843861  -56.915904  -88.844734    0.000000    0.000000    0.000000    0.000000
  0.020821643  -39.766137  -54.971432  -54.845148  -89.507431    0.000000    0.000000    0.000000    0.000000
  0.021022044  -40.578989  -51.313622  -52.232734  -83.655960    0.000000    0.000000    0.000000    0.000000
  0.021222445  -39.926220  -47.878376  -49.960024  -84.083054    0.000000    0.000000    0.000000    0.000000
  0.021422846  -40.638859  -42.787556  -48.035261  -83.720016    0.000000    0.000000    0.000000    0.000000
  0.021623246  -40.580607  -48.443233  -46.272933  -84.011452    0.000000    0.000000    0.000000    0.000000
  0.021823647  -41.813236  -50.079563  -44.410530  -87.775497    0.000000    0.000000    0.000000    0.000000
  0.022024048  -39.451034  -44.944054  -42.708563  -90.395226    0.000000    0.000000    0.000000    0.000000
  0.022224449  -40.644824  -44.567734  -41.102239  -92.545090    0.000000    0.000000    0.000000    0.000000
  0.022424850  -40.408215  -42.010132  -39.775251  -93.281662    0.000000    0.000000    0.000000    0.000000
  0.022625251  -40.366399  -41.268612  -38.335925  -95.717941    0.000000    0.000000    0.000000    0.000000
  0.022825651  -40.268461  -44.654388  -36.777856  -98.789871    0.000000    0.000000    0.000000    0.000000
  0.023026052  -39.877288  -42.611622  -35.339102 -101.099808    0.000000    0.000000    0.000000    0.000000
  0.023226453  -40.184031  -40.798840  -34.068220 -104.148582    0.000000    0.000000    0.000000    0.000000
  0.023426854  -40.436786  -37.383312  -32.730573 -107.109886    0.000000    0.000000    0.000000    0.000000
  0.023627255  -40.668915  -37.893192  -31.395341 -110.026268    0.000000    0.000000    0.000000    0.000000
  0.023827655  -40.735158  -34.675854  -30.218148 -112.741600    0.000000    0.000000    0.000000    0.000000
  0.024028056  -39.899891  -25.925739  -29.014228 -116.457924    0.000000    0.000000    0.000000    0.000000
  0.024228457  -40.772023  -38.736378  -27.676097 -119.735603    0.000000    0.000000    0.000000    0.000000
  0.024428858  -40.133905  -30.215036  -26.393033 -123.781357    0.000000    0.000000    0.000000    0.000000
  0.024629259  -39.237779  -20.911642  -25.304662 -127.408768    0.000000    0.000000    0.000000    0.000000
  0.024829659  -39.430323  -26.075773  -24.049987 -129.847412    0.000000    0.000000    0.000000    0.000000
  0.025030060  -40.108481  -27.655087  -22.804208 -133.561081    0.000000    0.000000    0.000000    0.000000
  0.025230461  -39.485508  -24.118469  -21.763097 -138.558823    0.000000    0.000000    0.000000    0.000000
  0.025430862  -40.405257  -24.718603  -20.693541 -143.218307    0.000000    0.000000    0.000000    0.000000
  0.025631263  -40.116022  -21.968874  -19.513463 -148.352310    0.000000    0.000000    0.000000    0.000000
  0.025831663  -40.606379  -19.151222  -18.457111 -153.192398    0.000000    0.000000    0.000000    0.000000
  0.026032064  -40.599217  -22.658155  -17.425324 -159.217529    0.000000    0.000000    0.000000    0.000000
  0.026232465  -39.690848  -16.169144  -16.431773 -164.486038    0.000000    0.000000    0.000000    0.000000
  0.026432866  -40.268135  -21.915255  -15.549396 -170.410843    0.000000    0.000000    0.000000    0.000000
  0.026633267  -40.647630  -26.560942  -14.529265 -176.524292    0.000000    0.000000    0.000000    0.000000
  0.026833667  -39.272184  -30.657406  -13.678581  177.036072    0.000000    0.000000    0.000000    0.000000
  0.027034068  -39.428318  -16.554651  -12.831514  170.237885    0.000000    0.000000    0.000000    0.000000
  0.027234469  -40.213364  -15.449563  -12.082327  163.404099    0.000000    0.000000    0.000000    0.000000
  0.027434870  -39.571125  -18.465664  -11.366144  156.308838    0.000000    0.000000    0.000000    0.000000
  0.027635271  -39.938248  -14.648575  -10.717238  149.157974    0.000000    0.000000    0.000000    0.000000
  0.027835671  -40.445223  -10.110583  -10.139153  141.491959    0.000000    0.000000    0.000000    0.000000
  0.028036072  -39.985729  -13.699436   -9.696073  134.642960    0.000000    0.000000    0.000000    0.000000
  0.028236473  -40.713844  -15.701703   -9.235392  127.488350    0.000000    0.000000    0.000000    0.000000
  0.028436874  -39.857836   -1.053849   -8.879680  120.417358    0.000000    0.000000    0.000000    0.000000
  0.028637275  -39.670106    0.798639   -8.532300  113.393158    0.000000    0.000000    0.000000    0.000000
  0.028837675  -39.119986   -3.902249   -8.335444  106.620453    0.000000    0.000000    0.000000    0.000000
  0.029038076  -40.243397    4.211651   -8.115067  100.736961    0.000000    0.000000    0.000000    0.000000
  0.029238477  -40.332981   -1.866470   -7.983874   94.126480    0.000000    0.000000    0.000000    0.000000
  0.029438878  -39.788498    4.556860   -7.798267   88.647148    0.000000    0.000000    0.000000    0.000000
  0.029639279  -40.091034    0.768482   -7.751769   82.821823    0.000000    0.000000    0.000000    0.000000
  0.029839679  -39.362800    7.777161   -7.634905   77.393532    0.000000    0.000000    0.000000    0.000000
  0.030040080  -39.840491    7.285845   -7.576810   72.408020    0.000000    0.000000    0.000000    0.000000
  0.030240481  -39.732138   13.219595   -7.487988   67.088409    0.000000    0.000000    0.000000    0.000000
  0.030440882  -39.153555    5.954133   -7.488862   62.643955    0.000000    0.000000    0.000000    0.000000
  0.030641283  -39.401946   13.792350   -7.443707   58.011944    0.000000    0.000000    0.000000    0.000000
  0.030841683  -39.395290   15.906510   -7.364127   53.602657    0.000000    0.000000    0.000000    0.000000
  0.031042084  -39.706489   23.968548   -7.342618   49.294651    0.000000    0.000000    0.000000    0.000000
  0.031242485  -39.137923   17.840199   -7.335731   45.203918    0.000000    0.000000    0.000000    0.000000
  0.031442886  -39.306952   17.392792   -7.399622   41.122814    0.000000    0.000000    0.000000    0.000000
  0.031643287  -39.205351   21.188883   -7.323605   37.530167    0.000000    0.000000    0.000000    0.000000
  0.031843687  -38.920287   15.888939   -7.244131   34.239429    0.000000    0.000000    0.000000    0.000000
  0.032044088  -39.263074   27.835070   -7.357320   30.058603    0.000000    0.000000    0.000000    0.000000
  0.032244489  -39.193997   31.711199   -7.292311   26.938221    0.000000    0.000000    0.000000    0.000000
  0.032444890  -39.277627   27.689024   -7.197480   23.371462    0.000000    0.000000    0.000000    0.000000
  0.032645291  -38.388737   26.207718   -7.248405   19.970713    0.000000    0.000000    0.000000    0.000000
  0.032845691  -39.231705   30.494455   -7.230454   16.656084    0.000000    0.000000    0.000000    0.000000
  0.033046092  -38.118127   21.419830   -7.179329   13.672919    0.000000    0.000000    0.000000    0.000000
  0.033246493  -38.812474   31.455305   -7.289932   10.667055    0.000000    0.000000    0.000000    0.000000
  0.033446894  -39.322205   37.598648   -7.305451    7.275769    0.000000    0.000000    0.000000    0.000000
  0.033647295  -39.095183   33.627495   -7.283967    4.607964    0.000000    0.000000    0.000000    0.000000
  0.033847695  -38.827033   32.759003   -7.238357    1.382060    0.000000    0.000000    0.000000    0.000000
  0.034048096  -39.149189   33.195992   -7.189551   -1.190022    0.000000    0.000000    0.000000    0.000000
  0.034248497  -37.335696   35.529911   -7.210713   -3.908067    0.000000    0.000000    0.000000    0.000000
  0.034448898  -38.221009   38.524994   -7.181046   -6.894539    0.000000    0.000000    0.000000    0.000000
  0.034649299  -38.563622   36.260960   -7.164375   -9.040505    0.000000    0.000000    0.000000    0.000000
  0.034849699  -38.765763   43.076607   -7.138388  -11.810052    0.000000    0.000000    0.000000    0.000000
  0.035050100  -39.181860   41.405907   -7.215739  -14.513995    0.000000    0.000000    0.000000    0.000000
  0.035250501  -37.946964   41.407574   -7.200553  -16.864603    0.000000    0.000000    0.000000    0.000000
  0.035450902  -38.613782   42.310299   -7.175083  -19.030743    0.000000    0.000000    0.000000    0.000000
  0.035651303  -38.496097   43.154179   -7.171305  -21.737543    0.000000    0.000000    0.000000    0.000000
  0.035851703  -38.669851   44.480793   -7.207283  -24.119816    0.000000    0.000000    0.000000    0.000000
  0.036052104  -39.026155   48.961445   -7.251328  -26.482620    0.000000    0.000000    0.000000    0.000000
  0.036252505  -38.411762   46.444862   -7.162241  -28.798170    0.000000    0.000000    0.000000    0.000000
  0.036452906  -38.229275   43.259888   -7.197395  -31.208620    0.000000    0.000000    0.000000    0.000000
  0.036653307  -38.260585   46.414192   -7.144570  -33.556374    0.000000    0.000000    0.000000    0.000000
  0.036853707  -38.717140   50.238647   -7.194487  -35.955997    0.000000    0.000000    0.000000    0.000000
  0.037054108  -38.649486   48.392704   -7.217160  -37.915169    0.000000    0.000000    0.000000    0.000000
  0.037254509  -39.365077   56.256889   -7.221504  -39.847607    0.000000    0.000000    0.000000    0.000000
  0.037454910  -37.954955   49.535168   -7.184087  -42.167404    0.000000    0.000000    0.000000    0.000000
  0.037655311  -38.475101   60.272446   -7.197465  -44.456364    0.000000    0.000000    0.000000    0.000000
  0.037855711  -38.542069   57.677101   -7.217107  -46.230057    0.000000    0.000000    0.000000    0.000000
  0.038056112  -38.576626   53.488445   -7.232418  -48.214859    0.000000    0.000000    0.000000    0.000000
  0.038256513  -38.870844   59.676147   -7.293531  -50.622219    0.000000    0.000000    0.000000    0.000000
  0.038456914  -39.408156   62.409584   -7.235822  -52.685722    0.000000    0.000000    0.000000    0.000000
  0.038657315  -39.085985   63.542728   -7.229730  -54.668861    0.000000    0.000000    0.000000    0.000000
  0.038857715  -38.234680   65.790718   -7.196719  -56.479584    0.000000    0.000000    0.000000    0.000000
  0.039058116  -38.560501   61.182552   -7.238736  -58.338428    0.000000    0.000000    0.000000    0.000000
  0.039258517  -38.702964   66.920006   -7.223652  -59.995049    0.000000    0.000000    0.000000    0.000000
  0.039458918  -38.748844   67.166389   -7.198570  -62.026825    0.000000    0.000000    0.000000    0.000000
  0.039659319  -39.144474   72.443748   -7.203950  -63.821903    0.000000    0.000000    0.000000    0.000000
  0.039859719  -39.079737   73.048264   -7.219875  -65.946159    0.000000    0.000000    0.000000    0.000000
  0.040060120  -38.338348   72.568161   -7.237555  -67.136909    0.000000    0.000000    0.000000    0.000000
  0.040260521  -38.660582   70.790489   -7.198104  -69.256516    0.000000    0.000000    0.000000    0.000000
  0.040460922  -38.696738   73.284653   -7.211337  -71.073837    0.000000    0.000000    0.000000    0.000000
  0.040661323  -39.241229   75.528152   -7.233790  -72.529312    0.000000    0.000000    0.000000    0.000000
  0.040861723  -39.431028   74.133415   -7.236668  -74.765656    0.000000    0.000000    0.000000    0.000000
  0.041062124  -39.336718   83.022148   -7.242067  -76.193695    0.000000    0.000000    0.000000    0.000000
  0.041262525  -39.395064   74.988342   -7.239287  -78.152519    0.000000    0.000000    0.000000    0.000000
  0.041462926  -39.201940   80.967651   -7.240996  -79.214851    0.000000    0.000000    0.000000    0.000000
  0.041663327  -38.701585   80.248886   -7.240350  -81.729515    0.000000    0.000000    0.000000    0.000000
  0.041863727  -38.587051   83.056252   -7.242917  -82.991745    0.000000    0.000000    0.000000    0.000000
  0.042064128  -38.160589   83.797829   -7.194967  -84.692177    0.000000    0.000000    0.000000    0.000000
  0.042264529  -38.358126   85.924828   -7.231110  -86.204208    0.000000    0.000000    0.000000    0.000000
  0.042464930  -38.614314   82.636673   -7.204301  -88.355492    0.000000    0.000000    0.000000    0.000000
  0.042665331  -39.091778   88.613235   -7.191610  -89.499596    0.000000    0.000000    0.000000    0.000000
  0.042865731  -39.285420   92.565056   -7.199671  -91.394737    0.000000    0.000000    0.000000    0.000000
