! Anritsu VNA Master:                 Model: MS2034B/10/19/501
! SN:                                  1337062
! /bd0/ovro-jan-2016/dcp-c1-s21-40db-2.s2p
! Existing Calibration Information:
! TYPE:                         Current Settings,       Active Cal Settings
! TIME:             	   01/11/2016 05:04:38 PM,    01/11/2016 04:43:35 PM
! INTERNAL TEMP:    	                   43.3 C,                    44.8 C
! # POINTS:         	                      500,                       500
! START FREQ:       	               10.000 MHz,                10.000 MHz
! STOP FREQ:        	              110.000 MHz,               110.000 MHz
! SOURCE POWER:     	                      Low,                       Low
! IFBW:             	                   100 Hz,                    100 Hz
! AVG FACTOR:       	                       3 ,                        3 
! REF PLANE 1:      	                 2.2245 m,                  2.2245 m
! REF PLANE 2:      	                     0 mm,                      0 mm
! CAL TYPE:         	             1P2P S11,S21,              1P2P S11,S21
! CAL METHOD:       	                     SOLT,                      SOLT
! CAL LINE TYPE:    	                     Coax,                      Coax
! DUT PORT 1:       	                K-Conn(M),                 K-Conn(M)
! DUT PORT 2:       	                N-Conn(M),                 N-Conn(M)
! CAL STATUS:       	        OK: Accuracy High,                        --
# GHZ S DB R 50.0
! FREQ.GHZ       S11DB        S11A       S21DB        S21A       S12DB        S12A       S22DB        S22A
  0.010000000  -36.812107  -95.675797  -64.825444  103.237762    0.000000    0.000000    0.000000    0.000000
  0.010200401  -36.886727  -94.614700  -62.216753   96.021317    0.000000    0.000000    0.000000    0.000000
  0.010400802  -37.074222  -87.219627  -63.187924  102.293312    0.000000    0.000000    0.000000    0.000000
  0.010601202  -36.360622  -92.740257  -63.905640  114.141220    0.000000    0.000000    0.000000    0.000000
  0.010801603  -37.314599  -86.472206  -63.541606  102.504158    0.000000    0.000000    0.000000    0.000000
  0.011002004  -37.070419  -88.497025  -64.207318   98.908440    0.000000    0.000000    0.000000    0.000000
  0.011202405  -36.537646  -79.685539  -64.718691   96.714493    0.000000    0.000000    0.000000    0.000000
  0.011402806  -37.161470  -82.579819  -62.664024   93.293137    0.000000    0.000000    0.000000    0.000000
  0.011603206  -37.278561  -80.390282  -63.237306   94.249573    0.000000    0.000000    0.000000    0.000000
  0.011803607  -38.439420  -81.360443  -63.886745   94.993553    0.000000    0.000000    0.000000    0.000000
  0.012004008  -36.431014  -83.522911  -64.934568   98.455383    0.000000    0.000000    0.000000    0.000000
  0.012204409  -36.991652  -72.884621  -64.085047  103.608772    0.000000    0.000000    0.000000    0.000000
  0.012404810  -37.425772  -77.404861  -65.120782  104.968468    0.000000    0.000000    0.000000    0.000000
  0.012605210  -37.956446  -70.970657  -64.922320   95.542870    0.000000    0.000000    0.000000    0.000000
  0.012805611  -37.871294  -66.186539  -64.338884   93.081284    0.000000    0.000000    0.000000    0.000000
  0.013006012  -37.721468  -71.721703  -65.622066  105.677742    0.000000    0.000000    0.000000    0.000000
  0.013206413  -38.522370  -66.558914  -67.012362   93.314949    0.000000    0.000000    0.000000    0.000000
  0.013406814  -37.778985  -66.207527  -65.167961  105.274597    0.000000    0.000000    0.000000    0.000000
  0.013607214  -37.583996  -71.692421  -67.553765  104.012100    0.000000    0.000000    0.000000    0.000000
  0.013807615  -37.239668  -66.537964  -66.606635  106.230347    0.000000    0.000000    0.000000    0.000000
  0.014008016  -38.457221  -62.628143  -65.747202  115.976227    0.000000    0.000000    0.000000    0.000000
  0.014208417  -38.881772  -61.235882  -66.871336  110.829803    0.000000    0.000000    0.000000    0.000000
  0.014408818  -38.811856  -56.463257  -67.752487  129.684769    0.000000    0.000000    0.000000    0.000000
  0.014609218  -37.313097  -58.820545  -67.048115  111.198280    0.000000    0.000000    0.000000    0.000000
  0.014809619  -38.727707  -59.420841  -66.330892  123.228569    0.000000    0.000000    0.000000    0.000000
  0.015010020  -38.744743  -55.590607  -67.047341  135.343903    0.000000    0.000000    0.000000    0.000000
  0.015210421  -38.632474  -53.200611  -64.885096  137.511520    0.000000    0.000000    0.000000    0.000000
  0.015410822  -38.700360  -51.862545  -64.912248  136.578613    0.000000    0.000000    0.000000    0.000000
  0.015611222  -37.998442  -53.327663  -64.568759  131.997513    0.000000    0.000000    0.000000    0.000000
  0.015811623  -38.910774  -50.238922  -65.249628  141.837830    0.000000    0.000000    0.000000    0.000000
  0.016012024  -39.003951  -47.766212  -63.955246  140.102249    0.000000    0.000000    0.000000    0.000000
  0.016212425  -39.255002  -44.979622  -64.308525  151.882553    0.000000    0.000000    0.000000    0.000000
  0.016412826  -39.312198  -44.738701  -63.965946  151.261826    0.000000    0.000000    0.000000    0.000000
  0.016613226  -38.672511  -39.112331  -63.104306  150.260101    0.000000    0.000000    0.000000    0.000000
  0.016813627  -37.108038  -38.842991  -63.239821  143.434402    0.000000    0.000000    0.000000    0.000000
  0.017014028  -39.267057  -34.912399  -62.137594  150.190475    0.000000    0.000000    0.000000    0.000000
  0.017214429  -38.605881  -32.886845  -63.000277  147.079544    0.000000    0.000000    0.000000    0.000000
  0.017414830  -39.109269  -38.698227  -61.380103  147.668655    0.000000    0.000000    0.000000    0.000000
  0.017615230  -39.643518  -33.436348  -61.417976  152.655594    0.000000    0.000000    0.000000    0.000000
  0.017815631  -39.555481  -34.337673  -61.097542  153.906784    0.000000    0.000000    0.000000    0.000000
  0.018016032  -39.876428  -34.624428  -61.405386  149.731628    0.000000    0.000000    0.000000    0.000000
  0.018216433  -39.042496  -33.839310  -62.034433  146.254196    0.000000    0.000000    0.000000    0.000000
  0.018416834  -39.523137  -29.482809  -62.054221  162.090210    0.000000    0.000000    0.000000    0.000000
  0.018617234  -39.476234  -29.057533  -61.336606  153.018005    0.000000    0.000000    0.000000    0.000000
  0.018817635  -39.651571  -24.960228  -63.221342  155.211411    0.000000    0.000000    0.000000    0.000000
  0.019018036  -40.241164  -20.872421  -64.044934  162.826599    0.000000    0.000000    0.000000    0.000000
  0.019218437  -38.144204  -18.286131  -63.021594  164.387680    0.000000    0.000000    0.000000    0.000000
  0.019418838  -40.682655  -17.175077  -64.108064  171.307922    0.000000    0.000000    0.000000    0.000000
  0.019619238  -40.352357  -18.449780  -66.952294 -173.524216    0.000000    0.000000    0.000000    0.000000
  0.019819639  -40.114084  -14.814257  -65.555473 -162.091324    0.000000    0.000000    0.000000    0.000000
  0.020020040  -40.468853  -16.826860  -64.387552 -139.667526    0.000000    0.000000    0.000000    0.000000
  0.020220441  -39.863286  -13.644890  -61.490655 -117.601021    0.000000    0.000000    0.000000    0.000000
  0.020420842  -39.748459  -13.759406  -59.656805 -108.076439    0.000000    0.000000    0.000000    0.000000
  0.020621242  -39.694760  -15.548878  -56.671811  -96.568825    0.000000    0.000000    0.000000    0.000000
  0.020821643  -41.233222  -16.067842  -53.945046  -95.627121    0.000000    0.000000    0.000000    0.000000
  0.021022044  -40.440118  -16.082369  -51.748304  -91.313820    0.000000    0.000000    0.000000    0.000000
  0.021222445  -40.751269   -6.755191  -49.535602  -90.662254    0.000000    0.000000    0.000000    0.000000
  0.021422846  -40.643620   -1.521266  -47.724383  -91.987839    0.000000    0.000000    0.000000    0.000000
  0.021623246  -40.819926   -7.816876  -45.690200  -92.490814    0.000000    0.000000    0.000000    0.000000
  0.021823647  -40.506789    0.041324  -43.890760  -96.976563    0.000000    0.000000    0.000000    0.000000
  0.022024048  -41.749447    5.659431  -42.302562  -98.618370    0.000000    0.000000    0.000000    0.000000
  0.022224449  -40.739248   -4.131885  -40.863116 -101.246628    0.000000    0.000000    0.000000    0.000000
  0.022424850  -41.366904    4.556497  -39.544466 -101.209656    0.000000    0.000000    0.000000    0.000000
  0.022625251  -41.373959   -3.213876  -37.952342 -104.511131    0.000000    0.000000    0.000000    0.000000
  0.022825651  -42.397216    2.485316  -36.432817 -107.298660    0.000000    0.000000    0.000000    0.000000
  0.023026052  -43.588282   -2.571921  -35.233583 -108.726891    0.000000    0.000000    0.000000    0.000000
  0.023226453  -42.560021    7.279210  -33.750830 -112.272758    0.000000    0.000000    0.000000    0.000000
  0.023426854  -40.812160   11.580690  -32.537598 -114.546066    0.000000    0.000000    0.000000    0.000000
  0.023627255  -41.388002    4.251682  -31.343169 -117.449692    0.000000    0.000000    0.000000    0.000000
  0.023827655  -40.166669   10.968076  -30.044082 -120.800323    0.000000    0.000000    0.000000    0.000000
  0.024028056  -41.925480   10.991628  -28.679865 -124.038254    0.000000    0.000000    0.000000    0.000000
  0.024228457  -43.378930    6.593049  -27.477217 -127.611824    0.000000    0.000000    0.000000    0.000000
  0.024428858  -41.814502   12.179651  -26.319309 -131.400635    0.000000    0.000000    0.000000    0.000000
  0.024629259  -43.647623   10.394709  -25.149472 -135.046036    0.000000    0.000000    0.000000    0.000000
  0.024829659  -42.868821   15.654740  -23.734204 -136.997391    0.000000    0.000000    0.000000    0.000000
  0.025030060  -43.129612   21.191301  -22.686575 -142.242874    0.000000    0.000000    0.000000    0.000000
  0.025230461  -43.749746    9.881294  -21.586647 -146.356079    0.000000    0.000000    0.000000    0.000000
  0.025430862  -45.212070   -0.342365  -20.504876 -150.896347    0.000000    0.000000    0.000000    0.000000
  0.025631263  -43.035141   26.800901  -19.436594 -156.086594    0.000000    0.000000    0.000000    0.000000
  0.025831663  -42.372762   13.616517  -18.332623 -160.693649    0.000000    0.000000    0.000000    0.000000
  0.026032064  -43.493294   18.639036  -17.290707 -166.691818    0.000000    0.000000    0.000000    0.000000
  0.026232465  -45.309237   25.022896  -16.280207 -171.726685    0.000000    0.000000    0.000000    0.000000
  0.026432866  -45.758702   25.361025  -15.293254 -178.142975    0.000000    0.000000    0.000000    0.000000
  0.026633267  -45.019152   22.588255  -14.363145  175.437805    0.000000    0.000000    0.000000    0.000000
  0.026833667  -46.616250   14.708925  -13.530063  168.749039    0.000000    0.000000    0.000000    0.000000
  0.027034068  -45.338986   28.130936  -12.736058  162.963989    0.000000    0.000000    0.000000    0.000000
  0.027234469  -46.906641   37.847870  -11.945687  155.580093    0.000000    0.000000    0.000000    0.000000
  0.027434870  -46.487748   37.939381  -11.248472  148.903992    0.000000    0.000000    0.000000    0.000000
  0.027635271  -44.685357   20.040478  -10.606682  142.399536    0.000000    0.000000    0.000000    0.000000
  0.027835671  -46.637357   25.071140  -10.025464  134.855194    0.000000    0.000000    0.000000    0.000000
  0.028036072  -46.753549   12.908931   -9.464399  127.639801    0.000000    0.000000    0.000000    0.000000
  0.028236473  -47.212859   26.106979   -9.103676  120.055359    0.000000    0.000000    0.000000    0.000000
  0.028436874  -47.432763   30.978367   -8.732910  113.303329    0.000000    0.000000    0.000000    0.000000
  0.028637275  -48.245235   33.176777   -8.426713  106.792198    0.000000    0.000000    0.000000    0.000000
  0.028837675  -48.960521   48.530792   -8.231675  100.384285    0.000000    0.000000    0.000000    0.000000
  0.029038076  -47.066877   48.844841   -8.015360   93.945412    0.000000    0.000000    0.000000    0.000000
  0.029238477  -44.810851   51.185631   -7.819960   87.197258    0.000000    0.000000    0.000000    0.000000
  0.029438878  -46.381223   47.964977   -7.683024   81.976738    0.000000    0.000000    0.000000    0.000000
  0.029639279  -49.292045   22.774355   -7.569595   76.521332    0.000000    0.000000    0.000000    0.000000
  0.029839679  -46.791350   34.452370   -7.546682   70.721809    0.000000    0.000000    0.000000    0.000000
  0.030040080  -45.800120   43.564938   -7.425581   65.557785    0.000000    0.000000    0.000000    0.000000
  0.030240481  -48.001611   35.360233   -7.412854   60.970013    0.000000    0.000000    0.000000    0.000000
  0.030440882  -48.602826   31.928968   -7.376595   56.865211    0.000000    0.000000    0.000000    0.000000
  0.030641283  -46.283336   41.722679   -7.305423   52.108803    0.000000    0.000000    0.000000    0.000000
  0.030841683  -45.908620   46.030651   -7.227252   47.506424    0.000000    0.000000    0.000000    0.000000
  0.031042084  -45.756962   50.568882   -7.293505   43.557407    0.000000    0.000000    0.000000    0.000000
  0.031242485  -47.203935   44.986538   -7.232012   39.345699    0.000000    0.000000    0.000000    0.000000
  0.031442886  -44.969553   52.495499   -7.309012   35.649433    0.000000    0.000000    0.000000    0.000000
  0.031643287  -47.326735   45.423424   -7.205114   31.716721    0.000000    0.000000    0.000000    0.000000
  0.031843687  -46.318285   75.776062   -7.239000   27.839191    0.000000    0.000000    0.000000    0.000000
  0.032044088  -47.254508   54.452003   -7.135159   24.826206    0.000000    0.000000    0.000000    0.000000
  0.032244489  -47.799853   39.864742   -7.241211   20.634735    0.000000    0.000000    0.000000    0.000000
  0.032444890  -45.250395   48.167046   -7.184758   17.468489    0.000000    0.000000    0.000000    0.000000
  0.032645291  -45.856733   47.537571   -7.164661   14.105075    0.000000    0.000000    0.000000    0.000000
  0.032845691  -46.231177   48.567131   -7.149680   11.271889    0.000000    0.000000    0.000000    0.000000
  0.033046092  -45.562042   27.271639   -7.168603    8.480920    0.000000    0.000000    0.000000    0.000000
  0.033246493  -47.451015   29.069576   -7.160470    5.098509    0.000000    0.000000    0.000000    0.000000
  0.033446894  -45.480652   51.913582   -7.190224    1.595296    0.000000    0.000000    0.000000    0.000000
  0.033647295  -46.706008   35.418190   -7.147583   -1.421039    0.000000    0.000000    0.000000    0.000000
  0.033847695  -47.220807   50.725712   -7.080285   -4.141846    0.000000    0.000000    0.000000    0.000000
  0.034048096  -47.573063   50.582191   -7.059374   -6.655415    0.000000    0.000000    0.000000    0.000000
  0.034248497  -45.729556   27.864725   -7.127617   -9.046873    0.000000    0.000000    0.000000    0.000000
  0.034448898  -46.095606   39.996025   -7.080754  -12.110462    0.000000    0.000000    0.000000    0.000000
  0.034649299  -46.090357   37.986450   -7.114762  -14.716162    0.000000    0.000000    0.000000    0.000000
  0.034849699  -46.172936   30.501312   -7.156497  -17.382282    0.000000    0.000000    0.000000    0.000000
  0.035050100  -45.312324   36.171890   -7.113798  -19.506580    0.000000    0.000000    0.000000    0.000000
  0.035250501  -46.697301   38.714733   -7.105716  -22.505264    0.000000    0.000000    0.000000    0.000000
  0.035450902  -44.548652   15.821098   -7.080076  -24.601505    0.000000    0.000000    0.000000    0.000000
  0.035651303  -45.046420   20.052776   -7.126810  -26.694387    0.000000    0.000000    0.000000    0.000000
  0.035851703  -46.863058   44.145458   -7.064586  -30.086102    0.000000    0.000000    0.000000    0.000000
  0.036052104  -46.175243   26.136650   -7.122754  -31.842356    0.000000    0.000000    0.000000    0.000000
  0.036252505  -45.518051   43.701603   -7.147968  -34.002647    0.000000    0.000000    0.000000    0.000000
  0.036452906  -46.829059   18.463028   -7.093097  -36.402161    0.000000    0.000000    0.000000    0.000000
  0.036653307  -43.897722   30.891989   -7.130369  -38.914040    0.000000    0.000000    0.000000    0.000000
  0.036853707  -45.109604   27.151186   -7.101906  -40.902443    0.000000    0.000000    0.000000    0.000000
  0.037054108  -44.710152   32.021919   -7.133280  -42.860050    0.000000    0.000000    0.000000    0.000000
  0.037254509  -46.225348   33.194901   -7.080765  -45.483833    0.000000    0.000000    0.000000    0.000000
  0.037454910  -44.092559   23.691813   -7.138821  -46.923031    0.000000    0.000000    0.000000    0.000000
  0.037655311  -44.867053   29.657934   -7.097668  -49.556965    0.000000    0.000000    0.000000    0.000000
  0.037855711  -45.983108   30.141809   -7.143635  -51.290173    0.000000    0.000000    0.000000    0.000000
  0.038056112  -43.354674   27.962448   -7.180416  -52.760006    0.000000    0.000000    0.000000    0.000000
  0.038256513  -44.660709   31.296467   -7.103863  -55.555279    0.000000    0.000000    0.000000    0.000000
  0.038456914  -45.279708   25.044184   -7.167403  -57.484436    0.000000    0.000000    0.000000    0.000000
  0.038657315  -44.787655   31.255766   -7.157056  -59.540707    0.000000    0.000000    0.000000    0.000000
  0.038857715  -45.129099   24.015579   -7.182978  -61.381866    0.000000    0.000000    0.000000    0.000000
  0.039058116  -43.383016   26.702513   -7.136010  -63.306290    0.000000    0.000000    0.000000    0.000000
  0.039258517  -46.772287   22.941874   -7.148427  -64.596825    0.000000    0.000000    0.000000    0.000000
  0.039458918  -44.044230   33.943893   -7.124054  -66.749313    0.000000    0.000000    0.000000    0.000000
  0.039659319  -43.415639   24.253490   -7.127001  -68.851944    0.000000    0.000000    0.000000    0.000000
  0.039859719  -44.022206   36.609192   -7.156388  -70.302925    0.000000    0.000000    0.000000    0.000000
  0.040060120  -43.168006   36.857685   -7.126605  -72.073410    0.000000    0.000000    0.000000    0.000000
  0.040260521  -42.970770   36.208176   -7.136415  -74.471992    0.000000    0.000000    0.000000    0.000000
  0.040460922  -45.551098   28.571756   -7.174056  -75.513084    0.000000    0.000000    0.000000    0.000000
  0.040661323  -42.905358   39.733276   -7.168783  -77.647049    0.000000    0.000000    0.000000    0.000000
  0.040861723  -43.025933   35.823647   -7.172771  -79.446335    0.000000    0.000000    0.000000    0.000000
  0.041062124  -42.658505   44.066189   -7.249315  -80.894562    0.000000    0.000000    0.000000    0.000000
  0.041262525  -43.154564   36.892075   -7.195940  -82.799774    0.000000    0.000000    0.000000    0.000000
  0.041462926  -43.228411   37.159382   -7.186458  -83.936470    0.000000    0.000000    0.000000    0.000000
  0.041663327  -41.319369   43.550140   -7.169314  -85.679741    0.000000    0.000000    0.000000    0.000000
  0.041863727  -42.777901   44.974281   -7.206159  -87.139725    0.000000    0.000000    0.000000    0.000000
  0.042064128  -41.078728   48.637676   -7.247283  -89.212196    0.000000    0.000000    0.000000    0.000000
  0.042264529  -41.519927   40.943146   -7.149861  -90.545555    0.000000    0.000000    0.000000    0.000000
  0.042464930  -41.571855   48.005634   -7.188253  -92.271881    0.000000    0.000000    0.000000    0.000000
  0.042665331  -42.257556   51.763336   -7.180397  -94.069534    0.000000    0.000000    0.000000    0.000000
  0.042865731  -42.707506   52.779892   -7.149806  -95.552048    0.000000    0.000000    0.000000    0.000000
