! Anritsu VNA Master:                 Model: MS2034B/10/19/501
! SN:                                  1337062
! /bd0/ovro-jan-2016/dcp-c2-s21.s2p
! Existing Calibration Information:
! TYPE:                         Current Settings,       Active Cal Settings
! TIME:             	   01/10/2016 05:56:51 PM,    01/10/2016 03:13:30 PM
! INTERNAL TEMP:    	                   44.0 C,                    45.8 C
! # POINTS:         	                      500,                       500
! START FREQ:       	               10.000 MHz,                10.000 MHz
! STOP FREQ:        	              110.000 MHz,               110.000 MHz
! SOURCE POWER:     	                      Low,                       Low
! IFBW:             	                   100 Hz,                    100 Hz
! AVG FACTOR:       	                       3 ,                        3 
! REF PLANE 1:      	                 2.2245 m,                  2.2245 m
! REF PLANE 2:      	                     0 mm,                      0 mm
! CAL TYPE:         	             1P2P S11,S21,              1P2P S11,S21
! CAL METHOD:       	                     SOLT,                      SOLT
! CAL LINE TYPE:    	                     Coax,                      Coax
! DUT PORT 1:       	                K-Conn(M),                 K-Conn(M)
! DUT PORT 2:       	                N-Conn(M),                 N-Conn(M)
! CAL STATUS:       	        OK: Accuracy High,                        --
# GHZ S DB R 50.0
! FREQ.GHZ       S11DB        S11A       S21DB        S21A       S12DB        S12A       S22DB        S22A
  0.010000000  -24.419070 -166.951202  -45.259958 -139.468399    0.000000    0.000000    0.000000    0.000000
  0.010200401  -24.370457 -168.835785  -48.247439 -140.979523    0.000000    0.000000    0.000000    0.000000
  0.010400802  -24.613467 -170.464447  -53.459248 -144.749542    0.000000    0.000000    0.000000    0.000000
  0.010601202  -24.911811 -173.974991  -69.815768 -121.226501    0.000000    0.000000    0.000000    0.000000
  0.010801603  -24.737122 -175.325745  -56.267857   13.867671    0.000000    0.000000    0.000000    0.000000
  0.011002004  -24.993970 -176.777374  -51.159444   27.628157    0.000000    0.000000    0.000000    0.000000
  0.011202405  -24.968668 -179.154343  -48.171589   22.909758    0.000000    0.000000    0.000000    0.000000
  0.011402806  -25.209129  179.718719  -45.004159   23.038868    0.000000    0.000000    0.000000    0.000000
  0.011603206  -25.094761  176.883438  -43.369481   24.437756    0.000000    0.000000    0.000000    0.000000
  0.011803607  -25.549565  173.918549  -42.043210   21.862698    0.000000    0.000000    0.000000    0.000000
  0.012004008  -25.152186  173.135300  -41.065424   19.477448    0.000000    0.000000    0.000000    0.000000
  0.012204409  -25.368049  170.970276  -40.328897   17.150908    0.000000    0.000000    0.000000    0.000000
  0.012404810  -25.176161  169.024094  -39.665091   17.311150    0.000000    0.000000    0.000000    0.000000
  0.012605210  -25.460270  166.840790  -39.601820   16.507175    0.000000    0.000000    0.000000    0.000000
  0.012805611  -25.378074  165.179108  -39.538341   15.569671    0.000000    0.000000    0.000000    0.000000
  0.013006012  -25.257849  159.615463  -39.800922   13.102468    0.000000    0.000000    0.000000    0.000000
  0.013206413  -25.401654  160.629532  -40.126891   12.034035    0.000000    0.000000    0.000000    0.000000
  0.013406814  -25.353162  158.820938  -40.822169   12.670235    0.000000    0.000000    0.000000    0.000000
  0.013607214  -25.442734  157.008987  -41.943578   10.859664    0.000000    0.000000    0.000000    0.000000
  0.013807615  -25.594260  155.357224  -43.498742   12.212795    0.000000    0.000000    0.000000    0.000000
  0.014008016  -25.353385  152.463638  -46.299744   13.085964    0.000000    0.000000    0.000000    0.000000
  0.014208417  -25.161903  149.136108  -50.477537   25.958593    0.000000    0.000000    0.000000    0.000000
  0.014408818  -25.443717  148.796783  -57.892770   78.705544    0.000000    0.000000    0.000000    0.000000
  0.014609218  -25.334615  145.869812  -50.725901  144.674362    0.000000    0.000000    0.000000    0.000000
  0.014809619  -25.499732  145.138641  -44.637216  157.582184    0.000000    0.000000    0.000000    0.000000
  0.015010020  -25.182995  143.061081  -40.618219  161.250793    0.000000    0.000000    0.000000    0.000000
  0.015210421  -25.273756  140.200287  -37.620591  162.324554    0.000000    0.000000    0.000000    0.000000
  0.015410822  -25.260091  138.812592  -35.256344  161.270035    0.000000    0.000000    0.000000    0.000000
  0.015611222  -25.018045  136.231384  -33.244502  160.819061    0.000000    0.000000    0.000000    0.000000
  0.015811623  -25.042661  134.599991  -31.503873  159.388565    0.000000    0.000000    0.000000    0.000000
  0.016012024  -25.007538  132.271408  -29.865378  159.045670    0.000000    0.000000    0.000000    0.000000
  0.016212425  -25.036897  130.089447  -28.519628  157.039825    0.000000    0.000000    0.000000    0.000000
  0.016412826  -24.998294  127.971710  -27.221753  154.640884    0.000000    0.000000    0.000000    0.000000
  0.016613226  -24.720744  126.617020  -26.120199  153.827271    0.000000    0.000000    0.000000    0.000000
  0.016813627  -24.948635  124.375870  -25.126419  151.882935    0.000000    0.000000    0.000000    0.000000
  0.017014028  -24.664312  122.823166  -24.260474  150.328186    0.000000    0.000000    0.000000    0.000000
  0.017214429  -24.736166  121.378212  -23.401987  148.625534    0.000000    0.000000    0.000000    0.000000
  0.017414830  -24.610268  119.486923  -22.666710  147.241837    0.000000    0.000000    0.000000    0.000000
  0.017615230  -24.453071  117.711044  -22.047367  145.173355    0.000000    0.000000    0.000000    0.000000
  0.017815631  -24.197475  115.719307  -21.468400  143.710815    0.000000    0.000000    0.000000    0.000000
  0.018016032  -24.026145  113.746788  -20.941539  141.548172    0.000000    0.000000    0.000000    0.000000
  0.018216433  -24.099248  111.467682  -20.499754  139.662598    0.000000    0.000000    0.000000    0.000000
  0.018416834  -23.801414  111.240425  -20.320713  137.979309    0.000000    0.000000    0.000000    0.000000
  0.018617234  -23.867418  108.877914  -20.009691  136.388092    0.000000    0.000000    0.000000    0.000000
  0.018817635  -23.697456  106.809639  -19.935818  134.330353    0.000000    0.000000    0.000000    0.000000
  0.019018036  -23.548114  104.905281  -19.999239  133.045822    0.000000    0.000000    0.000000    0.000000
  0.019218437  -23.485492  103.887543  -20.251042  131.156891    0.000000    0.000000    0.000000    0.000000
  0.019418838  -23.336647  101.613525  -20.604922  129.740250    0.000000    0.000000    0.000000    0.000000
  0.019619238  -23.244218  101.082413  -21.190284  129.029373    0.000000    0.000000    0.000000    0.000000
  0.019819639  -23.139279   98.666885  -22.319312  128.333160    0.000000    0.000000    0.000000    0.000000
  0.020020040  -22.896457   96.425568  -24.007748  129.298233    0.000000    0.000000    0.000000    0.000000
  0.020220441  -22.973477   94.168846  -26.783895  133.779266    0.000000    0.000000    0.000000    0.000000
  0.020420842  -22.796211   92.791451  -31.651675  150.650772    0.000000    0.000000    0.000000    0.000000
  0.020621242  -22.597360   90.319710  -34.224791 -137.861160    0.000000    0.000000    0.000000    0.000000
  0.020821643  -22.646212   89.212280  -26.650385  -97.567032    0.000000    0.000000    0.000000    0.000000
  0.021022044  -22.442722   87.282875  -21.217571  -89.137566    0.000000    0.000000    0.000000    0.000000
  0.021222445  -22.448877   85.223282  -17.303219  -87.116203    0.000000    0.000000    0.000000    0.000000
  0.021422846  -22.062494   83.487038  -14.218906  -87.444389    0.000000    0.000000    0.000000    0.000000
  0.021623246  -22.076729   82.168091  -11.615864  -88.103378    0.000000    0.000000    0.000000    0.000000
  0.021823647  -21.903725   80.119209   -9.231699  -89.770264    0.000000    0.000000    0.000000    0.000000
  0.022024048  -21.963495   78.301689   -7.119328  -91.760391    0.000000    0.000000    0.000000    0.000000
  0.022224449  -21.753976   76.542084   -5.158549  -94.027626    0.000000    0.000000    0.000000    0.000000
  0.022424850  -21.667371   74.153313   -3.404819  -95.736580    0.000000    0.000000    0.000000    0.000000
  0.022625251  -21.573578   72.540482   -1.675309  -98.579529    0.000000    0.000000    0.000000    0.000000
  0.022825651  -21.448522   70.377365   -0.084194 -101.245018    0.000000    0.000000    0.000000    0.000000
  0.023026052  -21.494917   68.349525    1.582503 -103.586288    0.000000    0.000000    0.000000    0.000000
  0.023226453  -21.257032   66.056778    3.016192 -106.562042    0.000000    0.000000    0.000000    0.000000
  0.023426854  -21.211758   63.300526    4.479999 -109.512329    0.000000    0.000000    0.000000    0.000000
  0.023627255  -21.103955   61.365536    5.858462 -112.506653    0.000000    0.000000    0.000000    0.000000
  0.023827655  -20.616641   61.794407    7.033463 -113.212975    0.000000    0.000000    0.000000    0.000000
  0.024028056  -20.501384   58.767288    8.412621 -116.546768    0.000000    0.000000    0.000000    0.000000
  0.024228457  -20.644395   57.211384    9.648512 -120.098457    0.000000    0.000000    0.000000    0.000000
  0.024428858  -20.274835   54.508663   10.991169 -123.975922    0.000000    0.000000    0.000000    0.000000
  0.024629259  -20.085637   51.186058   12.150361 -127.381500    0.000000    0.000000    0.000000    0.000000
  0.024829659  -20.073612   48.019577   13.346944 -131.502899    0.000000    0.000000    0.000000    0.000000
  0.025030060  -20.044933   46.475605   14.558515 -135.348160    0.000000    0.000000    0.000000    0.000000
  0.025230461  -19.802665   43.133163   15.749261 -140.429871    0.000000    0.000000    0.000000    0.000000
  0.025430862  -20.106261   40.329487   17.053718 -144.557632    0.000000    0.000000    0.000000    0.000000
  0.025631263  -19.785426   37.632690   18.220829 -149.477570    0.000000    0.000000    0.000000    0.000000
  0.025831663  -19.670091   34.524475   19.381980 -154.167511    0.000000    0.000000    0.000000    0.000000
  0.026032064  -19.712662   31.148268   20.584258 -159.283127    0.000000    0.000000    0.000000    0.000000
  0.026232465  -19.617631   27.078335   21.700789 -164.275894    0.000000    0.000000    0.000000    0.000000
  0.026432866  -19.744425   22.854668   22.728827 -169.582184    0.000000    0.000000    0.000000    0.000000
  0.026633267  -19.845004   19.299629   23.854011 -175.636383    0.000000    0.000000    0.000000    0.000000
  0.026833667  -20.017392   13.255549   24.867935  179.001526    0.000000    0.000000    0.000000    0.000000
  0.027034068  -20.055722   10.202616   25.777314  172.425705    0.000000    0.000000    0.000000    0.000000
  0.027234469  -20.342263    5.702018   26.723994  165.695145    0.000000    0.000000    0.000000    0.000000
  0.027434870  -20.496875    0.243274   27.553124  158.508942    0.000000    0.000000    0.000000    0.000000
  0.027635271  -20.968660   -4.129792   28.274112  151.132339    0.000000    0.000000    0.000000    0.000000
  0.027835671  -21.564244   -8.495792   28.933836  143.345856    0.000000    0.000000    0.000000    0.000000
  0.028036072  -22.029285  -14.516335   29.487963  135.991959    0.000000    0.000000    0.000000    0.000000
  0.028236473  -22.781564  -18.155273   29.972880  128.302460    0.000000    0.000000    0.000000    0.000000
  0.028436874  -23.635805  -20.352634   30.396665  120.874352    0.000000    0.000000    0.000000    0.000000
  0.028637275  -24.530581  -23.927736   30.723443  113.136620    0.000000    0.000000    0.000000    0.000000
  0.028837675  -25.394850  -26.742298   30.959057  105.986221    0.000000    0.000000    0.000000    0.000000
  0.029038076  -26.604313  -28.462893   31.211579   99.483101    0.000000    0.000000    0.000000    0.000000
  0.029238477  -27.476999  -30.111261   31.327188   92.467926    0.000000    0.000000    0.000000    0.000000
  0.029438878  -28.708898  -29.471426   31.451357   86.611206    0.000000    0.000000    0.000000    0.000000
  0.029639279  -30.001792  -28.151308   31.554193   80.463318    0.000000    0.000000    0.000000    0.000000
  0.029839679  -30.922666  -26.434662   31.646677   74.881409    0.000000    0.000000    0.000000    0.000000
  0.030040080  -31.894427  -21.610596   31.668238   69.982979    0.000000    0.000000    0.000000    0.000000
  0.030240481  -32.713137  -16.047192   31.704569   64.338081    0.000000    0.000000    0.000000    0.000000
  0.030440882  -33.107034  -12.318729   31.682758   60.038013    0.000000    0.000000    0.000000    0.000000
  0.030641283  -33.904872   -5.469573   31.714448   55.640259    0.000000    0.000000    0.000000    0.000000
  0.030841683  -34.145821    1.149520   31.773155   50.925919    0.000000    0.000000    0.000000    0.000000
  0.031042084  -34.487385    6.242941   31.768388   46.831871    0.000000    0.000000    0.000000    0.000000
  0.031242485  -33.927431    8.244174   31.774579   42.640598    0.000000    0.000000    0.000000    0.000000
  0.031442886  -34.100933   11.392831   31.745707   38.424641    0.000000    0.000000    0.000000    0.000000
  0.031643287  -33.570367   15.336526   31.808247   34.675697    0.000000    0.000000    0.000000    0.000000
  0.031843687  -33.096454   12.240016   31.874016   30.771177    0.000000    0.000000    0.000000    0.000000
  0.032044088  -33.626461   20.219557   31.805976   26.795479    0.000000    0.000000    0.000000    0.000000
  0.032244489  -33.520629   23.742027   31.893565   23.226942    0.000000    0.000000    0.000000    0.000000
  0.032444890  -33.329842   22.207706   31.933872   19.808754    0.000000    0.000000    0.000000    0.000000
  0.032645291  -32.734672   21.797077   31.951455   16.664089    0.000000    0.000000    0.000000    0.000000
  0.032845691  -33.518981   25.117409   31.958071   13.403166    0.000000    0.000000    0.000000    0.000000
  0.033046092  -32.852242   21.211329   31.982578   10.511426    0.000000    0.000000    0.000000    0.000000
  0.033246493  -33.320086   24.490681   31.945513    7.877866    0.000000    0.000000    0.000000    0.000000
  0.033446894  -33.418618   24.681170   31.963533    4.724907    0.000000    0.000000    0.000000    0.000000
  0.033647295  -33.257835   25.118073   31.982904    2.300961    0.000000    0.000000    0.000000    0.000000
  0.033847695  -33.436608   23.779444   32.021241   -0.557926    0.000000    0.000000    0.000000    0.000000
  0.034048096  -33.558780   25.023405   32.066167   -3.542256    0.000000    0.000000    0.000000    0.000000
  0.034248497  -33.100203   26.508015   32.101563   -6.162413    0.000000    0.000000    0.000000    0.000000
  0.034448898  -33.513329   23.714542   32.164505   -9.038589    0.000000    0.000000    0.000000    0.000000
  0.034649299  -33.742410   23.512737   32.159448  -11.375000    0.000000    0.000000    0.000000    0.000000
  0.034849699  -34.095263   28.063368   32.246391  -14.110684    0.000000    0.000000    0.000000    0.000000
  0.035050100  -34.162031   25.867973   32.193916  -16.658709    0.000000    0.000000    0.000000    0.000000
  0.035250501  -34.206843   30.043797   32.210614  -19.067877    0.000000    0.000000    0.000000    0.000000
  0.035450902  -34.036666   26.357262   32.194879  -21.693981    0.000000    0.000000    0.000000    0.000000
  0.035651303  -34.948357   26.859060   32.158464  -23.981905    0.000000    0.000000    0.000000    0.000000
  0.035851703  -35.081648   28.712690   32.163226  -26.179869    0.000000    0.000000    0.000000    0.000000
  0.036052104  -35.454154   29.797800   32.093623  -28.700127    0.000000    0.000000    0.000000    0.000000
  0.036252505  -34.997534   32.980129   32.104284  -31.133154    0.000000    0.000000    0.000000    0.000000
  0.036452906  -34.861147   31.335501   32.075379  -33.597706    0.000000    0.000000    0.000000    0.000000
  0.036653307  -35.072837   31.475178   32.065875  -35.940529    0.000000    0.000000    0.000000    0.000000
  0.036853707  -36.416025   35.729404   32.016935  -38.460514    0.000000    0.000000    0.000000    0.000000
  0.037054108  -35.965983   35.031548   32.014183  -40.696911    0.000000    0.000000    0.000000    0.000000
  0.037254509  -36.510173   38.112545   32.005984  -42.927372    0.000000    0.000000    0.000000    0.000000
  0.037454910  -35.859496   37.251263   32.040416  -45.125301    0.000000    0.000000    0.000000    0.000000
  0.037655311  -36.313834   43.913563   32.065640  -47.384918    0.000000    0.000000    0.000000    0.000000
  0.037855711  -35.674396   39.499813   32.081976  -49.402927    0.000000    0.000000    0.000000    0.000000
  0.038056112  -36.784970   42.600388   32.118574  -51.457523    0.000000    0.000000    0.000000    0.000000
  0.038256513  -36.558941   46.790848   32.116264  -53.241863    0.000000    0.000000    0.000000    0.000000
  0.038456914  -36.685715   46.187088   32.162791  -55.134712    0.000000    0.000000    0.000000    0.000000
  0.038657315  -36.789024   48.565804   32.192115  -56.725788    0.000000    0.000000    0.000000    0.000000
  0.038857715  -36.528457   50.584885   32.247712  -58.241276    0.000000    0.000000    0.000000    0.000000
  0.039058116  -36.414533   48.702110   32.184762  -59.955429    0.000000    0.000000    0.000000    0.000000
  0.039258517  -36.470485   53.325638   32.229083  -61.695534    0.000000    0.000000    0.000000    0.000000
  0.039458918  -37.034263   52.000481   32.219185  -63.528088    0.000000    0.000000    0.000000    0.000000
  0.039659319  -37.345567   55.384338   32.211310  -65.406578    0.000000    0.000000    0.000000    0.000000
  0.039859719  -36.852852   57.265003   32.193180  -67.579254    0.000000    0.000000    0.000000    0.000000
  0.040060120  -36.775024   58.256588   32.138777  -69.464989    0.000000    0.000000    0.000000    0.000000
  0.040260521  -37.007388   55.884670   32.174615  -71.692131    0.000000    0.000000    0.000000    0.000000
  0.040460922  -37.045103   60.253956   32.150352  -73.709488    0.000000    0.000000    0.000000    0.000000
  0.040661323  -36.753963   60.535065   32.144572  -75.501472    0.000000    0.000000    0.000000    0.000000
  0.040861723  -37.017066   61.195244   32.132334  -77.481430    0.000000    0.000000    0.000000    0.000000
  0.041062124  -37.053698   64.577080   32.189436  -79.025505    0.000000    0.000000    0.000000    0.000000
  0.041262525  -37.035218   60.764469   32.218924  -80.513901    0.000000    0.000000    0.000000    0.000000
  0.041462926  -36.746243   64.519951   32.250022  -81.513664    0.000000    0.000000    0.000000    0.000000
  0.041663327  -36.308778   62.463570   32.298490  -83.154984    0.000000    0.000000    0.000000    0.000000
  0.041863727  -36.786093   65.481712   32.291279  -84.295212    0.000000    0.000000    0.000000    0.000000
  0.042064128  -36.320413   66.462105   32.336648  -86.174820    0.000000    0.000000    0.000000    0.000000
  0.042264529  -36.494291   67.157440   32.389687  -87.486145    0.000000    0.000000    0.000000    0.000000
  0.042464930  -36.371901   65.744553   32.362588  -89.629242    0.000000    0.000000    0.000000    0.000000
  0.042665331  -36.668942   67.789040   32.362100  -91.241058    0.000000    0.000000    0.000000    0.000000
  0.042865731  -37.065405   68.331062   32.367458  -93.564590    0.000000    0.000000    0.000000    0.000000
