! Anritsu VNA Master:                 Model: MS2034B/10/19/501
! SN:                                  1337062
! /bd0/ovro-jan-2016/dcp-c1-s11-2.s2p
! Existing Calibration Information:
! TYPE:                         Current Settings,       Active Cal Settings
! TIME:             	   01/11/2016 05:01:56 PM,    01/11/2016 04:43:35 PM
! INTERNAL TEMP:    	                   44.0 C,                    44.8 C
! # POINTS:         	                      500,                       500
! START FREQ:       	               10.000 MHz,                10.000 MHz
! STOP FREQ:        	              110.000 MHz,               110.000 MHz
! SOURCE POWER:     	                      Low,                       Low
! IFBW:             	                   100 Hz,                    100 Hz
! AVG FACTOR:       	                       3 ,                        3 
! REF PLANE 1:      	                 2.2245 m,                  2.2245 m
! REF PLANE 2:      	                     0 mm,                      0 mm
! CAL TYPE:         	             1P2P S11,S21,              1P2P S11,S21
! CAL METHOD:       	                     SOLT,                      SOLT
! CAL LINE TYPE:    	                     Coax,                      Coax
! DUT PORT 1:       	                K-Conn(M),                 K-Conn(M)
! DUT PORT 2:       	                N-Conn(M),                 N-Conn(M)
! CAL STATUS:       	        OK: Accuracy High,                        --
# GHZ S DB R 50.0
! FREQ.GHZ       S11DB        S11A       S21DB        S21A       S12DB        S12A       S22DB        S22A
  0.010000000  -29.602413 -171.022736  -58.963973 -137.842865    0.000000    0.000000    0.000000    0.000000
  0.010200401  -29.879101 -174.468643  -59.376234   15.111686    0.000000    0.000000    0.000000    0.000000
  0.010400802  -30.273454  178.942734  -50.822987   35.949272    0.000000    0.000000    0.000000    0.000000
  0.010601202  -30.145879  177.404068  -45.737701   27.544441    0.000000    0.000000    0.000000    0.000000
  0.010801603  -30.224695  168.157211  -42.909016   29.445448    0.000000    0.000000    0.000000    0.000000
  0.011002004  -29.891589  167.270233  -40.647516   27.042679    0.000000    0.000000    0.000000    0.000000
  0.011202405  -30.572126  160.863632  -39.075177   24.849762    0.000000    0.000000    0.000000    0.000000
  0.011402806  -30.218043  155.903931  -37.690735   23.409269    0.000000    0.000000    0.000000    0.000000
  0.011603206  -30.148190  150.596054  -36.430783   22.048103    0.000000    0.000000    0.000000    0.000000
  0.011803607  -29.596921  144.398376  -35.614857   20.617407    0.000000    0.000000    0.000000    0.000000
  0.012004008  -29.470484  147.162521  -34.850590   18.993063    0.000000    0.000000    0.000000    0.000000
  0.012204409  -29.593638  139.046417  -34.323419   17.916779    0.000000    0.000000    0.000000    0.000000
  0.012404810  -29.157355  136.837418  -33.660126   15.780749    0.000000    0.000000    0.000000    0.000000
  0.012605210  -28.746159  131.187134  -33.479818   13.842599    0.000000    0.000000    0.000000    0.000000
  0.012805611  -28.604971  127.453354  -33.043759   12.892211    0.000000    0.000000    0.000000    0.000000
  0.013006012  -28.286746  126.132759  -32.888283   11.474194    0.000000    0.000000    0.000000    0.000000
  0.013206413  -27.843476  123.221504  -32.751626    8.656380    0.000000    0.000000    0.000000    0.000000
  0.013406814  -27.544061  119.863152  -32.865181    7.677196    0.000000    0.000000    0.000000    0.000000
  0.013607214  -27.341280  119.404602  -33.097396    6.180776    0.000000    0.000000    0.000000    0.000000
  0.013807615  -27.092507  117.103966  -33.225147    3.925140    0.000000    0.000000    0.000000    0.000000
  0.014008016  -26.639552  114.350067  -33.589201    2.804343    0.000000    0.000000    0.000000    0.000000
  0.014208417  -26.202134  112.490356  -34.151289    1.393758    0.000000    0.000000    0.000000    0.000000
  0.014408818  -25.915940  110.624870  -34.917142    0.750882    0.000000    0.000000    0.000000    0.000000
  0.014609218  -26.010262  108.008362  -35.753025   -0.470651    0.000000    0.000000    0.000000    0.000000
  0.014809619  -25.419060  108.504936  -37.071175   -1.561171    0.000000    0.000000    0.000000    0.000000
  0.015010020  -25.206554  105.688957  -38.854616   -2.284423    0.000000    0.000000    0.000000    0.000000
  0.015210421  -24.845171  103.392052  -40.952608   -1.803874    0.000000    0.000000    0.000000    0.000000
  0.015410822  -24.611728  102.937683  -44.672193    1.417769    0.000000    0.000000    0.000000    0.000000
  0.015611222  -24.368393  101.076271  -50.777506   18.492968    0.000000    0.000000    0.000000    0.000000
  0.015811623  -24.090865  100.260971  -55.387714  101.262062    0.000000    0.000000    0.000000    0.000000
  0.016012024  -23.681176   99.041855  -46.450736  141.853760    0.000000    0.000000    0.000000    0.000000
  0.016212425  -23.601734   97.357323  -41.797173  150.122833    0.000000    0.000000    0.000000    0.000000
  0.016412826  -23.333896   96.654022  -38.225061  149.929611    0.000000    0.000000    0.000000    0.000000
  0.016613226  -23.022743   95.333893  -35.766113  150.686386    0.000000    0.000000    0.000000    0.000000
  0.016813627  -22.822901   93.100243  -34.009609  149.227783    0.000000    0.000000    0.000000    0.000000
  0.017014028  -22.535936   93.196793  -32.457486  148.852921    0.000000    0.000000    0.000000    0.000000
  0.017214429  -22.271490   91.665863  -31.205941  147.389954    0.000000    0.000000    0.000000    0.000000
  0.017414830  -22.168845   91.236359  -30.217336  146.350327    0.000000    0.000000    0.000000    0.000000
  0.017615230  -21.939559   90.404701  -29.423813  144.714874    0.000000    0.000000    0.000000    0.000000
  0.017815631  -21.818611   90.400169  -28.897356  143.348755    0.000000    0.000000    0.000000    0.000000
  0.018016032  -21.665950   89.001701  -28.422188  141.931091    0.000000    0.000000    0.000000    0.000000
  0.018216433  -21.444723   87.580551  -28.397100  140.048492    0.000000    0.000000    0.000000    0.000000
  0.018416834  -21.185502   86.505035  -28.528606  138.969345    0.000000    0.000000    0.000000    0.000000
  0.018617234  -21.078166   85.549454  -28.942220  138.033905    0.000000    0.000000    0.000000    0.000000
  0.018817635  -20.856653   84.687706  -29.937191  137.992340    0.000000    0.000000    0.000000    0.000000
  0.019018036  -20.590698   83.682518  -31.539689  139.838684    0.000000    0.000000    0.000000    0.000000
  0.019218437  -20.465737   82.196838  -34.685099  146.005035    0.000000    0.000000    0.000000    0.000000
  0.019418838  -20.230592   82.162521  -40.222207  173.651733    0.000000    0.000000    0.000000    0.000000
  0.019619238  -20.162450   81.024818  -38.827047 -104.130775    0.000000    0.000000    0.000000    0.000000
  0.019819639  -19.953160   79.842461  -31.061122  -83.084602    0.000000    0.000000    0.000000    0.000000
  0.020020040  -19.873564   79.528748  -25.832736  -77.428192    0.000000    0.000000    0.000000    0.000000
  0.020220441  -19.682652   78.164200  -22.071790  -75.927628    0.000000    0.000000    0.000000    0.000000
  0.020420842  -19.597006   77.155945  -19.044950  -76.085091    0.000000    0.000000    0.000000    0.000000
  0.020621242  -19.480684   76.417137  -16.414078  -77.575417    0.000000    0.000000    0.000000    0.000000
  0.020821643  -19.346627   75.676559  -14.021871  -79.278351    0.000000    0.000000    0.000000    0.000000
  0.021022044  -19.229480   74.357460  -11.831528  -80.954185    0.000000    0.000000    0.000000    0.000000
  0.021222445  -19.036803   73.640556   -9.847924  -82.755295    0.000000    0.000000    0.000000    0.000000
  0.021422846  -18.893128   72.181458   -7.996098  -85.079079    0.000000    0.000000    0.000000    0.000000
  0.021623246  -18.842331   71.269417   -6.209789  -86.790901    0.000000    0.000000    0.000000    0.000000
  0.021823647  -18.671525   69.521233   -4.497598  -89.767288    0.000000    0.000000    0.000000    0.000000
  0.022024048  -18.575766   68.963951   -2.859072  -91.985252    0.000000    0.000000    0.000000    0.000000
  0.022224449  -18.569749   67.113182   -1.361959  -95.128944    0.000000    0.000000    0.000000    0.000000
  0.022424850  -18.384286   65.902878    0.117928  -97.389847    0.000000    0.000000    0.000000    0.000000
  0.022625251  -18.408144   64.487900    1.599494 -100.193108    0.000000    0.000000    0.000000    0.000000
  0.022825651  -18.296457   63.294857    3.006709 -103.026611    0.000000    0.000000    0.000000    0.000000
  0.023026052  -18.417807   62.475445    4.321316 -106.027908    0.000000    0.000000    0.000000    0.000000
  0.023226453  -18.250310   60.125717    5.634563 -109.173302    0.000000    0.000000    0.000000    0.000000
  0.023426854  -18.055171   58.412121    6.885497 -112.081703    0.000000    0.000000    0.000000    0.000000
  0.023627255  -17.810168   58.107765    8.028952 -113.057159    0.000000    0.000000    0.000000    0.000000
  0.023827655  -17.679838   56.142639    9.256733 -116.554893    0.000000    0.000000    0.000000    0.000000
  0.024028056  -17.686185   54.670658   10.546272 -120.080917    0.000000    0.000000    0.000000    0.000000
  0.024228457  -17.752707   53.558628   11.716057 -123.610588    0.000000    0.000000    0.000000    0.000000
  0.024428858  -17.671650   51.186886   12.888000 -127.612289    0.000000    0.000000    0.000000    0.000000
  0.024629259  -17.665964   49.001400   14.061216 -131.649994    0.000000    0.000000    0.000000    0.000000
  0.024829659  -17.584984   46.997833   15.181995 -135.574234    0.000000    0.000000    0.000000    0.000000
  0.025030060  -17.602509   44.576096   16.324496 -140.706070    0.000000    0.000000    0.000000    0.000000
  0.025230461  -17.658799   42.496155   17.483385 -145.300140    0.000000    0.000000    0.000000    0.000000
  0.025430862  -17.835538   39.333187   18.572917 -149.858307    0.000000    0.000000    0.000000    0.000000
  0.025631263  -17.668009   37.245728   19.718350 -155.277161    0.000000    0.000000    0.000000    0.000000
  0.025831663  -17.816566   33.485157   20.818654 -159.998840    0.000000    0.000000    0.000000    0.000000
  0.026032064  -17.918348   30.944080   21.988191 -165.659256    0.000000    0.000000    0.000000    0.000000
  0.026232465  -18.190541   28.176516   22.963994 -171.257370    0.000000    0.000000    0.000000    0.000000
  0.026432866  -18.390720   24.349581   23.958403 -177.292252    0.000000    0.000000    0.000000    0.000000
  0.026633267  -18.714378   20.641651   24.912838  176.608185    0.000000    0.000000    0.000000    0.000000
  0.026833667  -19.146963   16.102930   25.832659  170.116043    0.000000    0.000000    0.000000    0.000000
  0.027034068  -19.504844   13.632004   26.662492  164.169769    0.000000    0.000000    0.000000    0.000000
  0.027234469  -19.998580   10.158053   27.497095  157.186203    0.000000    0.000000    0.000000    0.000000
  0.027434870  -20.692183    6.074112   28.251874  150.629898    0.000000    0.000000    0.000000    0.000000
  0.027635271  -21.324874    1.964767   28.808520  143.723206    0.000000    0.000000    0.000000    0.000000
  0.027835671  -22.202729   -1.503693   29.419857  136.203339    0.000000    0.000000    0.000000    0.000000
  0.028036072  -23.156748   -5.976175   29.895418  129.243515    0.000000    0.000000    0.000000    0.000000
  0.028236473  -24.215632   -6.353484   30.335323  121.385780    0.000000    0.000000    0.000000    0.000000
  0.028436874  -25.591121   -7.535722   30.655825  114.709465    0.000000    0.000000    0.000000    0.000000
  0.028637275  -26.743939   -7.726624   30.940767  107.644737    0.000000    0.000000    0.000000    0.000000
  0.028837675  -28.569829   -6.364798   31.137768  101.059677    0.000000    0.000000    0.000000    0.000000
  0.029038076  -29.795228   -1.902833   31.372757   94.635986    0.000000    0.000000    0.000000    0.000000
  0.029238477  -31.014876    4.923144   31.494860   87.930084    0.000000    0.000000    0.000000    0.000000
  0.029438878  -32.151458   10.610353   31.585566   82.160713    0.000000    0.000000    0.000000    0.000000
  0.029639279  -33.142914   16.880566   31.699251   76.964676    0.000000    0.000000    0.000000    0.000000
  0.029839679  -33.230312   30.308496   31.735480   71.386108    0.000000    0.000000    0.000000    0.000000
  0.030040080  -32.933774   39.271591   31.814301   66.094864    0.000000    0.000000    0.000000    0.000000
  0.030240481  -32.891956   43.420509   31.818882   61.775761    0.000000    0.000000    0.000000    0.000000
  0.030440882  -32.660965   47.430889   31.879092   57.509850    0.000000    0.000000    0.000000    0.000000
  0.030641283  -32.066747   53.637405   31.910524   53.189575    0.000000    0.000000    0.000000    0.000000
  0.030841683  -31.796713   59.142937   31.926130   48.774204    0.000000    0.000000    0.000000    0.000000
  0.031042084  -31.201268   59.277416   31.896533   44.908031    0.000000    0.000000    0.000000    0.000000
  0.031242485  -30.951159   60.819420   31.928016   40.568916    0.000000    0.000000    0.000000    0.000000
  0.031442886  -30.564341   61.382195   31.948184   36.721352    0.000000    0.000000    0.000000    0.000000
  0.031643287  -30.615130   63.764851   31.981648   32.691837    0.000000    0.000000    0.000000    0.000000
  0.031843687  -30.569759   66.165741   31.984091   28.799568    0.000000    0.000000    0.000000    0.000000
  0.032044088  -30.396920   67.100868   32.071882   25.725748    0.000000    0.000000    0.000000    0.000000
  0.032244489  -30.375203   64.995941   32.033748   21.754341    0.000000    0.000000    0.000000    0.000000
  0.032444890  -30.195157   66.474129   32.110099   17.949923    0.000000    0.000000    0.000000    0.000000
  0.032645291  -30.181536   66.792297   32.107568   14.868668    0.000000    0.000000    0.000000    0.000000
  0.032845691  -30.184725   68.268082   32.147710   11.806788    0.000000    0.000000    0.000000    0.000000
  0.033046092  -30.513214   66.334084   32.179715    8.921427    0.000000    0.000000    0.000000    0.000000
  0.033246493  -30.794357   63.888126   32.171368    5.976008    0.000000    0.000000    0.000000    0.000000
  0.033446894  -30.340122   68.695541   32.106962    3.068719    0.000000    0.000000    0.000000    0.000000
  0.033647295  -30.613120   69.816971   32.161225    0.329386    0.000000    0.000000    0.000000    0.000000
  0.033847695  -30.739775   71.402336   32.189616   -2.066241    0.000000    0.000000    0.000000    0.000000
  0.034048096  -31.081121   71.922852   32.234442   -4.852362    0.000000    0.000000    0.000000    0.000000
  0.034248497  -30.956263   68.620071   32.211312   -7.115099    0.000000    0.000000    0.000000    0.000000
  0.034448898  -30.891779   72.931862   32.314871  -10.071082    0.000000    0.000000    0.000000    0.000000
  0.034649299  -30.979571   72.849442   32.299724  -12.849399    0.000000    0.000000    0.000000    0.000000
  0.034849699  -31.143125   75.969063   32.276237  -15.441356    0.000000    0.000000    0.000000    0.000000
  0.035050100  -31.303385   75.730507   32.316989  -18.065165    0.000000    0.000000    0.000000    0.000000
  0.035250501  -31.268446   78.059021   32.330261  -20.863831    0.000000    0.000000    0.000000    0.000000
  0.035450902  -31.525534   71.888390   32.310979  -23.108355    0.000000    0.000000    0.000000    0.000000
  0.035651303  -31.622558   77.454704   32.288495  -25.433891    0.000000    0.000000    0.000000    0.000000
  0.035851703  -31.374773   80.955391   32.284295  -28.360189    0.000000    0.000000    0.000000    0.000000
  0.036052104  -31.712209   79.592606   32.172458  -30.382898    0.000000    0.000000    0.000000    0.000000
  0.036252505  -31.371133   84.523911   32.164838  -32.693439    0.000000    0.000000    0.000000    0.000000
  0.036452906  -31.891315   84.531891   32.143320  -35.084049    0.000000    0.000000    0.000000    0.000000
  0.036653307  -31.809668   83.505562   32.123593  -37.522823    0.000000    0.000000    0.000000    0.000000
  0.036853707  -31.477166   85.908478   32.140555  -39.655735    0.000000    0.000000    0.000000    0.000000
  0.037054108  -31.605113   87.500809   32.099170  -41.603268    0.000000    0.000000    0.000000    0.000000
  0.037254509  -31.618844   90.685638   32.125776  -44.208572    0.000000    0.000000    0.000000    0.000000
  0.037454910  -31.516940   89.196663   32.115459  -46.036728    0.000000    0.000000    0.000000    0.000000
  0.037655311  -31.579394   92.666893   32.160272  -48.395313    0.000000    0.000000    0.000000    0.000000
  0.037855711  -31.334965   95.253975   32.170893  -50.428608    0.000000    0.000000    0.000000    0.000000
  0.038056112  -31.034492   90.084686   32.189028  -51.984043    0.000000    0.000000    0.000000    0.000000
  0.038256513  -31.245756   95.069702   32.269515  -54.208260    0.000000    0.000000    0.000000    0.000000
  0.038456914  -31.501482   96.214157   32.284808  -55.915337    0.000000    0.000000    0.000000    0.000000
  0.038657315  -31.210537   96.925232   32.315761  -57.552799    0.000000    0.000000    0.000000    0.000000
  0.038857715  -31.257726   98.371864   32.309871  -59.065804    0.000000    0.000000    0.000000    0.000000
  0.039058116  -31.030816   98.030800   32.343127  -60.961605    0.000000    0.000000    0.000000    0.000000
  0.039258517  -30.946670   98.852600   32.313347  -62.557743    0.000000    0.000000    0.000000    0.000000
  0.039458918  -30.718905   98.544945   32.305432  -64.463600    0.000000    0.000000    0.000000    0.000000
  0.039659319  -30.887918   98.815605   32.312390  -66.617744    0.000000    0.000000    0.000000    0.000000
  0.039859719  -30.636316  100.556969   32.258385  -68.476326    0.000000    0.000000    0.000000    0.000000
  0.040060120  -30.504629  100.226517   32.252405  -70.385803    0.000000    0.000000    0.000000    0.000000
  0.040260521  -30.206172   99.740791   32.218391  -72.880196    0.000000    0.000000    0.000000    0.000000
  0.040460922  -30.592704  101.235558   32.170345  -74.312538    0.000000    0.000000    0.000000    0.000000
  0.040661323  -30.280634  101.662628   32.196333  -76.513786    0.000000    0.000000    0.000000    0.000000
  0.040861723  -30.201596  101.329498   32.211736  -78.095062    0.000000    0.000000    0.000000    0.000000
  0.041062124  -29.889935  101.786423   32.176215  -79.658035    0.000000    0.000000    0.000000    0.000000
  0.041262525  -30.192338  102.504753   32.241006  -81.145432    0.000000    0.000000    0.000000    0.000000
  0.041462926  -30.219559  102.518616   32.284197  -82.033882    0.000000    0.000000    0.000000    0.000000
  0.041663327  -29.980952  101.285561   32.353337  -83.422951    0.000000    0.000000    0.000000    0.000000
  0.041863727  -29.378405  101.118401   32.356570  -84.912354    0.000000    0.000000    0.000000    0.000000
  0.042064128  -29.409048  102.452042   32.382686  -86.687225    0.000000    0.000000    0.000000    0.000000
  0.042264529  -29.743439  100.681549   32.411295  -88.021683    0.000000    0.000000    0.000000    0.000000
  0.042464930  -29.417834  102.294525   32.396596  -89.819641    0.000000    0.000000    0.000000    0.000000
  0.042665331  -29.438349  101.749474   32.378512  -91.996086    0.000000    0.000000    0.000000    0.000000
  0.042865731  -29.630033  103.950462   32.374665  -93.798691    0.000000    0.000000    0.000000    0.000000
