! Anritsu VNA Master:                 Model: MS2034B/10/19/501
! SN:                                  1337062
! /bd0/ovro-jan-2016/dcp-z1-s22.s2p
! Existing Calibration Information:
! TYPE:                         Current Settings,       Active Cal Settings
! TIME:             	   01/08/2016 09:35:51 PM,    01/08/2016 08:43:08 PM
! INTERNAL TEMP:    	                   42.8 C,                    45.0 C
! # POINTS:         	                      500,                       500
! START FREQ:       	               10.000 MHz,                10.000 MHz
! STOP FREQ:        	              110.000 MHz,               110.000 MHz
! SOURCE POWER:     	                      Low,                       Low
! IFBW:             	                   100 Hz,                    100 Hz
! AVG FACTOR:       	                       3 ,                        3 
! REF PLANE 1:      	                 2.2245 m,                  2.2245 m
! REF PLANE 2:      	                     0 mm,                      0 mm
! CAL TYPE:         	             1P2P S11,S21,              1P2P S11,S21
! CAL METHOD:       	                     SOLT,                      SOLT
! CAL LINE TYPE:    	                     Coax,                      Coax
! DUT PORT 1:       	                K-Conn(M),                 K-Conn(M)
! DUT PORT 2:       	                N-Conn(M),                 N-Conn(M)
! CAL STATUS:       	        OK: Accuracy High,                        --
# GHZ S DB R 50.0
! FREQ.GHZ       S11DB        S11A       S21DB        S21A       S12DB        S12A       S22DB        S22A
  0.010000000  -23.044450  163.767166  -65.978281   85.732506    0.000000    0.000000    0.000000    0.000000
  0.010200401  -23.351915  165.953018  -66.897920   84.659172    0.000000    0.000000    0.000000    0.000000
  0.010400802  -23.265746  169.994781  -66.612129   88.150002    0.000000    0.000000    0.000000    0.000000
  0.010601202  -23.551824  170.908569  -66.095718   88.942062    0.000000    0.000000    0.000000    0.000000
  0.010801603  -23.815780  172.848846  -66.718024   89.694710    0.000000    0.000000    0.000000    0.000000
  0.011002004  -23.789764  175.475327  -66.536202   93.029106    0.000000    0.000000    0.000000    0.000000
  0.011202405  -23.923867  177.795425  -66.879285   92.277855    0.000000    0.000000    0.000000    0.000000
  0.011402806  -24.028009  178.744476  -64.871484   91.621590    0.000000    0.000000    0.000000    0.000000
  0.011603206  -24.272687 -178.565628  -66.350496   98.087723    0.000000    0.000000    0.000000    0.000000
  0.011803607  -24.433190 -173.521988  -66.177678  100.290230    0.000000    0.000000    0.000000    0.000000
  0.012004008  -24.633148 -171.322464  -65.601259   93.572021    0.000000    0.000000    0.000000    0.000000
  0.012204409  -24.602282 -171.438507  -65.075281   97.340935    0.000000    0.000000    0.000000    0.000000
  0.012404810  -24.699357 -168.592407  -65.155311  105.185181    0.000000    0.000000    0.000000    0.000000
  0.012605210  -24.705780 -167.565720  -68.604881  114.673836    0.000000    0.000000    0.000000    0.000000
  0.012805611  -24.705731 -164.624939  -66.398345  113.281487    0.000000    0.000000    0.000000    0.000000
  0.013006012  -24.730857 -162.059280  -66.024082   98.920677    0.000000    0.000000    0.000000    0.000000
  0.013206413  -24.698831 -160.683777  -66.893459  104.710953    0.000000    0.000000    0.000000    0.000000
  0.013406814  -24.932028 -158.189667  -66.143469   97.126945    0.000000    0.000000    0.000000    0.000000
  0.013607214  -24.682811 -155.243622  -67.650875  112.055031    0.000000    0.000000    0.000000    0.000000
  0.013807615  -24.883061 -154.034943  -68.276980  114.731293    0.000000    0.000000    0.000000    0.000000
  0.014008016  -24.645302 -152.131439  -65.934474  115.171158    0.000000    0.000000    0.000000    0.000000
  0.014208417  -24.797147 -149.836716  -66.265848  114.597832    0.000000    0.000000    0.000000    0.000000
  0.014408818  -24.902935 -147.874603  -67.070374  121.160561    0.000000    0.000000    0.000000    0.000000
  0.014609218  -24.564897 -147.115356  -67.194575  114.699051    0.000000    0.000000    0.000000    0.000000
  0.014809619  -24.408617 -146.592422  -65.869031  121.977722    0.000000    0.000000    0.000000    0.000000
  0.015010020  -24.541080 -143.826889  -66.735554  119.688713    0.000000    0.000000    0.000000    0.000000
  0.015210421  -24.451311 -143.186188  -65.212794  117.418549    0.000000    0.000000    0.000000    0.000000
  0.015410822  -24.421953 -141.064468  -67.899694  133.455322    0.000000    0.000000    0.000000    0.000000
  0.015611222  -24.443177 -139.658005  -66.441649  125.801773    0.000000    0.000000    0.000000    0.000000
  0.015811623  -24.292374 -139.146606  -67.426857  125.002037    0.000000    0.000000    0.000000    0.000000
  0.016012024  -24.274566 -137.533768  -68.283788  125.833344    0.000000    0.000000    0.000000    0.000000
  0.016212425  -24.315700 -136.346466  -69.480273  130.848495    0.000000    0.000000    0.000000    0.000000
  0.016412826  -24.089392 -134.873108  -66.869212  128.559799    0.000000    0.000000    0.000000    0.000000
  0.016613226  -24.176960 -134.698212  -66.900038  135.810928    0.000000    0.000000    0.000000    0.000000
  0.016813627  -24.215959 -133.090591  -66.525530  134.412582    0.000000    0.000000    0.000000    0.000000
  0.017014028  -24.143272 -132.968307  -66.011347  137.587051    0.000000    0.000000    0.000000    0.000000
  0.017214429  -24.110326 -130.768921  -67.685160  127.683395    0.000000    0.000000    0.000000    0.000000
  0.017414830  -24.040026 -131.005310  -67.032091  147.586639    0.000000    0.000000    0.000000    0.000000
  0.017615230  -24.053394 -130.075180  -66.487658  145.684067    0.000000    0.000000    0.000000    0.000000
  0.017815631  -24.149308 -128.916122  -68.846254  156.569717    0.000000    0.000000    0.000000    0.000000
  0.018016032  -23.887981 -128.690109  -67.318546  145.851196    0.000000    0.000000    0.000000    0.000000
  0.018216433  -24.126200 -128.749115  -66.884867  138.841339    0.000000    0.000000    0.000000    0.000000
  0.018416834  -23.948624 -127.454704  -66.867725  149.294373    0.000000    0.000000    0.000000    0.000000
  0.018617234  -23.966901 -127.230247  -67.144117  144.164032    0.000000    0.000000    0.000000    0.000000
  0.018817635  -23.976138 -125.770340  -68.002389  152.302292    0.000000    0.000000    0.000000    0.000000
  0.019018036  -23.939725 -124.786888  -67.956663  155.714966    0.000000    0.000000    0.000000    0.000000
  0.019218437  -24.021166 -125.690643  -66.055940  144.150803    0.000000    0.000000    0.000000    0.000000
  0.019418838  -23.924678 -124.344292  -66.547255  151.691620    0.000000    0.000000    0.000000    0.000000
  0.019619238  -23.899160 -123.068436  -65.765239  154.931061    0.000000    0.000000    0.000000    0.000000
  0.019819639  -24.012872 -123.503166  -67.302415  159.353897    0.000000    0.000000    0.000000    0.000000
  0.020020040  -23.753826 -123.728424  -67.674864  165.413071    0.000000    0.000000    0.000000    0.000000
  0.020220441  -24.103369 -123.076897  -66.900911  163.980118    0.000000    0.000000    0.000000    0.000000
  0.020420842  -24.014573 -122.870392  -68.714054  173.578644    0.000000    0.000000    0.000000    0.000000
  0.020621242  -24.106094 -122.174973  -66.973079  169.041702    0.000000    0.000000    0.000000    0.000000
  0.020821643  -24.033829 -121.789894  -67.084325  167.468216    0.000000    0.000000    0.000000    0.000000
  0.021022044  -24.148254 -122.239182  -66.626102  170.994232    0.000000    0.000000    0.000000    0.000000
  0.021222445  -24.234565 -121.864792  -67.627124  168.984528    0.000000    0.000000    0.000000    0.000000
  0.021422846  -24.280450 -121.451637  -67.753681  163.930649    0.000000    0.000000    0.000000    0.000000
  0.021623246  -24.205533 -121.662430  -68.262069 -175.770447    0.000000    0.000000    0.000000    0.000000
  0.021823647  -24.296522 -121.825920  -67.158026  173.850037    0.000000    0.000000    0.000000    0.000000
  0.022024048  -24.548309 -121.190887  -66.846344  171.174667    0.000000    0.000000    0.000000    0.000000
  0.022224449  -24.632108 -121.574173  -66.634803  178.296997    0.000000    0.000000    0.000000    0.000000
  0.022424850  -24.783524 -120.336540  -67.328074  176.194138    0.000000    0.000000    0.000000    0.000000
  0.022625251  -24.802042 -120.271271  -66.682902  166.399551    0.000000    0.000000    0.000000    0.000000
  0.022825651  -24.863908 -120.726357  -67.804055  172.370102    0.000000    0.000000    0.000000    0.000000
  0.023026052  -25.022058 -119.900909  -66.563157  178.803802    0.000000    0.000000    0.000000    0.000000
  0.023226453  -25.061514 -121.478218  -65.359321 -174.987045    0.000000    0.000000    0.000000    0.000000
  0.023426854  -25.251386 -120.641563  -67.886978 -161.681717    0.000000    0.000000    0.000000    0.000000
  0.023627255  -25.494062 -120.716980  -66.581423 -172.744171    0.000000    0.000000    0.000000    0.000000
  0.023827655  -25.867459 -120.864853  -66.543612 -163.120880    0.000000    0.000000    0.000000    0.000000
  0.024028056  -25.810053 -121.660912  -68.586072 -172.412231    0.000000    0.000000    0.000000    0.000000
  0.024228457  -25.902294 -121.441422  -67.015838 -162.291519    0.000000    0.000000    0.000000    0.000000
  0.024428858  -26.261393 -121.351959  -67.468016 -162.589462    0.000000    0.000000    0.000000    0.000000
  0.024629259  -26.474367 -122.110542  -67.187201 -162.966980    0.000000    0.000000    0.000000    0.000000
  0.024829659  -27.013720 -122.129059  -68.120043 -136.518631    0.000000    0.000000    0.000000    0.000000
  0.025030060  -27.165672 -122.809547  -66.651239 -122.081261    0.000000    0.000000    0.000000    0.000000
  0.025230461  -27.213214 -125.208313  -67.922333 -131.321381    0.000000    0.000000    0.000000    0.000000
  0.025430862  -27.867907 -121.999092  -65.297935 -129.755753    0.000000    0.000000    0.000000    0.000000
  0.025631263  -28.151992 -123.394592  -66.405850 -128.818069    0.000000    0.000000    0.000000    0.000000
  0.025831663  -28.823079 -124.857101  -66.722395 -130.392548    0.000000    0.000000    0.000000    0.000000
  0.026032064  -29.350144 -121.724915  -66.316635 -124.958832    0.000000    0.000000    0.000000    0.000000
  0.026232465  -29.852458 -121.642776  -65.618025 -127.268936    0.000000    0.000000    0.000000    0.000000
  0.026432866  -30.736545 -122.237053  -65.777777 -134.637146    0.000000    0.000000    0.000000    0.000000
  0.026633267  -30.811593 -117.941559  -64.745620 -124.590126    0.000000    0.000000    0.000000    0.000000
  0.026833667  -31.527602 -116.790443  -66.518921 -118.323669    0.000000    0.000000    0.000000    0.000000
  0.027034068  -32.598315 -109.866104  -66.146287 -117.898193    0.000000    0.000000    0.000000    0.000000
  0.027234469  -33.000850 -108.194626  -65.299868 -121.162323    0.000000    0.000000    0.000000    0.000000
  0.027434870  -33.735783 -104.325691  -67.783573 -110.293823    0.000000    0.000000    0.000000    0.000000
  0.027635271  -33.990253  -98.868835  -65.732328 -113.990654    0.000000    0.000000    0.000000    0.000000
  0.027835671  -34.068375  -95.037827  -65.754769 -111.570412    0.000000    0.000000    0.000000    0.000000
  0.028036072  -34.105620  -87.913589  -66.517257 -108.342560    0.000000    0.000000    0.000000    0.000000
  0.028236473  -34.235219  -76.973465  -65.239592 -109.690865    0.000000    0.000000    0.000000    0.000000
  0.028436874  -33.554776  -78.970612  -67.390026 -107.256340    0.000000    0.000000    0.000000    0.000000
  0.028637275  -33.478895  -73.798286  -66.980006 -103.458084    0.000000    0.000000    0.000000    0.000000
  0.028837675  -33.167132  -65.947021  -65.529861 -106.325813    0.000000    0.000000    0.000000    0.000000
  0.029038076  -32.677507  -65.328270  -67.492753 -113.266991    0.000000    0.000000    0.000000    0.000000
  0.029238477  -33.071534  -64.102264  -65.275306 -105.766937    0.000000    0.000000    0.000000    0.000000
  0.029438878  -32.556842  -63.612995  -65.199010 -101.123192    0.000000    0.000000    0.000000    0.000000
  0.029639279  -31.993039  -62.766903  -66.803057  -99.907578    0.000000    0.000000    0.000000    0.000000
  0.029839679  -31.791649  -59.325890  -64.596655 -102.473488    0.000000    0.000000    0.000000    0.000000
  0.030040080  -32.328449  -57.647991  -65.728758 -105.008545    0.000000    0.000000    0.000000    0.000000
  0.030240481  -31.682266  -57.823780  -66.001192 -105.777824    0.000000    0.000000    0.000000    0.000000
  0.030440882  -31.885610  -58.781708  -66.915007  -96.442924    0.000000    0.000000    0.000000    0.000000
  0.030641283  -31.834007  -54.266674  -64.198953 -102.443985    0.000000    0.000000    0.000000    0.000000
  0.030841683  -31.586638  -53.068378  -65.348500 -100.106445    0.000000    0.000000    0.000000    0.000000
  0.031042084  -31.856429  -52.797058  -64.907542  -99.937439    0.000000    0.000000    0.000000    0.000000
  0.031242485  -31.868576  -49.587128  -67.305757  -93.698532    0.000000    0.000000    0.000000    0.000000
  0.031442886  -32.227200  -49.084293  -64.957889  -99.601807    0.000000    0.000000    0.000000    0.000000
  0.031643287  -31.680137  -49.537132  -66.542733  -94.166168    0.000000    0.000000    0.000000    0.000000
  0.031843687  -31.964550  -49.378944  -65.341438  -94.205627    0.000000    0.000000    0.000000    0.000000
  0.032044088  -31.530324  -46.198040  -65.827577  -95.237709    0.000000    0.000000    0.000000    0.000000
  0.032244489  -32.071627  -45.580097  -64.977480  -86.561111    0.000000    0.000000    0.000000    0.000000
  0.032444890  -32.082452  -42.597740  -67.009680  -98.880814    0.000000    0.000000    0.000000    0.000000
  0.032645291  -31.597232  -42.158024  -67.067803  -90.763123    0.000000    0.000000    0.000000    0.000000
  0.032845691  -31.826073  -42.399117  -65.813269  -85.967804    0.000000    0.000000    0.000000    0.000000
  0.033046092  -32.113341  -36.973289  -66.100875  -81.786659    0.000000    0.000000    0.000000    0.000000
  0.033246493  -32.272679  -37.184689  -67.790420  -63.588001    0.000000    0.000000    0.000000    0.000000
  0.033446894  -32.240547  -36.718033  -67.949874  -63.577141    0.000000    0.000000    0.000000    0.000000
  0.033647295  -31.942375  -35.201099  -66.866816  -79.804359    0.000000    0.000000    0.000000    0.000000
  0.033847695  -32.307947  -34.418308  -66.538398  -82.195641    0.000000    0.000000    0.000000    0.000000
  0.034048096  -32.204009  -33.554638  -66.648737  -64.731995    0.000000    0.000000    0.000000    0.000000
  0.034248497  -32.445268  -31.145260  -67.151645  -73.251572    0.000000    0.000000    0.000000    0.000000
  0.034448898  -32.300621  -28.421421  -66.446483  -69.789360    0.000000    0.000000    0.000000    0.000000
  0.034649299  -32.575122  -30.931782  -68.646682  -74.196205    0.000000    0.000000    0.000000    0.000000
  0.034849699  -31.904286  -29.985167  -67.571031  -82.243286    0.000000    0.000000    0.000000    0.000000
  0.035050100  -31.990743  -25.315147  -66.778015  -74.806900    0.000000    0.000000    0.000000    0.000000
  0.035250501  -32.642735  -25.167177  -68.082372  -66.023132    0.000000    0.000000    0.000000    0.000000
  0.035450902  -32.104320  -26.111713  -68.888630  -63.398586    0.000000    0.000000    0.000000    0.000000
  0.035651303  -32.292362  -25.269390  -68.921388  -62.506695    0.000000    0.000000    0.000000    0.000000
  0.035851703  -32.073167  -22.700750  -66.417396  -57.861687    0.000000    0.000000    0.000000    0.000000
  0.036052104  -32.338735  -21.227497  -67.630173  -56.055553    0.000000    0.000000    0.000000    0.000000
  0.036252505  -32.301159  -19.150206  -67.940896  -51.895939    0.000000    0.000000    0.000000    0.000000
  0.036452906  -32.647356  -19.988308  -67.595912  -59.341518    0.000000    0.000000    0.000000    0.000000
  0.036653307  -32.783102  -16.366476  -67.874524  -56.891289    0.000000    0.000000    0.000000    0.000000
  0.036853707  -32.441354  -16.189047  -67.464719  -51.505138    0.000000    0.000000    0.000000    0.000000
  0.037054108  -32.563413  -17.558022  -67.965568  -50.554249    0.000000    0.000000    0.000000    0.000000
  0.037254509  -32.827242  -14.320840  -67.974666  -55.034828    0.000000    0.000000    0.000000    0.000000
  0.037454910  -32.614403  -14.398884  -67.081467  -45.903225    0.000000    0.000000    0.000000    0.000000
  0.037655311  -33.041381  -13.716264  -69.664786  -49.794270    0.000000    0.000000    0.000000    0.000000
  0.037855711  -32.809420   -9.809153  -68.973791  -28.129139    0.000000    0.000000    0.000000    0.000000
  0.038056112  -32.777477   -9.229628  -68.123339  -39.236038    0.000000    0.000000    0.000000    0.000000
  0.038256513  -33.219337   -7.417378  -67.148442  -29.178282    0.000000    0.000000    0.000000    0.000000
  0.038456914  -33.128722   -7.663011  -67.635924  -32.027122    0.000000    0.000000    0.000000    0.000000
  0.038657315  -33.356761   -6.504696  -68.686783  -31.505531    0.000000    0.000000    0.000000    0.000000
  0.038857715  -33.513570   -3.425359  -67.205685  -32.841812    0.000000    0.000000    0.000000    0.000000
  0.039058116  -33.274259   -3.615556  -69.333834  -18.447630    0.000000    0.000000    0.000000    0.000000
  0.039258517  -33.504369   -3.371489  -68.034821  -26.595490    0.000000    0.000000    0.000000    0.000000
  0.039458918  -33.810610   -3.069415  -68.233983  -10.970579    0.000000    0.000000    0.000000    0.000000
  0.039659319  -33.542962   -1.819989  -67.593548  -23.276625    0.000000    0.000000    0.000000    0.000000
  0.039859719  -33.539087    0.303849  -67.991579  -17.986814    0.000000    0.000000    0.000000    0.000000
  0.040060120  -33.728989    1.863427  -68.530427  -13.132711    0.000000    0.000000    0.000000    0.000000
  0.040260521  -33.778543    4.915528  -68.330196  -21.845354    0.000000    0.000000    0.000000    0.000000
  0.040460922  -34.188723    1.627715  -68.640957  -15.536165    0.000000    0.000000    0.000000    0.000000
  0.040661323  -34.112155    7.184507  -68.957153  -15.348835    0.000000    0.000000    0.000000    0.000000
  0.040861723  -34.039697    8.361863  -67.483731  -12.758939    0.000000    0.000000    0.000000    0.000000
  0.041062124  -34.182859   12.541359  -69.779364  -12.608620    0.000000    0.000000    0.000000    0.000000
  0.041262525  -34.726120    7.548606  -67.233964  -11.705248    0.000000    0.000000    0.000000    0.000000
  0.041462926  -34.093415   13.111436  -67.829862   -9.203231    0.000000    0.000000    0.000000    0.000000
  0.041663327  -34.430013   15.311032  -68.110472   -9.433615    0.000000    0.000000    0.000000    0.000000
  0.041863727  -34.770435   14.519538  -68.061686   -9.264141    0.000000    0.000000    0.000000    0.000000
  0.042064128  -35.097174   15.675812  -68.529233   10.303736    0.000000    0.000000    0.000000    0.000000
  0.042264529  -34.618424   16.616074  -67.942711    6.510901    0.000000    0.000000    0.000000    0.000000
  0.042464930  -34.521363   20.059902  -68.665622  -12.073780    0.000000    0.000000    0.000000    0.000000
  0.042665331  -35.102087   21.950060  -67.344714   -8.417317    0.000000    0.000000    0.000000    0.000000
  0.042865731  -34.789853   21.187258  -66.953703    1.801091    0.000000    0.000000    0.000000    0.000000
