! Anritsu VNA Master:                 Model: MS2034B/10/19/501
! SN:                                  1337062
! /bd0/ovro-jan-2016/dcp-b1-s21.s2p
! Existing Calibration Information:
! TYPE:                         Current Settings,       Active Cal Settings
! TIME:             	   01/09/2016 05:43:32 PM,    01/09/2016 12:40:35 PM
! INTERNAL TEMP:    	                   41.8 C,                    41.8 C
! # POINTS:         	                      500,                       500
! START FREQ:       	               10.000 MHz,                10.000 MHz
! STOP FREQ:        	              110.000 MHz,               110.000 MHz
! SOURCE POWER:     	                      Low,                       Low
! IFBW:             	                   100 Hz,                    100 Hz
! AVG FACTOR:       	                       3 ,                        3 
! REF PLANE 1:      	                 2.2245 m,                  2.2245 m
! REF PLANE 2:      	                     0 mm,                      0 mm
! CAL TYPE:         	             1P2P S11,S21,              1P2P S11,S21
! CAL METHOD:       	                     SOLT,                      SOLT
! CAL LINE TYPE:    	                     Coax,                      Coax
! DUT PORT 1:       	                K-Conn(M),                 K-Conn(M)
! DUT PORT 2:       	                N-Conn(M),                 N-Conn(M)
! CAL STATUS:       	        OK: Accuracy High,                        --
# GHZ S DB R 50.0
! FREQ.GHZ       S11DB        S11A       S21DB        S21A       S12DB        S12A       S22DB        S22A
  0.010000000  -26.027278 -163.011810  -51.871177 -123.397423    0.000000    0.000000    0.000000    0.000000
  0.010200401  -26.087110 -164.856171  -60.357808 -103.381271    0.000000    0.000000    0.000000    0.000000
  0.010400802  -26.342611 -166.708023  -59.532814   37.156319    0.000000    0.000000    0.000000    0.000000
  0.010601202  -26.191729 -171.153946  -51.058402   44.543839    0.000000    0.000000    0.000000    0.000000
  0.010801603  -26.341081 -173.077591  -46.686014   42.760559    0.000000    0.000000    0.000000    0.000000
  0.011002004  -26.477209 -175.109039  -43.735357   42.419518    0.000000    0.000000    0.000000    0.000000
  0.011202405  -26.427984 -178.546432  -41.540093   39.974316    0.000000    0.000000    0.000000    0.000000
  0.011402806  -26.842987 -178.948517  -39.784550   38.763306    0.000000    0.000000    0.000000    0.000000
  0.011603206  -26.814094  178.311493  -38.605490   37.753693    0.000000    0.000000    0.000000    0.000000
  0.011803607  -26.835647  174.356903  -37.475429   35.350388    0.000000    0.000000    0.000000    0.000000
  0.012004008  -26.915013  170.401688  -36.686375   34.320015    0.000000    0.000000    0.000000    0.000000
  0.012204409  -26.825500  168.077026  -35.897692   32.204414    0.000000    0.000000    0.000000    0.000000
  0.012404810  -26.799677  167.450317  -35.307905   29.215458    0.000000    0.000000    0.000000    0.000000
  0.012605210  -26.859751  164.701752  -34.947798   28.842632    0.000000    0.000000    0.000000    0.000000
  0.012805611  -27.128591  160.198883  -34.622845   26.273607    0.000000    0.000000    0.000000    0.000000
  0.013006012  -27.098056  158.301636  -34.450931   24.916653    0.000000    0.000000    0.000000    0.000000
  0.013206413  -26.824758  155.593338  -34.368344   23.091841    0.000000    0.000000    0.000000    0.000000
  0.013406814  -27.001814  151.130798  -34.513549   21.301167    0.000000    0.000000    0.000000    0.000000
  0.013607214  -26.958801  150.433426  -34.489617   19.389551    0.000000    0.000000    0.000000    0.000000
  0.013807615  -26.782355  148.425079  -34.852691   18.141094    0.000000    0.000000    0.000000    0.000000
  0.014008016  -26.714905  147.820313  -35.462723   16.496819    0.000000    0.000000    0.000000    0.000000
  0.014208417  -26.789744  142.230194  -36.008236   14.746017    0.000000    0.000000    0.000000    0.000000
  0.014408818  -26.901025  139.297455  -36.820548   14.396888    0.000000    0.000000    0.000000    0.000000
  0.014609218  -26.658112  137.970123  -38.017321   12.534779    0.000000    0.000000    0.000000    0.000000
  0.014809619  -26.292425  135.074570  -39.763098   11.658136    0.000000    0.000000    0.000000    0.000000
  0.015010020  -26.349040  134.488617  -41.919542   13.021062    0.000000    0.000000    0.000000    0.000000
  0.015210421  -26.202461  130.561615  -45.568609   15.956064    0.000000    0.000000    0.000000    0.000000
  0.015410822  -26.086078  129.491974  -51.287073   34.907879    0.000000    0.000000    0.000000    0.000000
  0.015611222  -25.969465  126.928108  -53.435976  126.580986    0.000000    0.000000    0.000000    0.000000
  0.015811623  -26.085434  124.545387  -45.439206  156.101532    0.000000    0.000000    0.000000    0.000000
  0.016012024  -25.918196  123.405205  -40.792617  162.425888    0.000000    0.000000    0.000000    0.000000
  0.016212425  -25.837899  120.438354  -37.530064  164.062073    0.000000    0.000000    0.000000    0.000000
  0.016412826  -25.341454  118.970314  -35.131721  162.217209    0.000000    0.000000    0.000000    0.000000
  0.016613226  -25.303522  115.762199  -33.283869  161.249985    0.000000    0.000000    0.000000    0.000000
  0.016813627  -25.310311  114.196571  -31.670858  160.069977    0.000000    0.000000    0.000000    0.000000
  0.017014028  -25.114309  112.930748  -30.299310  158.136139    0.000000    0.000000    0.000000    0.000000
  0.017214429  -24.943577  111.259537  -28.966144  156.905090    0.000000    0.000000    0.000000    0.000000
  0.017414830  -24.756409  108.430496  -28.082531  155.216599    0.000000    0.000000    0.000000    0.000000
  0.017615230  -24.653853  107.633995  -27.287651  153.751709    0.000000    0.000000    0.000000    0.000000
  0.017815631  -24.461058  105.261139  -26.585444  151.611160    0.000000    0.000000    0.000000    0.000000
  0.018016032  -24.489122  102.908150  -26.200305  150.103806    0.000000    0.000000    0.000000    0.000000
  0.018216433  -24.051536  100.777008  -25.693020  148.044769    0.000000    0.000000    0.000000    0.000000
  0.018416834  -23.939150  101.154488  -25.574347  146.681702    0.000000    0.000000    0.000000    0.000000
  0.018617234  -23.973346   98.963768  -25.441870  145.156708    0.000000    0.000000    0.000000    0.000000
  0.018817635  -23.750465   96.760376  -25.785221  143.776855    0.000000    0.000000    0.000000    0.000000
  0.019018036  -23.558657   94.680412  -26.283116  142.351410    0.000000    0.000000    0.000000    0.000000
  0.019218437  -23.333009   93.371941  -27.379142  142.694565    0.000000    0.000000    0.000000    0.000000
  0.019418838  -23.080155   91.492020  -28.881299  143.262665    0.000000    0.000000    0.000000    0.000000
  0.019619238  -22.909717   89.751045  -31.526885  149.363937    0.000000    0.000000    0.000000    0.000000
  0.019819639  -22.779882   88.976624  -36.449838  168.006241    0.000000    0.000000    0.000000    0.000000
  0.020020040  -22.679020   87.126343  -37.976208 -116.290298    0.000000    0.000000    0.000000    0.000000
  0.020220441  -22.568668   85.507195  -30.261628  -82.374336    0.000000    0.000000    0.000000    0.000000
  0.020420842  -22.366969   84.438179  -24.933618  -74.967155    0.000000    0.000000    0.000000    0.000000
  0.020621242  -22.217480   82.543182  -20.956762  -73.435158    0.000000    0.000000    0.000000    0.000000
  0.020821643  -22.062943   80.518150  -17.888749  -73.455345    0.000000    0.000000    0.000000    0.000000
  0.021022044  -21.979598   79.117592  -15.227464  -74.928902    0.000000    0.000000    0.000000    0.000000
  0.021222445  -21.801470   77.754707  -12.885169  -76.308205    0.000000    0.000000    0.000000    0.000000
  0.021422846  -21.771871   76.253403  -10.711269  -78.525467    0.000000    0.000000    0.000000    0.000000
  0.021623246  -21.685399   73.922417   -8.777108  -80.424301    0.000000    0.000000    0.000000    0.000000
  0.021823647  -21.398909   71.767937   -6.810355  -82.259834    0.000000    0.000000    0.000000    0.000000
  0.022024048  -21.252184   70.536377   -5.095722  -84.643127    0.000000    0.000000    0.000000    0.000000
  0.022224449  -21.041966   69.410133   -3.369361  -87.048454    0.000000    0.000000    0.000000    0.000000
  0.022424850  -20.837288   66.936279   -1.841413  -89.814751    0.000000    0.000000    0.000000    0.000000
  0.022625251  -20.910765   65.347984   -0.219652  -92.707840    0.000000    0.000000    0.000000    0.000000
  0.022825651  -20.633227   63.882465    1.070815  -95.080139    0.000000    0.000000    0.000000    0.000000
  0.023026052  -20.606524   61.425667    2.564187  -98.045357    0.000000    0.000000    0.000000    0.000000
  0.023226453  -20.385151   59.275894    3.969861 -100.905540    0.000000    0.000000    0.000000    0.000000
  0.023426854  -20.335449   57.172882    5.304198 -103.856102    0.000000    0.000000    0.000000    0.000000
  0.023627255  -20.380010   55.513657    6.639426 -107.793686    0.000000    0.000000    0.000000    0.000000
  0.023827655  -19.865757   54.831024    7.750673 -108.593422    0.000000    0.000000    0.000000    0.000000
  0.024028056  -19.745638   53.614429    8.997401 -111.851181    0.000000    0.000000    0.000000    0.000000
  0.024228457  -19.617652   51.643646   10.178841 -115.441071    0.000000    0.000000    0.000000    0.000000
  0.024428858  -19.584525   48.269112   11.377909 -118.938263    0.000000    0.000000    0.000000    0.000000
  0.024629259  -19.350177   46.671284   12.658868 -122.733681    0.000000    0.000000    0.000000    0.000000
  0.024829659  -19.332430   44.952766   13.682938 -126.949036    0.000000    0.000000    0.000000    0.000000
  0.025030060  -19.197480   42.017994   14.859133 -131.345581    0.000000    0.000000    0.000000    0.000000
  0.025230461  -19.074404   39.510803   16.091835 -135.293350    0.000000    0.000000    0.000000    0.000000
  0.025430862  -19.138303   36.390965   17.290732 -140.414398    0.000000    0.000000    0.000000    0.000000
  0.025631263  -18.921979   34.375893   18.457087 -144.800095    0.000000    0.000000    0.000000    0.000000
  0.025831663  -18.880910   31.547312   19.567126 -150.308868    0.000000    0.000000    0.000000    0.000000
  0.026032064  -18.991226   27.850630   20.719044 -155.091446    0.000000    0.000000    0.000000    0.000000
  0.026232465  -18.840083   24.214968   21.755546 -160.970718    0.000000    0.000000    0.000000    0.000000
  0.026432866  -18.961700   21.103811   22.842742 -166.405594    0.000000    0.000000    0.000000    0.000000
  0.026633267  -18.917211   16.773224   23.809669 -172.146866    0.000000    0.000000    0.000000    0.000000
  0.026833667  -19.223722   13.683843   24.859756 -178.094681    0.000000    0.000000    0.000000    0.000000
  0.027034068  -19.376480    9.026130   25.802945  175.585770    0.000000    0.000000    0.000000    0.000000
  0.027234469  -19.698108    5.580862   26.658167  169.263565    0.000000    0.000000    0.000000    0.000000
  0.027434870  -20.004714    1.929030   27.557321  161.734436    0.000000    0.000000    0.000000    0.000000
  0.027635271  -20.359240   -2.883256   28.232816  154.410217    0.000000    0.000000    0.000000    0.000000
  0.027835671  -20.962734   -7.396983   28.893832  146.958099    0.000000    0.000000    0.000000    0.000000
  0.028036072  -21.642802  -11.289854   29.462735  139.972870    0.000000    0.000000    0.000000    0.000000
  0.028236473  -22.243195  -14.101732   29.985562  132.107483    0.000000    0.000000    0.000000    0.000000
  0.028436874  -22.969916  -18.552067   30.350787  125.526634    0.000000    0.000000    0.000000    0.000000
  0.028637275  -23.776414  -19.387112   30.737088  117.629028    0.000000    0.000000    0.000000    0.000000
  0.028837675  -24.861439  -21.754578   31.063289  110.147507    0.000000    0.000000    0.000000    0.000000
  0.029038076  -26.041640  -20.403021   31.240876  103.238838    0.000000    0.000000    0.000000    0.000000
  0.029238477  -27.086900  -20.316475   31.433456   97.290245    0.000000    0.000000    0.000000    0.000000
  0.029438878  -27.700147  -19.836107   31.573438   91.128395    0.000000    0.000000    0.000000    0.000000
  0.029639279  -28.747441  -16.726768   31.667094   84.606056    0.000000    0.000000    0.000000    0.000000
  0.029839679  -29.576617  -12.156881   31.782203   78.958633    0.000000    0.000000    0.000000    0.000000
  0.030040080  -30.181063   -9.553254   31.795428   73.839127    0.000000    0.000000    0.000000    0.000000
  0.030240481  -30.750757   -2.126934   31.860928   69.079041    0.000000    0.000000    0.000000    0.000000
  0.030440882  -31.321438    2.080028   31.925674   64.169884    0.000000    0.000000    0.000000    0.000000
  0.030641283  -30.940459    5.484096   31.870112   59.958344    0.000000    0.000000    0.000000    0.000000
  0.030841683  -31.212018    9.969424   31.915277   55.669228    0.000000    0.000000    0.000000    0.000000
  0.031042084  -31.215223   11.417194   31.964525   51.534595    0.000000    0.000000    0.000000    0.000000
  0.031242485  -31.490262   16.935743   31.966877   47.273975    0.000000    0.000000    0.000000    0.000000
  0.031442886  -30.686776   19.549166   31.992839   43.310452    0.000000    0.000000    0.000000    0.000000
  0.031643287  -31.163492   19.423874   32.052601   39.430058    0.000000    0.000000    0.000000    0.000000
  0.031843687  -30.679368   21.466869   32.013626   35.216686    0.000000    0.000000    0.000000    0.000000
  0.032044088  -30.947483   23.352161   32.039646   31.473951    0.000000    0.000000    0.000000    0.000000
  0.032244489  -31.092952   23.705513   32.064187   27.969542    0.000000    0.000000    0.000000    0.000000
  0.032444890  -30.744331   24.301270   32.034275   24.184357    0.000000    0.000000    0.000000    0.000000
  0.032645291  -30.960215   25.589144   32.093790   20.583673    0.000000    0.000000    0.000000    0.000000
  0.032845691  -31.047332   26.848795   32.128016   17.346968    0.000000    0.000000    0.000000    0.000000
  0.033046092  -31.116337   26.314241   32.105015   14.417251    0.000000    0.000000    0.000000    0.000000
  0.033246493  -30.679437   28.605831   32.107850   11.192348    0.000000    0.000000    0.000000    0.000000
  0.033446894  -31.248620   27.533678   32.163225    8.745235    0.000000    0.000000    0.000000    0.000000
  0.033647295  -31.431665   27.336815   32.131242    5.524297    0.000000    0.000000    0.000000    0.000000
  0.033847695  -31.879725   27.929901   32.128736    3.055987    0.000000    0.000000    0.000000    0.000000
  0.034048096  -31.692912   28.336233   32.114955    0.459999    0.000000    0.000000    0.000000    0.000000
  0.034248497  -32.353132   30.257483   32.151483   -2.772221    0.000000    0.000000    0.000000    0.000000
  0.034448898  -32.053778   32.993782   32.122198   -5.193590    0.000000    0.000000    0.000000    0.000000
  0.034649299  -32.489515   30.904245   32.106819   -7.936437    0.000000    0.000000    0.000000    0.000000
  0.034849699  -32.550653   29.496916   32.100493  -10.838857    0.000000    0.000000    0.000000    0.000000
  0.035050100  -33.085655   31.668390   32.074862  -13.626722    0.000000    0.000000    0.000000    0.000000
  0.035250501  -32.922097   32.434734   32.115131  -16.494633    0.000000    0.000000    0.000000    0.000000
  0.035450902  -33.745240   35.314846   32.104092  -19.171301    0.000000    0.000000    0.000000    0.000000
  0.035651303  -33.738596   34.837864   32.069419  -22.101320    0.000000    0.000000    0.000000    0.000000
  0.035851703  -33.953585   40.013733   32.068513  -24.397146    0.000000    0.000000    0.000000    0.000000
  0.036052104  -33.991876   40.079815   31.994960  -26.662552    0.000000    0.000000    0.000000    0.000000
  0.036252505  -34.708987   43.138397   31.994877  -29.350080    0.000000    0.000000    0.000000    0.000000
  0.036452906  -34.254966   44.724613   31.954567  -31.497585    0.000000    0.000000    0.000000    0.000000
  0.036653307  -34.098344   50.289066   31.973001  -33.924145    0.000000    0.000000    0.000000    0.000000
  0.036853707  -34.866000   52.215450   31.931113  -36.015602    0.000000    0.000000    0.000000    0.000000
  0.037054108  -34.747687   48.141899   31.918135  -38.041485    0.000000    0.000000    0.000000    0.000000
  0.037254509  -34.943783   53.483646   31.975628  -40.318520    0.000000    0.000000    0.000000    0.000000
  0.037454910  -34.904366   57.745785   32.001137  -42.575092    0.000000    0.000000    0.000000    0.000000
  0.037655311  -35.652446   55.772266   32.023573  -44.560535    0.000000    0.000000    0.000000    0.000000
  0.037855711  -34.903317   58.903347   32.044686  -46.343136    0.000000    0.000000    0.000000    0.000000
  0.038056112  -35.550552   64.391731   32.118084  -47.949142    0.000000    0.000000    0.000000    0.000000
  0.038256513  -35.289096   68.505455   32.172542  -49.871231    0.000000    0.000000    0.000000    0.000000
  0.038456914  -35.653250   71.715065   32.230490  -51.898609    0.000000    0.000000    0.000000    0.000000
  0.038657315  -35.273725   73.694923   32.190949  -53.717522    0.000000    0.000000    0.000000    0.000000
  0.038857715  -35.950730   70.718201   32.187531  -55.639465    0.000000    0.000000    0.000000    0.000000
  0.039058116  -35.444022   75.146858   32.180000  -57.275887    0.000000    0.000000    0.000000    0.000000
  0.039258517  -35.211642   76.391266   32.167814  -59.850208    0.000000    0.000000    0.000000    0.000000
  0.039458918  -34.539694   76.710716   32.144808  -61.528469    0.000000    0.000000    0.000000    0.000000
  0.039659319  -34.940380   77.661469   32.128691  -63.968548    0.000000    0.000000    0.000000    0.000000
  0.039859719  -34.449200   83.690147   32.023487  -65.666672    0.000000    0.000000    0.000000    0.000000
  0.040060120  -34.243299   85.035339   32.050962  -67.989838    0.000000    0.000000    0.000000    0.000000
  0.040260521  -34.599503   85.039932   32.040250  -69.714218    0.000000    0.000000    0.000000    0.000000
  0.040460922  -34.156533   86.841591   32.022025  -71.750954    0.000000    0.000000    0.000000    0.000000
  0.040661323  -34.193145   91.582184   32.010806  -73.365822    0.000000    0.000000    0.000000    0.000000
  0.040861723  -34.054246   89.979088   32.064869  -74.639603    0.000000    0.000000    0.000000    0.000000
  0.041062124  -34.415998   93.741737   32.081178  -76.173279    0.000000    0.000000    0.000000    0.000000
  0.041262525  -34.091561   94.512489   32.090721  -77.766502    0.000000    0.000000    0.000000    0.000000
  0.041462926  -34.320486   90.931595   32.157368  -78.950798    0.000000    0.000000    0.000000    0.000000
  0.041663327  -33.695992   94.383095   32.148870  -80.265366    0.000000    0.000000    0.000000    0.000000
  0.041863727  -33.872891   97.120651   32.176783  -81.959740    0.000000    0.000000    0.000000    0.000000
  0.042064128  -33.713032   94.102203   32.179922  -83.425697    0.000000    0.000000    0.000000    0.000000
  0.042264529  -33.436205   98.834518   32.199552  -85.483032    0.000000    0.000000    0.000000    0.000000
  0.042464930  -33.033355   96.815796   32.171213  -87.565819    0.000000    0.000000    0.000000    0.000000
  0.042665331  -33.007435  100.145508   32.181960  -89.968552    0.000000    0.000000    0.000000    0.000000
  0.042865731  -33.303926  100.692093   32.204187  -91.394310    0.000000    0.000000    0.000000    0.000000
