! Anritsu VNA Master:                 Model: MS2034B/10/19/501
! SN:                                  1337062
! /bd0/ovro-jan-2016/dcp-c2-s22.s2p
! Existing Calibration Information:
! TYPE:                         Current Settings,       Active Cal Settings
! TIME:             	   01/10/2016 06:04:51 PM,    01/10/2016 03:13:30 PM
! INTERNAL TEMP:    	                   43.5 C,                    45.8 C
! # POINTS:         	                      500,                       500
! START FREQ:       	               10.000 MHz,                10.000 MHz
! STOP FREQ:        	              110.000 MHz,               110.000 MHz
! SOURCE POWER:     	                      Low,                       Low
! IFBW:             	                   100 Hz,                    100 Hz
! AVG FACTOR:       	                       3 ,                        3 
! REF PLANE 1:      	                 2.2245 m,                  2.2245 m
! REF PLANE 2:      	                     0 mm,                      0 mm
! CAL TYPE:         	             1P2P S11,S21,              1P2P S11,S21
! CAL METHOD:       	                     SOLT,                      SOLT
! CAL LINE TYPE:    	                     Coax,                      Coax
! DUT PORT 1:       	                K-Conn(M),                 K-Conn(M)
! DUT PORT 2:       	                N-Conn(M),                 N-Conn(M)
! CAL STATUS:       	        OK: Accuracy High,                        --
# GHZ S DB R 50.0
! FREQ.GHZ       S11DB        S11A       S21DB        S21A       S12DB        S12A       S22DB        S22A
  0.010000000  -25.299285  162.543991  -65.444847   81.663589    0.000000    0.000000    0.000000    0.000000
  0.010200401  -25.532041  166.704147  -65.874485   83.555321    0.000000    0.000000    0.000000    0.000000
  0.010400802  -25.916763  169.170227  -67.164951   84.827484    0.000000    0.000000    0.000000    0.000000
  0.010601202  -26.117863  169.021149  -66.038388   79.108566    0.000000    0.000000    0.000000    0.000000
  0.010801603  -26.164077  175.198853  -66.870135   82.386375    0.000000    0.000000    0.000000    0.000000
  0.011002004  -26.415469  178.382156  -66.948723   85.288437    0.000000    0.000000    0.000000    0.000000
  0.011202405  -26.527352 -177.467499  -65.602955   90.432724    0.000000    0.000000    0.000000    0.000000
  0.011402806  -26.713944 -173.265396  -66.350043   93.253410    0.000000    0.000000    0.000000    0.000000
  0.011603206  -26.409047 -171.349731  -65.397842   98.261337    0.000000    0.000000    0.000000    0.000000
  0.011803607  -26.961193 -170.788834  -67.400272   98.399185    0.000000    0.000000    0.000000    0.000000
  0.012004008  -26.498933 -164.716721  -65.426833   92.895004    0.000000    0.000000    0.000000    0.000000
  0.012204409  -26.605479 -162.311996  -67.361763  105.725861    0.000000    0.000000    0.000000    0.000000
  0.012404810  -26.519656 -159.113312  -66.609747   92.285103    0.000000    0.000000    0.000000    0.000000
  0.012605210  -26.377691 -156.471771  -66.592208  101.885040    0.000000    0.000000    0.000000    0.000000
  0.012805611  -26.132526 -153.831757  -67.007211  109.216530    0.000000    0.000000    0.000000    0.000000
  0.013006012  -26.355877 -153.164581  -66.950450  108.676865    0.000000    0.000000    0.000000    0.000000
  0.013206413  -26.026589 -148.357361  -66.318230  101.336319    0.000000    0.000000    0.000000    0.000000
  0.013406814  -25.967579 -146.119766  -66.160004  116.086731    0.000000    0.000000    0.000000    0.000000
  0.013607214  -25.817405 -143.874115  -66.161724  103.317940    0.000000    0.000000    0.000000    0.000000
  0.013807615  -25.703049 -141.129242  -65.864414  102.057076    0.000000    0.000000    0.000000    0.000000
  0.014008016  -25.452478 -141.039398  -66.090804  109.634392    0.000000    0.000000    0.000000    0.000000
  0.014208417  -25.565670 -140.787399  -66.555240  105.839516    0.000000    0.000000    0.000000    0.000000
  0.014408818  -25.318992 -137.317368  -65.790536  110.783859    0.000000    0.000000    0.000000    0.000000
  0.014609218  -25.122672 -136.082535  -66.611391  110.371902    0.000000    0.000000    0.000000    0.000000
  0.014809619  -24.947984 -133.789536  -65.627561  102.532959    0.000000    0.000000    0.000000    0.000000
  0.015010020  -24.579401 -132.971741  -65.442941  119.554100    0.000000    0.000000    0.000000    0.000000
  0.015210421  -24.635664 -131.923294  -66.849285  115.544395    0.000000    0.000000    0.000000    0.000000
  0.015410822  -24.391176 -130.324844  -66.375363  133.442429    0.000000    0.000000    0.000000    0.000000
  0.015611222  -24.318570 -131.232040  -67.208952  120.914856    0.000000    0.000000    0.000000    0.000000
  0.015811623  -24.140031 -129.021713  -67.074368  120.546211    0.000000    0.000000    0.000000    0.000000
  0.016012024  -24.035563 -126.329666  -65.671959  128.263672    0.000000    0.000000    0.000000    0.000000
  0.016212425  -24.025770 -126.400024  -66.037753  125.678093    0.000000    0.000000    0.000000    0.000000
  0.016412826  -23.960792 -125.775574  -67.145600  129.784286    0.000000    0.000000    0.000000    0.000000
  0.016613226  -23.876170 -125.662285  -66.287799  132.056473    0.000000    0.000000    0.000000    0.000000
  0.016813627  -23.683053 -124.511932  -65.862328  132.932846    0.000000    0.000000    0.000000    0.000000
  0.017014028  -23.627229 -123.540405  -66.421935  130.835205    0.000000    0.000000    0.000000    0.000000
  0.017214429  -23.308416 -122.475594  -64.827587  130.207291    0.000000    0.000000    0.000000    0.000000
  0.017414830  -23.283282 -122.203819  -65.845936  132.179779    0.000000    0.000000    0.000000    0.000000
  0.017615230  -23.221217 -121.701500  -66.469691  131.086197    0.000000    0.000000    0.000000    0.000000
  0.017815631  -23.192450 -122.127678  -68.078526  141.784134    0.000000    0.000000    0.000000    0.000000
  0.018016032  -23.157549 -123.835907  -66.132269  139.741653    0.000000    0.000000    0.000000    0.000000
  0.018216433  -23.142828 -121.058426  -67.053455  142.271469    0.000000    0.000000    0.000000    0.000000
  0.018416834  -23.007968 -122.029892  -66.940106  139.560623    0.000000    0.000000    0.000000    0.000000
  0.018617234  -22.962101 -120.756882  -67.035058  142.767914    0.000000    0.000000    0.000000    0.000000
  0.018817635  -22.977648 -120.890671  -68.293652  146.168320    0.000000    0.000000    0.000000    0.000000
  0.019018036  -23.062483 -120.441727  -65.802890  152.339905    0.000000    0.000000    0.000000    0.000000
  0.019218437  -22.825048 -121.837296  -66.297332  153.281677    0.000000    0.000000    0.000000    0.000000
  0.019418838  -22.833802 -119.886284  -66.932907  147.399124    0.000000    0.000000    0.000000    0.000000
  0.019619238  -22.871891 -120.393951  -67.180097  159.605637    0.000000    0.000000    0.000000    0.000000
  0.019819639  -22.768482 -119.728683  -65.813683  158.978882    0.000000    0.000000    0.000000    0.000000
  0.020020040  -22.927125 -119.900597  -66.920616  161.393829    0.000000    0.000000    0.000000    0.000000
  0.020220441  -22.799669 -119.000832  -67.946332  158.983002    0.000000    0.000000    0.000000    0.000000
  0.020420842  -22.772325 -119.650322  -67.097274  162.949295    0.000000    0.000000    0.000000    0.000000
  0.020621242  -22.885804 -120.252541  -66.814751  174.123978    0.000000    0.000000    0.000000    0.000000
  0.020821643  -22.755474 -119.107788  -67.562227  159.285080    0.000000    0.000000    0.000000    0.000000
  0.021022044  -22.812423 -119.426544  -65.894037  154.802917    0.000000    0.000000    0.000000    0.000000
  0.021222445  -22.838591 -119.313431  -66.636714  174.120346    0.000000    0.000000    0.000000    0.000000
  0.021422846  -23.041460 -120.049660  -66.158763  166.041031    0.000000    0.000000    0.000000    0.000000
  0.021623246  -22.938854 -120.131905  -66.822643  173.524902    0.000000    0.000000    0.000000    0.000000
  0.021823647  -22.908244 -122.288826  -67.129286  174.911911    0.000000    0.000000    0.000000    0.000000
  0.022024048  -23.037287 -120.257912  -67.868872 -175.272720    0.000000    0.000000    0.000000    0.000000
  0.022224449  -23.115014 -120.815544  -68.229814  177.913467    0.000000    0.000000    0.000000    0.000000
  0.022424850  -23.139895 -120.498856  -67.507671 -178.021286    0.000000    0.000000    0.000000    0.000000
  0.022625251  -23.169562 -121.994789  -67.170692  176.129028    0.000000    0.000000    0.000000    0.000000
  0.022825651  -23.340919 -121.480812  -67.268893 -176.835800    0.000000    0.000000    0.000000    0.000000
  0.023026052  -23.206227 -122.506973  -65.850964 -173.561356    0.000000    0.000000    0.000000    0.000000
  0.023226453  -23.638263 -122.645432  -66.640659 -176.858124    0.000000    0.000000    0.000000    0.000000
  0.023426854  -23.581615 -123.359940  -67.500540 -172.455536    0.000000    0.000000    0.000000    0.000000
  0.023627255  -23.792574 -124.015610  -66.536619 -177.843521    0.000000    0.000000    0.000000    0.000000
  0.023827655  -23.875684 -125.275070  -67.234172 -169.823029    0.000000    0.000000    0.000000    0.000000
  0.024028056  -24.220034 -125.071938  -66.606569 -173.630020    0.000000    0.000000    0.000000    0.000000
  0.024228457  -23.973202 -126.465378  -67.315798 -162.118195    0.000000    0.000000    0.000000    0.000000
  0.024428858  -24.414955 -127.165169  -66.825190 -167.119400    0.000000    0.000000    0.000000    0.000000
  0.024629259  -24.861554 -126.263626  -67.964324 -161.178696    0.000000    0.000000    0.000000    0.000000
  0.024829659  -24.958349 -128.030624  -65.683330 -147.781937    0.000000    0.000000    0.000000    0.000000
  0.025030060  -25.205100 -130.149185  -64.855354 -138.513885    0.000000    0.000000    0.000000    0.000000
  0.025230461  -25.515381 -128.954758  -65.318874 -137.615311    0.000000    0.000000    0.000000    0.000000
  0.025430862  -25.505273 -131.837967  -65.522991 -133.603668    0.000000    0.000000    0.000000    0.000000
  0.025631263  -25.990882 -133.270599  -66.466543 -130.392990    0.000000    0.000000    0.000000    0.000000
  0.025831663  -26.544063 -134.566757  -65.520205 -125.868134    0.000000    0.000000    0.000000    0.000000
  0.026032064  -26.875608 -135.692856  -67.569547 -132.792709    0.000000    0.000000    0.000000    0.000000
  0.026232465  -27.579283 -136.386887  -64.528658 -126.547165    0.000000    0.000000    0.000000    0.000000
  0.026432866  -27.893480 -136.784927  -66.618401 -122.217194    0.000000    0.000000    0.000000    0.000000
  0.026633267  -28.655722 -137.285217  -65.132873 -113.213425    0.000000    0.000000    0.000000    0.000000
  0.026833667  -29.493639 -137.411179  -66.776209 -120.454597    0.000000    0.000000    0.000000    0.000000
  0.027034068  -30.614987 -137.080002  -66.003523 -126.096893    0.000000    0.000000    0.000000    0.000000
  0.027234469  -31.695227 -135.734436  -65.411681 -115.686874    0.000000    0.000000    0.000000    0.000000
  0.027434870  -32.627331 -132.589096  -66.504360 -117.040344    0.000000    0.000000    0.000000    0.000000
  0.027635271  -34.077593 -126.489815  -66.203571 -112.816132    0.000000    0.000000    0.000000    0.000000
  0.027835671  -35.495698 -122.122223  -66.699440 -111.862930    0.000000    0.000000    0.000000    0.000000
  0.028036072  -36.037507 -110.610519  -66.602588 -116.645599    0.000000    0.000000    0.000000    0.000000
  0.028236473  -35.627035 -103.258652  -65.664230 -110.836502    0.000000    0.000000    0.000000    0.000000
  0.028436874  -36.945735  -86.534012  -66.101001 -112.498657    0.000000    0.000000    0.000000    0.000000
  0.028637275  -36.251582  -75.832993  -64.587321 -106.706635    0.000000    0.000000    0.000000    0.000000
  0.028837675  -34.902544  -71.650978  -65.045228 -102.847916    0.000000    0.000000    0.000000    0.000000
  0.029038076  -34.783463  -68.095619  -64.970785 -108.303879    0.000000    0.000000    0.000000    0.000000
  0.029238477  -34.043957  -69.872215  -64.915530 -107.885963    0.000000    0.000000    0.000000    0.000000
  0.029438878  -33.272718  -66.632004  -65.162359 -109.342903    0.000000    0.000000    0.000000    0.000000
  0.029639279  -33.060902  -66.053665  -65.386496 -106.070679    0.000000    0.000000    0.000000    0.000000
  0.029839679  -32.591892  -63.276497  -64.575203 -105.057396    0.000000    0.000000    0.000000    0.000000
  0.030040080  -32.244689  -64.530312  -64.672394 -109.576981    0.000000    0.000000    0.000000    0.000000
  0.030240481  -32.468308  -62.637814  -66.597902 -108.854675    0.000000    0.000000    0.000000    0.000000
  0.030440882  -31.869040  -63.053616  -65.254800 -106.241547    0.000000    0.000000    0.000000    0.000000
  0.030641283  -32.322405  -61.032562  -64.996023 -107.878761    0.000000    0.000000    0.000000    0.000000
  0.030841683  -32.396200  -59.371414  -65.360087  -92.445076    0.000000    0.000000    0.000000    0.000000
  0.031042084  -32.567157  -60.564228  -65.277923  -97.863190    0.000000    0.000000    0.000000    0.000000
  0.031242485  -32.278671  -58.990635  -65.827659  -97.718506    0.000000    0.000000    0.000000    0.000000
  0.031442886  -32.498181  -60.661259  -65.048724 -108.261665    0.000000    0.000000    0.000000    0.000000
  0.031643287  -32.614197  -56.891155  -65.573815 -101.675812    0.000000    0.000000    0.000000    0.000000
  0.031843687  -32.118691  -55.841305  -65.373135  -95.301476    0.000000    0.000000    0.000000    0.000000
  0.032044088  -33.256530  -55.829224  -65.155389  -91.528671    0.000000    0.000000    0.000000    0.000000
  0.032244489  -33.301122  -52.776009  -66.379702 -100.863060    0.000000    0.000000    0.000000    0.000000
  0.032444890  -33.053993  -51.431210  -66.190775  -96.282227    0.000000    0.000000    0.000000    0.000000
  0.032645291  -32.924917  -48.067631  -66.182893  -92.841667    0.000000    0.000000    0.000000    0.000000
  0.032845691  -33.158423  -48.937382  -66.372881  -90.465103    0.000000    0.000000    0.000000    0.000000
  0.033046092  -32.758115  -44.385921  -66.908201  -79.034302    0.000000    0.000000    0.000000    0.000000
  0.033246493  -33.003051  -45.953007  -66.304319  -75.556717    0.000000    0.000000    0.000000    0.000000
  0.033446894  -33.657952  -43.118217  -66.488947  -92.285149    0.000000    0.000000    0.000000    0.000000
  0.033647295  -33.365304  -40.597557  -67.055463  -80.577393    0.000000    0.000000    0.000000    0.000000
  0.033847695  -33.472190  -40.898384  -66.946686  -68.971001    0.000000    0.000000    0.000000    0.000000
  0.034048096  -33.293609  -37.909599  -66.045889  -77.243042    0.000000    0.000000    0.000000    0.000000
  0.034248497  -33.332127  -33.012295  -66.770530  -67.017311    0.000000    0.000000    0.000000    0.000000
  0.034448898  -33.167625  -33.746731  -68.556193  -69.708107    0.000000    0.000000    0.000000    0.000000
  0.034649299  -33.021523  -32.615154  -66.582576  -87.035034    0.000000    0.000000    0.000000    0.000000
  0.034849699  -33.534274  -29.434877  -65.966692  -77.551620    0.000000    0.000000    0.000000    0.000000
  0.035050100  -33.042100  -28.335363  -67.122326  -75.341873    0.000000    0.000000    0.000000    0.000000
  0.035250501  -33.151851  -25.756994  -67.444410  -68.039825    0.000000    0.000000    0.000000    0.000000
  0.035450902  -33.147439  -25.385288  -67.142350  -53.993908    0.000000    0.000000    0.000000    0.000000
  0.035651303  -33.131568  -25.846062  -66.545074  -57.566822    0.000000    0.000000    0.000000    0.000000
  0.035851703  -33.294965  -22.929911  -67.399935  -55.128742    0.000000    0.000000    0.000000    0.000000
  0.036052104  -33.474006  -22.817926  -68.700915  -56.692928    0.000000    0.000000    0.000000    0.000000
  0.036252505  -33.307092  -18.945480  -67.825915  -66.246498    0.000000    0.000000    0.000000    0.000000
  0.036452906  -32.777510  -17.483725  -66.781562  -57.028942    0.000000    0.000000    0.000000    0.000000
  0.036653307  -33.057568  -17.905161  -66.711177  -59.452946    0.000000    0.000000    0.000000    0.000000
  0.036853707  -33.506586  -18.763470  -67.267463  -51.716888    0.000000    0.000000    0.000000    0.000000
  0.037054108  -32.879799  -14.117517  -66.325842  -44.395466    0.000000    0.000000    0.000000    0.000000
  0.037254509  -33.398438  -15.254030  -67.218219  -53.386932    0.000000    0.000000    0.000000    0.000000
  0.037454910  -32.874285  -11.529140  -69.223165  -52.687061    0.000000    0.000000    0.000000    0.000000
  0.037655311  -33.321127   -9.504191  -68.013391  -42.997597    0.000000    0.000000    0.000000    0.000000
  0.037855711  -32.886890   -9.278575  -67.667022  -46.967407    0.000000    0.000000    0.000000    0.000000
  0.038056112  -33.106623  -11.117252  -67.460916  -33.329441    0.000000    0.000000    0.000000    0.000000
  0.038256513  -33.270081   -7.458368  -68.863106  -44.257240    0.000000    0.000000    0.000000    0.000000
  0.038456914  -33.267661   -7.984755  -68.274294  -41.412487    0.000000    0.000000    0.000000    0.000000
  0.038657315  -33.082542   -6.390078  -67.450179  -32.221127    0.000000    0.000000    0.000000    0.000000
  0.038857715  -33.124431   -3.650908  -67.581453  -38.000168    0.000000    0.000000    0.000000    0.000000
  0.039058116  -32.841903   -3.977887  -67.133607  -35.227020    0.000000    0.000000    0.000000    0.000000
  0.039258517  -33.681204   -3.519702  -68.030652  -33.567051    0.000000    0.000000    0.000000    0.000000
  0.039458918  -33.286585   -2.388101  -68.408570  -21.360878    0.000000    0.000000    0.000000    0.000000
  0.039659319  -33.759957   -2.519094  -66.123432  -27.670458    0.000000    0.000000    0.000000    0.000000
  0.039859719  -33.764775    0.829624  -67.095607  -17.965940    0.000000    0.000000    0.000000    0.000000
  0.040060120  -33.691810    2.766025  -67.928980  -30.510681    0.000000    0.000000    0.000000    0.000000
  0.040260521  -33.609147    2.746229  -66.888437  -14.562609    0.000000    0.000000    0.000000    0.000000
  0.040460922  -33.855778    3.131142  -67.180443  -19.979828    0.000000    0.000000    0.000000    0.000000
  0.040661323  -33.890319    4.238857  -68.806397   -9.476986    0.000000    0.000000    0.000000    0.000000
  0.040861723  -33.785194    5.095092  -69.644817  -18.065565    0.000000    0.000000    0.000000    0.000000
  0.041062124  -34.227762    6.365457  -66.536455  -11.203259    0.000000    0.000000    0.000000    0.000000
  0.041262525  -33.799522    6.451538  -67.236971  -17.008162    0.000000    0.000000    0.000000    0.000000
  0.041462926  -34.318869    8.761262  -68.565525   -8.717135    0.000000    0.000000    0.000000    0.000000
  0.041663327  -34.052820   11.025640  -68.271276   -8.229823    0.000000    0.000000    0.000000    0.000000
  0.041863727  -34.229628   10.737742  -67.654417   -5.743801    0.000000    0.000000    0.000000    0.000000
  0.042064128  -34.221025   15.891656  -67.073932   -6.421424    0.000000    0.000000    0.000000    0.000000
  0.042264529  -34.126354   16.520355  -68.103155    5.386325    0.000000    0.000000    0.000000    0.000000
  0.042464930  -34.196315   15.306128  -66.574258   -2.984759    0.000000    0.000000    0.000000    0.000000
  0.042665331  -34.786035   15.910036  -67.693090    1.021026    0.000000    0.000000    0.000000    0.000000
  0.042865731  -34.977644   17.862501  -67.808941    1.123061    0.000000    0.000000    0.000000    0.000000
