! Anritsu VNA Master:                 Model: MS2034B/10/19/501
! SN:                                  1337062
! /bd0/ovro-jan-2016/dcp-b2-s21-40db.s2p
! Existing Calibration Information:
! TYPE:                         Current Settings,       Active Cal Settings
! TIME:             	   01/09/2016 05:37:23 PM,    01/09/2016 12:40:35 PM
! INTERNAL TEMP:    	                   41.8 C,                    41.8 C
! # POINTS:         	                      500,                       500
! START FREQ:       	               10.000 MHz,                10.000 MHz
! STOP FREQ:        	              110.000 MHz,               110.000 MHz
! SOURCE POWER:     	                      Low,                       Low
! IFBW:             	                   100 Hz,                    100 Hz
! AVG FACTOR:       	                       3 ,                        3 
! REF PLANE 1:      	                 2.2245 m,                  2.2245 m
! REF PLANE 2:      	                     0 mm,                      0 mm
! CAL TYPE:         	             1P2P S11,S21,              1P2P S11,S21
! CAL METHOD:       	                     SOLT,                      SOLT
! CAL LINE TYPE:    	                     Coax,                      Coax
! DUT PORT 1:       	                K-Conn(M),                 K-Conn(M)
! DUT PORT 2:       	                N-Conn(M),                 N-Conn(M)
! CAL STATUS:       	        OK: Accuracy High,                        --
# GHZ S DB R 50.0
! FREQ.GHZ       S11DB        S11A       S21DB        S21A       S12DB        S12A       S22DB        S22A
  0.010000000  -40.917646 -120.687737  -65.124341  100.403099    0.000000    0.000000    0.000000    0.000000
  0.010200401  -40.251262 -122.955948  -63.766429   92.966507    0.000000    0.000000    0.000000    0.000000
  0.010400802  -40.543622 -112.005211  -64.077164  107.924484    0.000000    0.000000    0.000000    0.000000
  0.010601202  -39.607294 -124.515732  -64.302831  102.102158    0.000000    0.000000    0.000000    0.000000
  0.010801603  -40.055946 -124.103172  -63.989928  107.734329    0.000000    0.000000    0.000000    0.000000
  0.011002004  -39.593554 -117.727066  -63.394842  104.496925    0.000000    0.000000    0.000000    0.000000
  0.011202405  -39.387973 -121.647598  -63.564001  100.824905    0.000000    0.000000    0.000000    0.000000
  0.011402806  -39.803331 -112.044815  -64.422937   97.017975    0.000000    0.000000    0.000000    0.000000
  0.011603206  -39.119417 -111.447861  -64.935366  113.058205    0.000000    0.000000    0.000000    0.000000
  0.011803607  -40.071876 -112.077003  -64.399371  110.710663    0.000000    0.000000    0.000000    0.000000
  0.012004008  -40.939450 -111.639175  -64.908987  106.984871    0.000000    0.000000    0.000000    0.000000
  0.012204409  -39.610624 -114.754608  -65.256822  103.167244    0.000000    0.000000    0.000000    0.000000
  0.012404810  -39.940598 -116.337914  -65.985934  110.673996    0.000000    0.000000    0.000000    0.000000
  0.012605210  -39.561480 -111.055962  -66.167956  111.271812    0.000000    0.000000    0.000000    0.000000
  0.012805611  -40.266894 -103.036629  -64.332400  102.079681    0.000000    0.000000    0.000000    0.000000
  0.013006012  -40.395308 -103.378174  -68.440117  115.729767    0.000000    0.000000    0.000000    0.000000
  0.013206413  -39.999334 -105.693741  -64.852911  124.725388    0.000000    0.000000    0.000000    0.000000
  0.013406814  -40.376717  -99.183983  -64.727052  114.597954    0.000000    0.000000    0.000000    0.000000
  0.013607214  -40.149848  -97.433289  -65.023650  119.167389    0.000000    0.000000    0.000000    0.000000
  0.013807615  -39.110974 -102.465446  -64.441701  127.423187    0.000000    0.000000    0.000000    0.000000
  0.014008016  -38.772900 -107.778320  -64.390343  119.401978    0.000000    0.000000    0.000000    0.000000
  0.014208417  -39.954224  -96.338409  -66.674013  128.768005    0.000000    0.000000    0.000000    0.000000
  0.014408818  -40.239461  -88.604385  -65.221029  131.887253    0.000000    0.000000    0.000000    0.000000
  0.014609218  -39.717552  -98.133987  -64.635693  125.090240    0.000000    0.000000    0.000000    0.000000
  0.014809619  -41.084986  -92.783318  -65.161947  136.128189    0.000000    0.000000    0.000000    0.000000
  0.015010020  -39.612560  -95.097504  -64.740400  143.897995    0.000000    0.000000    0.000000    0.000000
  0.015210421  -40.140622  -90.695869  -63.070143  143.377838    0.000000    0.000000    0.000000    0.000000
  0.015410822  -40.019485  -87.271461  -63.705946  145.748047    0.000000    0.000000    0.000000    0.000000
  0.015611222  -39.493153  -81.601204  -64.630628  140.721130    0.000000    0.000000    0.000000    0.000000
  0.015811623  -39.366227  -85.407425  -63.982672  140.065796    0.000000    0.000000    0.000000    0.000000
  0.016012024  -38.669835  -82.855522  -61.762034  139.261795    0.000000    0.000000    0.000000    0.000000
  0.016212425  -38.986723  -79.781319  -62.237503  148.824570    0.000000    0.000000    0.000000    0.000000
  0.016412826  -40.438690  -84.452988  -60.984601  144.236313    0.000000    0.000000    0.000000    0.000000
  0.016613226  -39.582299  -79.808762  -61.185897  148.794830    0.000000    0.000000    0.000000    0.000000
  0.016813627  -39.379861  -78.370758  -60.050182  155.543640    0.000000    0.000000    0.000000    0.000000
  0.017014028  -39.367114  -72.993446  -59.181661  146.483734    0.000000    0.000000    0.000000    0.000000
  0.017214429  -38.993858  -80.990715  -59.059312  146.893097    0.000000    0.000000    0.000000    0.000000
  0.017414830  -40.428941  -79.038139  -59.009850  151.515610    0.000000    0.000000    0.000000    0.000000
  0.017615230  -39.799227  -75.834053  -58.890190  146.712540    0.000000    0.000000    0.000000    0.000000
  0.017815631  -40.910961  -73.007950  -59.407014  144.935043    0.000000    0.000000    0.000000    0.000000
  0.018016032  -39.379959  -69.795929  -58.388881  144.461746    0.000000    0.000000    0.000000    0.000000
  0.018216433  -39.607099  -72.397499  -59.031606  142.513748    0.000000    0.000000    0.000000    0.000000
  0.018416834  -39.909652  -67.152168  -58.539523  140.342133    0.000000    0.000000    0.000000    0.000000
  0.018617234  -38.987744  -72.272667  -58.688287  144.791504    0.000000    0.000000    0.000000    0.000000
  0.018817635  -39.283530  -66.911751  -59.171553  148.411667    0.000000    0.000000    0.000000    0.000000
  0.019018036  -39.217551  -61.867279  -59.358764  142.324295    0.000000    0.000000    0.000000    0.000000
  0.019218437  -39.218781  -57.061420  -58.694698  149.032974    0.000000    0.000000    0.000000    0.000000
  0.019418838  -40.000139  -57.705002  -59.981339  145.303894    0.000000    0.000000    0.000000    0.000000
  0.019619238  -40.215991  -53.845062  -61.552536  158.406876    0.000000    0.000000    0.000000    0.000000
  0.019819639  -39.957677  -58.234863  -62.128976  160.602570    0.000000    0.000000    0.000000    0.000000
  0.020020040  -39.922984  -59.890301  -63.777138  170.474380    0.000000    0.000000    0.000000    0.000000
  0.020220441  -39.596918  -62.147312  -64.056545 -161.528778    0.000000    0.000000    0.000000    0.000000
  0.020420842  -39.667317  -58.603050  -63.241784 -129.072327    0.000000    0.000000    0.000000    0.000000
  0.020621242  -39.382460  -54.876495  -59.658655 -112.113335    0.000000    0.000000    0.000000    0.000000
  0.020821643  -39.762336  -50.638649  -57.269770 -102.922478    0.000000    0.000000    0.000000    0.000000
  0.021022044  -38.940915  -52.801056  -54.399388 -102.286316    0.000000    0.000000    0.000000    0.000000
  0.021222445  -39.275629  -49.174942  -51.503114  -99.268013    0.000000    0.000000    0.000000    0.000000
  0.021422846  -39.196129  -56.546379  -49.194361  -97.059128    0.000000    0.000000    0.000000    0.000000
  0.021623246  -38.776849  -51.563881  -46.885397  -97.823837    0.000000    0.000000    0.000000    0.000000
  0.021823647  -38.588151  -45.267982  -44.658569  -99.901787    0.000000    0.000000    0.000000    0.000000
  0.022024048  -39.118964  -47.195595  -43.061097 -101.765915    0.000000    0.000000    0.000000    0.000000
  0.022224449  -40.045085  -38.293072  -41.309766 -102.406754    0.000000    0.000000    0.000000    0.000000
  0.022424850  -39.346614  -36.882504  -39.933512 -103.700638    0.000000    0.000000    0.000000    0.000000
  0.022625251  -38.912448  -43.659321  -38.273461 -106.523392    0.000000    0.000000    0.000000    0.000000
  0.022825651  -39.602421  -37.581600  -36.834985 -109.585007    0.000000    0.000000    0.000000    0.000000
  0.023026052  -39.487666  -37.371487  -35.431148 -111.329338    0.000000    0.000000    0.000000    0.000000
  0.023226453  -39.111255  -30.566252  -33.882201 -114.426987    0.000000    0.000000    0.000000    0.000000
  0.023426854  -38.939233  -34.120235  -32.615509 -116.975021    0.000000    0.000000    0.000000    0.000000
  0.023627255  -39.671794  -38.672207  -31.299091 -120.452888    0.000000    0.000000    0.000000    0.000000
  0.023827655  -38.605189  -30.490520  -29.946537 -123.319138    0.000000    0.000000    0.000000    0.000000
  0.024028056  -39.683870  -27.259848  -28.715137 -126.860588    0.000000    0.000000    0.000000    0.000000
  0.024228457  -39.334333  -26.612968  -27.354711 -129.975510    0.000000    0.000000    0.000000    0.000000
  0.024428858  -37.880808  -33.620605  -26.161872 -133.216522    0.000000    0.000000    0.000000    0.000000
  0.024629259  -38.905513  -26.209352  -24.941883 -136.812836    0.000000    0.000000    0.000000    0.000000
  0.024829659  -39.881291  -25.666037  -23.769049 -140.718597    0.000000    0.000000    0.000000    0.000000
  0.025030060  -38.514216  -25.967125  -22.547608 -144.572769    0.000000    0.000000    0.000000    0.000000
  0.025230461  -38.991738  -21.413420  -21.415281 -148.162201    0.000000    0.000000    0.000000    0.000000
  0.025430862  -39.253890  -27.729418  -20.251311 -153.969116    0.000000    0.000000    0.000000    0.000000
  0.025631263  -38.976562  -15.623885  -19.060473 -158.610718    0.000000    0.000000    0.000000    0.000000
  0.025831663  -40.011404  -14.359870  -18.042519 -164.220947    0.000000    0.000000    0.000000    0.000000
  0.026032064  -39.751553  -19.892647  -16.957369 -169.205521    0.000000    0.000000    0.000000    0.000000
  0.026232465  -38.106872  -15.643107  -16.033625 -175.402679    0.000000    0.000000    0.000000    0.000000
  0.026432866  -39.227393  -14.229617  -15.046028  178.233368    0.000000    0.000000    0.000000    0.000000
  0.026633267  -37.739359  -17.100964  -14.102349  172.079956    0.000000    0.000000    0.000000    0.000000
  0.026833667  -39.422424   -9.335956  -13.128060  165.367615    0.000000    0.000000    0.000000    0.000000
  0.027034068  -38.945288  -11.561215  -12.275496  158.752014    0.000000    0.000000    0.000000    0.000000
  0.027234469  -40.204362   -6.067964  -11.538652  151.832748    0.000000    0.000000    0.000000    0.000000
  0.027434870  -39.894390   -3.153669  -10.759326  143.957901    0.000000    0.000000    0.000000    0.000000
  0.027635271  -39.123122   -9.136899  -10.205391  136.427811    0.000000    0.000000    0.000000    0.000000
  0.027835671  -39.938183   -7.174862   -9.633742  128.860519    0.000000    0.000000    0.000000    0.000000
  0.028036072  -39.751620   -4.963330   -9.197958  122.285889    0.000000    0.000000    0.000000    0.000000
  0.028236473  -38.665158   -1.706041   -8.780566  114.823769    0.000000    0.000000    0.000000    0.000000
  0.028436874  -39.053563   -7.162005   -8.511412  108.873314    0.000000    0.000000    0.000000    0.000000
  0.028637275  -38.180467   -0.647111   -8.247662  101.108475    0.000000    0.000000    0.000000    0.000000
  0.028837675  -39.370922   -0.445061   -8.009435   94.426125    0.000000    0.000000    0.000000    0.000000
  0.029038076  -39.704769   15.909611   -7.826996   88.087990    0.000000    0.000000    0.000000    0.000000
  0.029238477  -39.530759   12.236307   -7.668160   82.653984    0.000000    0.000000    0.000000    0.000000
  0.029438878  -39.307237    7.592161   -7.667723   76.809029    0.000000    0.000000    0.000000    0.000000
  0.029639279  -39.314582    7.500452   -7.550611   70.572960    0.000000    0.000000    0.000000    0.000000
  0.029839679  -38.395395   15.784931   -7.495177   65.630783    0.000000    0.000000    0.000000    0.000000
  0.030040080  -38.999185   11.862348   -7.418461   60.901115    0.000000    0.000000    0.000000    0.000000
  0.030240481  -39.123244   18.048323   -7.370367   56.098503    0.000000    0.000000    0.000000    0.000000
  0.030440882  -39.772786   21.839285   -7.333671   51.128357    0.000000    0.000000    0.000000    0.000000
  0.030641283  -38.227765   20.000658   -7.367861   47.061447    0.000000    0.000000    0.000000    0.000000
  0.030841683  -37.953605   16.192358   -7.389899   42.618885    0.000000    0.000000    0.000000    0.000000
  0.031042084  -38.351867   21.118418   -7.282376   38.639900    0.000000    0.000000    0.000000    0.000000
  0.031242485  -39.003007   21.832666   -7.273763   35.229000    0.000000    0.000000    0.000000    0.000000
  0.031442886  -38.135205   27.487257   -7.312257   31.302135    0.000000    0.000000    0.000000    0.000000
  0.031643287  -39.040550   19.819469   -7.238800   27.735071    0.000000    0.000000    0.000000    0.000000
  0.031843687  -37.793391   26.022535   -7.274220   23.829216    0.000000    0.000000    0.000000    0.000000
  0.032044088  -38.392454   27.673609   -7.247109   20.503637    0.000000    0.000000    0.000000    0.000000
  0.032244489  -38.822385   28.807791   -7.225905   17.173424    0.000000    0.000000    0.000000    0.000000
  0.032444890  -38.494057   33.428665   -7.261134   13.648643    0.000000    0.000000    0.000000    0.000000
  0.032645291  -38.187578   33.586845   -7.214787    9.902587    0.000000    0.000000    0.000000    0.000000
  0.032845691  -38.023017   38.190781   -7.216693    7.181351    0.000000    0.000000    0.000000    0.000000
  0.033046092  -38.307980   37.491959   -7.177101    4.357555    0.000000    0.000000    0.000000    0.000000
  0.033246493  -37.534366   37.391182   -7.200219    0.940326    0.000000    0.000000    0.000000    0.000000
  0.033446894  -38.462695   35.752140   -7.115238   -1.612046    0.000000    0.000000    0.000000    0.000000
  0.033647295  -38.097265   34.557659   -7.162529   -4.718884    0.000000    0.000000    0.000000    0.000000
  0.033847695  -39.171861   39.117847   -7.120785   -7.205640    0.000000    0.000000    0.000000    0.000000
  0.034048096  -37.983016   36.792732   -7.178134   -9.634289    0.000000    0.000000    0.000000    0.000000
  0.034248497  -38.619588   44.930531   -7.052297  -13.016321    0.000000    0.000000    0.000000    0.000000
  0.034448898  -38.185190   48.128834   -7.162111  -15.244550    0.000000    0.000000    0.000000    0.000000
  0.034649299  -37.725333   43.024895   -7.148391  -17.825344    0.000000    0.000000    0.000000    0.000000
  0.034849699  -38.265121   42.390163   -7.163603  -20.159191    0.000000    0.000000    0.000000    0.000000
  0.035050100  -38.720857   45.168610   -7.191466  -22.850510    0.000000    0.000000    0.000000    0.000000
  0.035250501  -38.259585   43.720100   -7.138548  -25.480047    0.000000    0.000000    0.000000    0.000000
  0.035450902  -38.572249   50.726067   -7.065232  -27.983284    0.000000    0.000000    0.000000    0.000000
  0.035651303  -38.421519   50.767448   -7.136160  -30.601086    0.000000    0.000000    0.000000    0.000000
  0.035851703  -38.344523   51.715492   -7.092865  -33.090923    0.000000    0.000000    0.000000    0.000000
  0.036052104  -37.898245   48.571861   -7.186134  -35.121162    0.000000    0.000000    0.000000    0.000000
  0.036252505  -38.566021   58.496151   -7.117533  -37.299191    0.000000    0.000000    0.000000    0.000000
  0.036452906  -37.962283   53.641941   -7.127716  -39.640408    0.000000    0.000000    0.000000    0.000000
  0.036653307  -37.447439   62.538181   -7.140562  -42.102753    0.000000    0.000000    0.000000    0.000000
  0.036853707  -38.861251   59.601849   -7.135561  -43.905468    0.000000    0.000000    0.000000    0.000000
  0.037054108  -38.206184   56.515739   -7.146496  -46.216682    0.000000    0.000000    0.000000    0.000000
  0.037254509  -38.787774   61.761322   -7.135827  -48.399551    0.000000    0.000000    0.000000    0.000000
  0.037454910  -37.665743   59.378235   -7.138690  -50.641743    0.000000    0.000000    0.000000    0.000000
  0.037655311  -38.911133   56.976635   -7.154653  -52.686565    0.000000    0.000000    0.000000    0.000000
  0.037855711  -38.216106   63.182800   -7.121355  -54.452633    0.000000    0.000000    0.000000    0.000000
  0.038056112  -38.982265   65.680008   -7.110819  -56.323879    0.000000    0.000000    0.000000    0.000000
  0.038256513  -37.955230   68.327782   -7.122290  -58.468960    0.000000    0.000000    0.000000    0.000000
  0.038456914  -38.824754   70.488419   -7.142415  -60.529881    0.000000    0.000000    0.000000    0.000000
  0.038657315  -38.632654   70.777382   -7.185079  -62.235275    0.000000    0.000000    0.000000    0.000000
  0.038857715  -39.768440   64.512276   -7.185875  -64.368210    0.000000    0.000000    0.000000    0.000000
  0.039058116  -39.589151   68.721535   -7.199490  -66.075462    0.000000    0.000000    0.000000    0.000000
  0.039258517  -38.726884   72.889252   -7.250415  -68.090721    0.000000    0.000000    0.000000    0.000000
  0.039458918  -38.281100   71.736984   -7.156858  -69.996887    0.000000    0.000000    0.000000    0.000000
  0.039659319  -38.886334   70.541862   -7.157965  -71.900421    0.000000    0.000000    0.000000    0.000000
  0.039859719  -38.213768   72.082909   -7.231849  -73.308983    0.000000    0.000000    0.000000    0.000000
  0.040060120  -38.663785   77.125298   -7.181593  -75.511864    0.000000    0.000000    0.000000    0.000000
  0.040260521  -38.747225   76.968155   -7.184345  -76.866570    0.000000    0.000000    0.000000    0.000000
  0.040460922  -38.770190   74.492653   -7.159076  -79.415497    0.000000    0.000000    0.000000    0.000000
  0.040661323  -38.744769   79.840378   -7.250697  -80.813309    0.000000    0.000000    0.000000    0.000000
  0.040861723  -38.770702   84.938156   -7.186181  -82.067169    0.000000    0.000000    0.000000    0.000000
  0.041062124  -39.210166   89.607056   -7.204456  -84.165726    0.000000    0.000000    0.000000    0.000000
  0.041262525  -39.664577   82.056755   -7.258973  -85.816612    0.000000    0.000000    0.000000    0.000000
  0.041462926  -39.407522   82.552429   -7.162982  -87.332207    0.000000    0.000000    0.000000    0.000000
  0.041663327  -38.839201   87.130165   -7.175255  -89.034149    0.000000    0.000000    0.000000    0.000000
  0.041863727  -39.722231   93.125801   -7.180212  -90.816505    0.000000    0.000000    0.000000    0.000000
  0.042064128  -39.778640   86.021164   -7.233299  -92.196800    0.000000    0.000000    0.000000    0.000000
  0.042264529  -39.188694   91.262199   -7.210374  -93.826172    0.000000    0.000000    0.000000    0.000000
  0.042464930  -38.622146   90.769669   -7.211635  -95.410873    0.000000    0.000000    0.000000    0.000000
  0.042665331  -39.134437   96.334915   -7.199118  -97.451920    0.000000    0.000000    0.000000    0.000000
  0.042865731  -39.691835  101.283150   -7.225715  -98.427429    0.000000    0.000000    0.000000    0.000000
