! Anritsu VNA Master:                 Model: MS2034B/10/19/501
! SN:                                  1337062
! /bd0/ovro-jan-2016/dcp-z1-s21-40db.s2p
! Existing Calibration Information:
! TYPE:                         Current Settings,       Active Cal Settings
! TIME:             	   01/08/2016 09:40:34 PM,    01/08/2016 08:43:08 PM
! INTERNAL TEMP:    	                   42.8 C,                    45.0 C
! # POINTS:         	                      500,                       500
! START FREQ:       	               10.000 MHz,                10.000 MHz
! STOP FREQ:        	              110.000 MHz,               110.000 MHz
! SOURCE POWER:     	                      Low,                       Low
! IFBW:             	                   100 Hz,                    100 Hz
! AVG FACTOR:       	                       3 ,                        3 
! REF PLANE 1:      	                 2.2245 m,                  2.2245 m
! REF PLANE 2:      	                     0 mm,                      0 mm
! CAL TYPE:         	             1P2P S11,S21,              1P2P S11,S21
! CAL METHOD:       	                     SOLT,                      SOLT
! CAL LINE TYPE:    	                     Coax,                      Coax
! DUT PORT 1:       	                K-Conn(M),                 K-Conn(M)
! DUT PORT 2:       	                N-Conn(M),                 N-Conn(M)
! CAL STATUS:       	        OK: Accuracy High,                        --
# GHZ S DB R 50.0
! FREQ.GHZ       S11DB        S11A       S21DB        S21A       S12DB        S12A       S22DB        S22A
  0.010000000  -39.962283 -104.489006  -68.063648  110.787209    0.000000    0.000000    0.000000    0.000000
  0.010200401  -40.453901  -98.124496  -64.354935  106.520096    0.000000    0.000000    0.000000    0.000000
  0.010400802  -39.733183 -109.643532  -64.923205  105.631180    0.000000    0.000000    0.000000    0.000000
  0.010601202  -40.964144 -106.159561  -64.667346   97.725754    0.000000    0.000000    0.000000    0.000000
  0.010801603  -40.771651 -103.074142  -65.603253   93.568069    0.000000    0.000000    0.000000    0.000000
  0.011002004  -39.603463 -107.417931  -63.882622  104.409843    0.000000    0.000000    0.000000    0.000000
  0.011202405  -40.471106 -108.752518  -64.956604  106.577148    0.000000    0.000000    0.000000    0.000000
  0.011402806  -41.458294 -107.387894  -65.616144   98.144112    0.000000    0.000000    0.000000    0.000000
  0.011603206  -42.143162 -104.609337  -66.199391  106.589760    0.000000    0.000000    0.000000    0.000000
  0.011803607  -38.809157  -94.028404  -65.691740  117.146912    0.000000    0.000000    0.000000    0.000000
  0.012004008  -39.694688  -91.168488  -63.462494  101.722565    0.000000    0.000000    0.000000    0.000000
  0.012204409  -41.627893  -99.896431  -64.229642  115.539505    0.000000    0.000000    0.000000    0.000000
  0.012404810  -41.512496  -93.509453  -65.837173  101.882744    0.000000    0.000000    0.000000    0.000000
  0.012605210  -41.097983  -94.257217  -66.032799  112.824165    0.000000    0.000000    0.000000    0.000000
  0.012805611  -40.912005  -92.304131  -64.591798  115.116089    0.000000    0.000000    0.000000    0.000000
  0.013006012  -40.791459  -93.698326  -64.933682  103.855675    0.000000    0.000000    0.000000    0.000000
  0.013206413  -41.376488  -92.579941  -64.138941  113.015495    0.000000    0.000000    0.000000    0.000000
  0.013406814  -41.602308  -79.172470  -65.392636  119.946152    0.000000    0.000000    0.000000    0.000000
  0.013607214  -40.657310  -86.361465  -63.689215  126.628227    0.000000    0.000000    0.000000    0.000000
  0.013807615  -41.303114  -79.249146  -65.630137  120.353592    0.000000    0.000000    0.000000    0.000000
  0.014008016  -40.141827  -90.935730  -64.824757  122.345207    0.000000    0.000000    0.000000    0.000000
  0.014208417  -40.920110  -83.311905  -64.340264  132.338364    0.000000    0.000000    0.000000    0.000000
  0.014408818  -40.057394  -77.847969  -64.682575  135.058258    0.000000    0.000000    0.000000    0.000000
  0.014609218  -40.998910  -85.020042  -64.339704  128.739059    0.000000    0.000000    0.000000    0.000000
  0.014809619  -41.233172  -86.359596  -65.712968  136.767242    0.000000    0.000000    0.000000    0.000000
  0.015010020  -40.234477  -79.662781  -63.957334  129.286087    0.000000    0.000000    0.000000    0.000000
  0.015210421  -41.034422  -79.179054  -64.064158  133.415421    0.000000    0.000000    0.000000    0.000000
  0.015410822  -40.446103  -76.836304  -62.605430  139.465790    0.000000    0.000000    0.000000    0.000000
  0.015611222  -40.497215  -72.791351  -61.932215  150.039963    0.000000    0.000000    0.000000    0.000000
  0.015811623  -40.835301  -79.032265  -62.829268  145.774826    0.000000    0.000000    0.000000    0.000000
  0.016012024  -41.105002  -76.963188  -62.132434  140.946823    0.000000    0.000000    0.000000    0.000000
  0.016212425  -40.722071  -69.840515  -61.465347  143.629044    0.000000    0.000000    0.000000    0.000000
  0.016412826  -39.923794  -70.317368  -60.376485  146.722046    0.000000    0.000000    0.000000    0.000000
  0.016613226  -41.551608  -69.240318  -61.104483  146.264008    0.000000    0.000000    0.000000    0.000000
  0.016813627  -40.861386  -69.290169  -59.817633  150.665329    0.000000    0.000000    0.000000    0.000000
  0.017014028  -41.523313  -74.009895  -60.169060  144.189499    0.000000    0.000000    0.000000    0.000000
  0.017214429  -40.478037  -65.732292  -60.383705  145.007309    0.000000    0.000000    0.000000    0.000000
  0.017414830  -40.943604  -69.162010  -58.952563  143.685455    0.000000    0.000000    0.000000    0.000000
  0.017615230  -41.309814  -64.568527  -59.481625  144.504257    0.000000    0.000000    0.000000    0.000000
  0.017815631  -41.280020  -54.575237  -58.910866  142.721252    0.000000    0.000000    0.000000    0.000000
  0.018016032  -39.885351  -65.541641  -58.858328  143.578278    0.000000    0.000000    0.000000    0.000000
  0.018216433  -41.656899  -60.509220  -59.486297  143.501480    0.000000    0.000000    0.000000    0.000000
  0.018416834  -41.051928  -60.515011  -58.480815  142.525604    0.000000    0.000000    0.000000    0.000000
  0.018617234  -41.353258  -60.490616  -59.300307  141.024231    0.000000    0.000000    0.000000    0.000000
  0.018817635  -39.997608  -50.475677  -59.545963  142.597717    0.000000    0.000000    0.000000    0.000000
  0.019018036  -40.478779  -54.399239  -59.380409  138.743607    0.000000    0.000000    0.000000    0.000000
  0.019218437  -40.873666  -56.271645  -60.026128  141.958221    0.000000    0.000000    0.000000    0.000000
  0.019418838  -40.491807  -52.945717  -61.388657  141.674622    0.000000    0.000000    0.000000    0.000000
  0.019619238  -39.902334  -48.960846  -60.525764  147.286987    0.000000    0.000000    0.000000    0.000000
  0.019819639  -41.080848  -49.807228  -62.804962  153.923767    0.000000    0.000000    0.000000    0.000000
  0.020020040  -40.946083  -54.322895  -64.657167  165.521194    0.000000    0.000000    0.000000    0.000000
  0.020220441  -40.600876  -45.880253  -64.848896 -173.534149    0.000000    0.000000    0.000000    0.000000
  0.020420842  -40.875766  -47.377247  -64.819855 -144.099838    0.000000    0.000000    0.000000    0.000000
  0.020621242  -41.032374  -48.007092  -61.640046 -123.919411    0.000000    0.000000    0.000000    0.000000
  0.020821643  -41.175237  -46.148502  -58.406281 -104.537674    0.000000    0.000000    0.000000    0.000000
  0.021022044  -41.073466  -45.328289  -55.811299 -104.170013    0.000000    0.000000    0.000000    0.000000
  0.021222445  -40.962622  -41.889660  -53.263859  -95.559593    0.000000    0.000000    0.000000    0.000000
  0.021422846  -40.378997  -38.122646  -51.252798  -94.908028    0.000000    0.000000    0.000000    0.000000
  0.021623246  -41.035706  -47.069263  -48.689545  -97.704597    0.000000    0.000000    0.000000    0.000000
  0.021823647  -41.558667  -44.339722  -46.485393  -99.210495    0.000000    0.000000    0.000000    0.000000
  0.022024048  -40.510579  -35.595543  -44.361750 -103.070190    0.000000    0.000000    0.000000    0.000000
  0.022224449  -41.588612  -36.474232  -42.780213 -105.038773    0.000000    0.000000    0.000000    0.000000
  0.022424850  -40.654306  -34.595825  -41.373514 -105.028244    0.000000    0.000000    0.000000    0.000000
  0.022625251  -39.975143  -29.928652  -40.088935 -106.289047    0.000000    0.000000    0.000000    0.000000
  0.022825651  -40.481056  -36.299042  -38.362959 -110.921371    0.000000    0.000000    0.000000    0.000000
  0.023026052  -40.059923  -32.777157  -36.860178 -112.518982    0.000000    0.000000    0.000000    0.000000
  0.023226453  -40.858343  -33.639618  -35.613144 -115.280151    0.000000    0.000000    0.000000    0.000000
  0.023426854  -40.059485  -35.116230  -34.120791 -119.143555    0.000000    0.000000    0.000000    0.000000
  0.023627255  -40.580119  -30.035982  -32.807218 -121.470909    0.000000    0.000000    0.000000    0.000000
  0.023827655  -41.133127  -20.354040  -31.597379 -124.282822    0.000000    0.000000    0.000000    0.000000
  0.024028056  -41.506228  -26.590378  -30.190898 -128.042068    0.000000    0.000000    0.000000    0.000000
  0.024228457  -40.718631  -30.177572  -28.978120 -131.445938    0.000000    0.000000    0.000000    0.000000
  0.024428858  -40.799152  -24.865328  -27.804584 -134.768951    0.000000    0.000000    0.000000    0.000000
  0.024629259  -41.396539  -22.703703  -26.616266 -138.576447    0.000000    0.000000    0.000000    0.000000
  0.024829659  -40.246674  -19.672415  -25.310935 -141.304459    0.000000    0.000000    0.000000    0.000000
  0.025030060  -40.072632  -19.034767  -24.252170 -146.187302    0.000000    0.000000    0.000000    0.000000
  0.025230461  -43.652370  -23.323334  -23.063539 -150.592728    0.000000    0.000000    0.000000    0.000000
  0.025430862  -39.444467  -15.414523  -21.913728 -155.345642    0.000000    0.000000    0.000000    0.000000
  0.025631263  -42.320110  -16.516281  -20.828763 -160.638489    0.000000    0.000000    0.000000    0.000000
  0.025831663  -41.756994  -11.812493  -19.787588 -166.450928    0.000000    0.000000    0.000000    0.000000
  0.026032064  -39.934086  -15.582977  -18.735046 -172.193008    0.000000    0.000000    0.000000    0.000000
  0.026232465  -41.208858   -8.071283  -17.791199 -177.829208    0.000000    0.000000    0.000000    0.000000
  0.026432866  -41.141554   -3.115504  -16.875404  176.312912    0.000000    0.000000    0.000000    0.000000
  0.026633267  -39.747893  -14.930732  -15.963349  169.620468    0.000000    0.000000    0.000000    0.000000
  0.026833667  -41.202359  -14.657221  -15.066623  163.408646    0.000000    0.000000    0.000000    0.000000
  0.027034068  -39.535831   -8.872626  -14.332941  156.483902    0.000000    0.000000    0.000000    0.000000
  0.027234469  -40.900811  -12.859963  -13.539627  148.586472    0.000000    0.000000    0.000000    0.000000
  0.027434870  -41.974428   -9.833001  -12.925722  141.976212    0.000000    0.000000    0.000000    0.000000
  0.027635271  -40.927493   -5.899589  -12.372395  135.244614    0.000000    0.000000    0.000000    0.000000
  0.027835671  -41.978618   -6.472855  -11.819254  127.869705    0.000000    0.000000    0.000000    0.000000
  0.028036072  -42.118604   -7.410507  -11.430166  120.806877    0.000000    0.000000    0.000000    0.000000
  0.028236473  -40.834467   -0.837291  -10.972404  113.595413    0.000000    0.000000    0.000000    0.000000
  0.028436874  -42.570983   -3.787986  -10.689321  107.438110    0.000000    0.000000    0.000000    0.000000
  0.028637275  -41.867551   -1.828200  -10.462861   99.945450    0.000000    0.000000    0.000000    0.000000
  0.028837675  -40.766137    7.096832  -10.166181   94.131287    0.000000    0.000000    0.000000    0.000000
  0.029038076  -41.266974    6.346531  -10.026358   87.905647    0.000000    0.000000    0.000000    0.000000
  0.029238477  -42.132910   10.874793   -9.944022   81.699142    0.000000    0.000000    0.000000    0.000000
  0.029438878  -41.797629    5.669663   -9.824940   76.273254    0.000000    0.000000    0.000000    0.000000
  0.029639279  -40.476564    4.740063   -9.651871   70.873451    0.000000    0.000000    0.000000    0.000000
  0.029839679  -40.598967    5.306553   -9.561168   64.903809    0.000000    0.000000    0.000000    0.000000
  0.030040080  -41.043394    9.484490   -9.570082   60.724098    0.000000    0.000000    0.000000    0.000000
  0.030240481  -40.715633   10.756947   -9.489334   55.748726    0.000000    0.000000    0.000000    0.000000
  0.030440882  -41.339689   14.391149   -9.435249   51.833351    0.000000    0.000000    0.000000    0.000000
  0.030641283  -40.068848   14.664927   -9.499019   46.653080    0.000000    0.000000    0.000000    0.000000
  0.030841683  -40.196031   16.273911   -9.378322   43.010929    0.000000    0.000000    0.000000    0.000000
  0.031042084  -40.528601   17.119341   -9.336877   38.998951    0.000000    0.000000    0.000000    0.000000
  0.031242485  -39.747349   19.178902   -9.406558   34.846996    0.000000    0.000000    0.000000    0.000000
  0.031442886  -40.013746   22.245296   -9.378432   30.897427    0.000000    0.000000    0.000000    0.000000
  0.031643287  -39.783487   11.250146   -9.288809   27.467707    0.000000    0.000000    0.000000    0.000000
  0.031843687  -40.961907   25.924973   -9.240131   23.861153    0.000000    0.000000    0.000000    0.000000
  0.032044088  -39.698497   20.639193   -9.311753   19.915066    0.000000    0.000000    0.000000    0.000000
  0.032244489  -41.211793   25.516731   -9.245131   16.585281    0.000000    0.000000    0.000000    0.000000
  0.032444890  -40.389726   30.592123   -9.270603   13.865543    0.000000    0.000000    0.000000    0.000000
  0.032645291  -39.195539   21.102720   -9.270152   10.262650    0.000000    0.000000    0.000000    0.000000
  0.032845691  -40.596523   23.062916   -9.246015    6.975327    0.000000    0.000000    0.000000    0.000000
  0.033046092  -39.042551   33.856171   -9.193258    3.901386    0.000000    0.000000    0.000000    0.000000
  0.033246493  -39.607837   38.033207   -9.210232    0.821717    0.000000    0.000000    0.000000    0.000000
  0.033446894  -40.596143   35.804409   -9.250401   -1.935603    0.000000    0.000000    0.000000    0.000000
  0.033647295  -40.717289   33.024323   -9.256467   -4.825507    0.000000    0.000000    0.000000    0.000000
  0.033847695  -40.452734   36.506977   -9.219730   -7.395833    0.000000    0.000000    0.000000    0.000000
  0.034048096  -39.776396   33.478092   -9.224431  -10.214355    0.000000    0.000000    0.000000    0.000000
  0.034248497  -39.677357   39.031872   -9.206063  -12.839697    0.000000    0.000000    0.000000    0.000000
  0.034448898  -39.307563   39.044559   -9.217234  -15.762326    0.000000    0.000000    0.000000    0.000000
  0.034649299  -40.429044   39.065483   -9.230834  -18.688549    0.000000    0.000000    0.000000    0.000000
  0.034849699  -40.412091   36.489746   -9.203498  -21.254255    0.000000    0.000000    0.000000    0.000000
  0.035050100  -39.180786   40.323215   -9.235671  -23.621758    0.000000    0.000000    0.000000    0.000000
  0.035250501  -39.606737   45.979797   -9.201511  -25.725239    0.000000    0.000000    0.000000    0.000000
  0.035450902  -40.176993   38.712666   -9.176152  -28.664312    0.000000    0.000000    0.000000    0.000000
  0.035651303  -40.757282   43.527412   -9.250946  -30.864300    0.000000    0.000000    0.000000    0.000000
  0.035851703  -39.725649   38.601009   -9.201877  -32.932312    0.000000    0.000000    0.000000    0.000000
  0.036052104  -39.721100   44.109589   -9.204658  -35.414925    0.000000    0.000000    0.000000    0.000000
  0.036252505  -39.790229   44.838882   -9.174694  -37.722572    0.000000    0.000000    0.000000    0.000000
  0.036452906  -40.443483   47.793797   -9.175856  -39.680332    0.000000    0.000000    0.000000    0.000000
  0.036653307  -39.884960   52.364807   -9.234384  -42.259346    0.000000    0.000000    0.000000    0.000000
  0.036853707  -39.648543   51.236282   -9.153371  -44.353115    0.000000    0.000000    0.000000    0.000000
  0.037054108  -40.450088   48.735451   -9.219860  -46.346325    0.000000    0.000000    0.000000    0.000000
  0.037254509  -39.340227   57.234928   -9.190942  -48.547482    0.000000    0.000000    0.000000    0.000000
  0.037454910  -40.125989   48.809895   -9.165895  -50.254997    0.000000    0.000000    0.000000    0.000000
  0.037655311  -40.401242   53.946976   -9.264085  -52.659794    0.000000    0.000000    0.000000    0.000000
  0.037855711  -39.608506   57.575436   -9.257819  -54.461628    0.000000    0.000000    0.000000    0.000000
  0.038056112  -39.674346   52.163715   -9.272331  -56.813713    0.000000    0.000000    0.000000    0.000000
  0.038256513  -40.196613   60.602795   -9.210052  -58.203049    0.000000    0.000000    0.000000    0.000000
  0.038456914  -39.911614   56.385120   -9.233646  -60.591881    0.000000    0.000000    0.000000    0.000000
  0.038657315  -40.118116   60.891808   -9.216027  -62.277699    0.000000    0.000000    0.000000    0.000000
  0.038857715  -39.744215   64.258102   -9.204641  -64.303162    0.000000    0.000000    0.000000    0.000000
  0.039058116  -39.765826   63.655136   -9.216055  -66.400436    0.000000    0.000000    0.000000    0.000000
  0.039258517  -39.950934   64.060547   -9.166710  -68.128067    0.000000    0.000000    0.000000    0.000000
  0.039458918  -40.197854   67.060570   -9.195682  -69.892570    0.000000    0.000000    0.000000    0.000000
  0.039659319  -40.171469   66.110168   -9.205633  -72.119423    0.000000    0.000000    0.000000    0.000000
  0.039859719  -40.093962   69.398521   -9.231442  -73.398209    0.000000    0.000000    0.000000    0.000000
  0.040060120  -40.228483   70.357323   -9.199838  -75.500847    0.000000    0.000000    0.000000    0.000000
  0.040260521  -39.726194   70.149307   -9.237190  -77.105522    0.000000    0.000000    0.000000    0.000000
  0.040460922  -40.673226   74.073296   -9.201065  -78.457512    0.000000    0.000000    0.000000    0.000000
  0.040661323  -39.725425   71.402534   -9.274685  -80.587601    0.000000    0.000000    0.000000    0.000000
  0.040861723  -40.113225   71.751717   -9.247106  -82.440231    0.000000    0.000000    0.000000    0.000000
  0.041062124  -39.085076   79.182991   -9.248000  -84.054253    0.000000    0.000000    0.000000    0.000000
  0.041262525  -40.390955   75.774452   -9.187552  -85.388359    0.000000    0.000000    0.000000    0.000000
  0.041462926  -39.604848   72.846329   -9.249855  -87.241829    0.000000    0.000000    0.000000    0.000000
  0.041663327  -39.696015   80.059486   -9.244762  -88.777046    0.000000    0.000000    0.000000    0.000000
  0.041863727  -40.148218   82.629646   -9.269875  -90.546745    0.000000    0.000000    0.000000    0.000000
  0.042064128  -40.066443   81.863113   -9.280657  -92.224831    0.000000    0.000000    0.000000    0.000000
  0.042264529  -40.218252   81.820702   -9.198052  -93.767715    0.000000    0.000000    0.000000    0.000000
  0.042464930  -39.924650   80.416115   -9.232491  -95.438904    0.000000    0.000000    0.000000    0.000000
  0.042665331  -39.387400   84.542198   -9.195745  -96.858910    0.000000    0.000000    0.000000    0.000000
  0.042865731  -40.019785   85.385719   -9.175332  -98.938644    0.000000    0.000000    0.000000    0.000000
