! Anritsu VNA Master:                 Model: MS2034B/10/19/501
! SN:                                  1337062
! /bd0/ovro-jan-2016/dcp-a1-s11.s2p
! Existing Calibration Information:
! TYPE:                         Current Settings,       Active Cal Settings
! TIME:             	   01/10/2016 03:21:47 PM,    01/10/2016 03:13:30 PM
! INTERNAL TEMP:    	                   44.0 C,                    45.8 C
! # POINTS:         	                      500,                       500
! START FREQ:       	               10.000 MHz,                10.000 MHz
! STOP FREQ:        	              110.000 MHz,               110.000 MHz
! SOURCE POWER:     	                      Low,                       Low
! IFBW:             	                   100 Hz,                    100 Hz
! AVG FACTOR:       	                       3 ,                        3 
! REF PLANE 1:      	                 2.2245 m,                  2.2245 m
! REF PLANE 2:      	                     0 mm,                      0 mm
! CAL TYPE:         	             1P2P S11,S21,              1P2P S11,S21
! CAL METHOD:       	                     SOLT,                      SOLT
! CAL LINE TYPE:    	                     Coax,                      Coax
! DUT PORT 1:       	                K-Conn(M),                 K-Conn(M)
! DUT PORT 2:       	                N-Conn(M),                 N-Conn(M)
! CAL STATUS:       	        OK: Accuracy High,                        --
# GHZ S DB R 50.0
! FREQ.GHZ       S11DB        S11A       S21DB        S21A       S12DB        S12A       S22DB        S22A
  0.010000000  -23.077302 -171.404953  -43.315680 -139.450974    0.000000    0.000000    0.000000    0.000000
  0.010200401  -23.031423 -172.640335  -45.252396 -139.633911    0.000000    0.000000    0.000000    0.000000
  0.010400802  -23.263543 -173.569977  -48.282036 -139.039444    0.000000    0.000000    0.000000    0.000000
  0.010601202  -23.442209 -178.052597  -54.041568 -138.921585    0.000000    0.000000    0.000000    0.000000
  0.010801603  -23.339827 -177.756241  -68.083629  -96.528137    0.000000    0.000000    0.000000    0.000000
  0.011002004  -23.571138  179.935059  -57.313017   24.490711    0.000000    0.000000    0.000000    0.000000
  0.011202405  -23.421624  179.460754  -50.549353   20.993721    0.000000    0.000000    0.000000    0.000000
  0.011402806  -23.655210  178.073013  -47.979184   23.068943    0.000000    0.000000    0.000000    0.000000
  0.011603206  -23.435255  176.232300  -45.348394   21.522947    0.000000    0.000000    0.000000    0.000000
  0.011803607  -23.652748  173.358124  -43.230825   19.092127    0.000000    0.000000    0.000000    0.000000
  0.012004008  -23.400760  173.638306  -42.571765   21.137804    0.000000    0.000000    0.000000    0.000000
  0.012204409  -23.688928  171.475510  -41.365298   18.921255    0.000000    0.000000    0.000000    0.000000
  0.012404810  -23.665960  170.654373  -41.268451   16.675987    0.000000    0.000000    0.000000    0.000000
  0.012605210  -23.668034  168.979141  -40.596369   16.032862    0.000000    0.000000    0.000000    0.000000
  0.012805611  -23.596480  168.306244  -40.598155   14.498234    0.000000    0.000000    0.000000    0.000000
  0.013006012  -23.623530  164.066666  -40.888814   13.321101    0.000000    0.000000    0.000000    0.000000
  0.013206413  -23.799907  164.395493  -41.318013   13.432142    0.000000    0.000000    0.000000    0.000000
  0.013406814  -23.836276  163.584320  -42.076762   13.097276    0.000000    0.000000    0.000000    0.000000
  0.013607214  -23.946006  162.791641  -43.562048   13.518362    0.000000    0.000000    0.000000    0.000000
  0.013807615  -23.861633  160.662613  -45.595708   12.823414    0.000000    0.000000    0.000000    0.000000
  0.014008016  -23.890756  159.553268  -48.418575   19.611753    0.000000    0.000000    0.000000    0.000000
  0.014208417  -23.857508  156.520065  -54.097102   39.440048    0.000000    0.000000    0.000000    0.000000
  0.014408818  -24.086453  155.782547  -56.240006  118.287567    0.000000    0.000000    0.000000    0.000000
  0.014609218  -24.067026  154.263550  -48.102666  152.912231    0.000000    0.000000    0.000000    0.000000
  0.014809619  -24.173072  153.182983  -43.409648  160.073318    0.000000    0.000000    0.000000    0.000000
  0.015010020  -24.039085  152.588974  -39.616718  162.094193    0.000000    0.000000    0.000000    0.000000
  0.015210421  -24.254000  150.419418  -37.109451  162.506561    0.000000    0.000000    0.000000    0.000000
  0.015410822  -24.254406  149.471298  -34.798077  161.763977    0.000000    0.000000    0.000000    0.000000
  0.015611222  -24.310474  146.214508  -32.940419  161.344788    0.000000    0.000000    0.000000    0.000000
  0.015811623  -24.365029  145.323578  -31.311116  159.413727    0.000000    0.000000    0.000000    0.000000
  0.016012024  -24.480273  144.184662  -29.801799  157.651978    0.000000    0.000000    0.000000    0.000000
  0.016212425  -24.490610  142.204300  -28.622137  156.570328    0.000000    0.000000    0.000000    0.000000
  0.016412826  -24.484970  138.893341  -27.361792  154.310623    0.000000    0.000000    0.000000    0.000000
  0.016613226  -24.436449  138.651291  -26.324565  152.981613    0.000000    0.000000    0.000000    0.000000
  0.016813627  -24.563448  136.502197  -25.488443  151.035553    0.000000    0.000000    0.000000    0.000000
  0.017014028  -24.557308  134.524353  -24.657044  149.606949    0.000000    0.000000    0.000000    0.000000
  0.017214429  -24.646170  133.526382  -23.916700  147.640549    0.000000    0.000000    0.000000    0.000000
  0.017414830  -24.705291  131.783691  -23.303040  146.074554    0.000000    0.000000    0.000000    0.000000
  0.017615230  -24.705338  128.843735  -22.844107  144.106247    0.000000    0.000000    0.000000    0.000000
  0.017815631  -24.600684  127.316475  -22.394465  142.698883    0.000000    0.000000    0.000000    0.000000
  0.018016032  -24.538521  125.436043  -22.054211  140.055847    0.000000    0.000000    0.000000    0.000000
  0.018216433  -24.650750  121.862801  -21.825231  138.512894    0.000000    0.000000    0.000000    0.000000
  0.018416834  -24.551567  121.228218  -21.922411  136.972061    0.000000    0.000000    0.000000    0.000000
  0.018617234  -24.745052  118.680656  -21.930365  135.548782    0.000000    0.000000    0.000000    0.000000
  0.018817635  -24.581940  115.979324  -22.255352  133.654739    0.000000    0.000000    0.000000    0.000000
  0.019018036  -24.594201  113.301369  -22.885313  132.368591    0.000000    0.000000    0.000000    0.000000
  0.019218437  -24.634297  111.647018  -23.847126  131.887802    0.000000    0.000000    0.000000    0.000000
  0.019418838  -24.617972  109.248451  -25.389887  132.038574    0.000000    0.000000    0.000000    0.000000
  0.019619238  -24.632559  107.182487  -27.948142  135.938416    0.000000    0.000000    0.000000    0.000000
  0.019819639  -24.627878  104.804382  -32.420991  149.324249    0.000000    0.000000    0.000000    0.000000
  0.020020040  -24.472162  100.666473  -36.844444 -144.288605    0.000000    0.000000    0.000000    0.000000
  0.020220441  -24.647572   97.615517  -29.080050  -94.451279    0.000000    0.000000    0.000000    0.000000
  0.020420842  -24.490063   95.871956  -23.198695  -85.403992    0.000000    0.000000    0.000000    0.000000
  0.020621242  -24.277137   91.108910  -19.111509  -83.384201    0.000000    0.000000    0.000000    0.000000
  0.020821643  -24.383078   90.425400  -15.888420  -83.451424    0.000000    0.000000    0.000000    0.000000
  0.021022044  -24.170117   87.773781  -13.184707  -84.487083    0.000000    0.000000    0.000000    0.000000
  0.021222445  -24.257021   84.288048  -10.770702  -85.853119    0.000000    0.000000    0.000000    0.000000
  0.021422846  -23.898819   82.042099   -8.609316  -87.974266    0.000000    0.000000    0.000000    0.000000
  0.021623246  -23.834001   79.657379   -6.653120  -89.861687    0.000000    0.000000    0.000000    0.000000
  0.021823647  -23.709893   76.926628   -4.739725  -92.265839    0.000000    0.000000    0.000000    0.000000
  0.022024048  -23.721504   72.781349   -2.992530  -94.888954    0.000000    0.000000    0.000000    0.000000
  0.022224449  -23.508981   71.054230   -1.323947  -97.652153    0.000000    0.000000    0.000000    0.000000
  0.022424850  -23.532690   67.187752    0.174405  -99.788109    0.000000    0.000000    0.000000    0.000000
  0.022625251  -23.315442   64.535667    1.705723 -103.055634    0.000000    0.000000    0.000000    0.000000
  0.022825651  -23.100419   60.753864    3.130964 -106.073204    0.000000    0.000000    0.000000    0.000000
  0.023026052  -22.969709   57.576744    4.649114 -108.824669    0.000000    0.000000    0.000000    0.000000
  0.023226453  -22.771251   54.540352    5.956446 -112.245369    0.000000    0.000000    0.000000    0.000000
  0.023426854  -22.234647   54.221203    7.166694 -113.176353    0.000000    0.000000    0.000000    0.000000
  0.023627255  -21.982967   51.109982    8.448562 -116.508957    0.000000    0.000000    0.000000    0.000000
  0.023827655  -21.865671   49.019772    9.712711 -119.618889    0.000000    0.000000    0.000000    0.000000
  0.024028056  -21.559686   45.323044   11.047721 -123.389229    0.000000    0.000000    0.000000    0.000000
  0.024228457  -21.596332   42.145103   12.170977 -127.281876    0.000000    0.000000    0.000000    0.000000
  0.024428858  -21.180239   39.500271   13.455959 -131.415085    0.000000    0.000000    0.000000    0.000000
  0.024629259  -20.826157   35.525555   14.670727 -135.404678    0.000000    0.000000    0.000000    0.000000
  0.024829659  -20.840160   32.118584   15.725290 -140.254410    0.000000    0.000000    0.000000    0.000000
  0.025030060  -20.650373   29.392002   16.890012 -144.665268    0.000000    0.000000    0.000000    0.000000
  0.025230461  -20.314447   25.070667   18.067681 -149.753326    0.000000    0.000000    0.000000    0.000000
  0.025430862  -20.532755   21.332273   19.257953 -154.449875    0.000000    0.000000    0.000000    0.000000
  0.025631263  -20.136255   18.366446   20.387132 -159.905960    0.000000    0.000000    0.000000    0.000000
  0.025831663  -20.029498   14.298244   21.472330 -165.276474    0.000000    0.000000    0.000000    0.000000
  0.026032064  -20.038506   10.152846   22.572217 -170.951096    0.000000    0.000000    0.000000    0.000000
  0.026232465  -19.768468    5.787255   23.612441 -176.535141    0.000000    0.000000    0.000000    0.000000
  0.026432866  -19.888669    1.079984   24.545481  177.562057    0.000000    0.000000    0.000000    0.000000
  0.026633267  -19.993777   -3.639842   25.525273  170.901749    0.000000    0.000000    0.000000    0.000000
  0.026833667  -20.041669   -9.922310   26.409366  164.975418    0.000000    0.000000    0.000000    0.000000
  0.027034068  -20.155137  -12.942721   27.178075  158.084442    0.000000    0.000000    0.000000    0.000000
  0.027234469  -20.455977  -17.915499   27.969190  151.081482    0.000000    0.000000    0.000000    0.000000
  0.027434870  -20.623260  -22.827621   28.619819  143.775436    0.000000    0.000000    0.000000    0.000000
  0.027635271  -21.080408  -27.631472   29.172782  136.389587    0.000000    0.000000    0.000000    0.000000
  0.027835671  -21.746408  -31.513039   29.667291  128.768356    0.000000    0.000000    0.000000    0.000000
  0.028036072  -22.140791  -37.087849   30.067515  121.777084    0.000000    0.000000    0.000000    0.000000
  0.028236473  -22.932263  -41.344536   30.411665  114.467651    0.000000    0.000000    0.000000    0.000000
  0.028436874  -23.618465  -41.615322   30.709766  107.596458    0.000000    0.000000    0.000000    0.000000
  0.028637275  -24.436497  -44.481033   30.930269  100.473564    0.000000    0.000000    0.000000    0.000000
  0.028837675  -25.231967  -46.444771   31.081964   93.941986    0.000000    0.000000    0.000000    0.000000
  0.029038076  -26.181173  -46.969055   31.270040   88.006210    0.000000    0.000000    0.000000    0.000000
  0.029238477  -27.002208  -48.942402   31.343086   81.702644    0.000000    0.000000    0.000000    0.000000
  0.029438878  -27.899181  -47.992283   31.438278   76.425705    0.000000    0.000000    0.000000    0.000000
  0.029639279  -28.728104  -47.550026   31.507832   70.854645    0.000000    0.000000    0.000000    0.000000
  0.029839679  -29.597582  -43.218044   31.593543   65.776947    0.000000    0.000000    0.000000    0.000000
  0.030040080  -30.398686  -42.972935   31.603778   61.300396    0.000000    0.000000    0.000000    0.000000
  0.030240481  -30.986826  -37.481911   31.633512   56.076931    0.000000    0.000000    0.000000    0.000000
  0.030440882  -31.370061  -34.997375   31.617309   52.123550    0.000000    0.000000    0.000000    0.000000
  0.030641283  -32.082366  -31.133690   31.642043   48.066910    0.000000    0.000000    0.000000    0.000000
  0.030841683  -32.247592  -26.691315   31.705786   43.562237    0.000000    0.000000    0.000000    0.000000
  0.031042084  -32.766841  -22.613089   31.709147   39.770889    0.000000    0.000000    0.000000    0.000000
  0.031242485  -32.717917  -20.298573   31.721534   35.768425    0.000000    0.000000    0.000000    0.000000
  0.031442886  -32.901616  -17.556126   31.689377   31.788742    0.000000    0.000000    0.000000    0.000000
  0.031643287  -32.825112  -13.178169   31.758716   28.206911    0.000000    0.000000    0.000000    0.000000
  0.031843687  -32.113538  -14.010607   31.826556   24.413481    0.000000    0.000000    0.000000    0.000000
  0.032044088  -33.098595   -8.364053   31.759139   20.682400    0.000000    0.000000    0.000000    0.000000
  0.032244489  -33.179804   -6.050217   31.847662   17.200184    0.000000    0.000000    0.000000    0.000000
  0.032444890  -33.069642   -4.711064   31.888039   13.977965    0.000000    0.000000    0.000000    0.000000
  0.032645291  -32.478129   -4.162907   31.909928   10.891465    0.000000    0.000000    0.000000    0.000000
  0.032845691  -33.248277   -2.235429   31.913733    7.762269    0.000000    0.000000    0.000000    0.000000
  0.033046092  -32.946245   -4.007860   31.945063    4.905685    0.000000    0.000000    0.000000    0.000000
  0.033246493  -33.280255   -0.427483   31.899775    2.464097    0.000000    0.000000    0.000000    0.000000
  0.033446894  -33.770131    2.532526   31.915450   -0.615519    0.000000    0.000000    0.000000    0.000000
  0.033647295  -33.758950    1.771395   31.932558   -2.979439    0.000000    0.000000    0.000000    0.000000
  0.033847695  -33.737509   -0.040809   31.970946   -5.723065    0.000000    0.000000    0.000000    0.000000
  0.034048096  -33.679709    1.772709   32.012082   -8.613364    0.000000    0.000000    0.000000    0.000000
  0.034248497  -33.361143    4.946408   32.045953  -11.171124    0.000000    0.000000    0.000000    0.000000
  0.034448898  -34.047218    5.186624   32.105308  -13.921304    0.000000    0.000000    0.000000    0.000000
  0.034649299  -34.346602    3.362674   32.093296  -16.238882    0.000000    0.000000    0.000000    0.000000
  0.034849699  -34.559112    5.396840   32.174390  -18.880310    0.000000    0.000000    0.000000    0.000000
  0.035050100  -34.863458    4.974724   32.129249  -21.383591    0.000000    0.000000    0.000000    0.000000
  0.035250501  -35.064292    9.266503   32.139169  -23.711475    0.000000    0.000000    0.000000    0.000000
  0.035450902  -35.349092    6.788591   32.125640  -26.237387    0.000000    0.000000    0.000000    0.000000
  0.035651303  -35.837778   10.325687   32.084342  -28.515593    0.000000    0.000000    0.000000    0.000000
  0.035851703  -36.249483   10.910668   32.084942  -30.627728    0.000000    0.000000    0.000000    0.000000
  0.036052104  -36.814033   11.873523   32.011127  -33.049778    0.000000    0.000000    0.000000    0.000000
  0.036252505  -36.991645   16.066751   32.021337  -35.424625    0.000000    0.000000    0.000000    0.000000
  0.036452906  -36.558123   17.802361   31.989585  -37.833694    0.000000    0.000000    0.000000    0.000000
  0.036653307  -37.248038   17.278641   31.977193  -40.107204    0.000000    0.000000    0.000000    0.000000
  0.036853707  -38.745767   25.185703   31.925773  -42.599766    0.000000    0.000000    0.000000    0.000000
  0.037054108  -37.893564   21.769226   31.920510  -44.743450    0.000000    0.000000    0.000000    0.000000
  0.037254509  -38.787845   27.962738   31.910853  -46.904106    0.000000    0.000000    0.000000    0.000000
  0.037454910  -37.758509   30.330219   31.948310  -49.113876    0.000000    0.000000    0.000000    0.000000
  0.037655311  -38.806348   39.032291   31.971258  -51.262482    0.000000    0.000000    0.000000    0.000000
  0.037855711  -38.499885   35.296093   31.985343  -53.207115    0.000000    0.000000    0.000000    0.000000
  0.038056112  -39.589530   38.431454   32.018639  -55.201096    0.000000    0.000000    0.000000    0.000000
  0.038256513  -39.499627   47.830227   32.014301  -56.954411    0.000000    0.000000    0.000000    0.000000
  0.038456914  -40.230065   52.420586   32.058825  -58.834873    0.000000    0.000000    0.000000    0.000000
  0.038657315  -40.362848   53.822113   32.089528  -60.321518    0.000000    0.000000    0.000000    0.000000
  0.038857715  -39.758910   54.475147   32.144507  -61.786163    0.000000    0.000000    0.000000    0.000000
  0.039058116  -39.955527   56.640995   32.073892  -63.438778    0.000000    0.000000    0.000000    0.000000
  0.039258517  -40.729922   64.314362   32.120836  -65.169067    0.000000    0.000000    0.000000    0.000000
  0.039458918  -40.313179   67.558380   32.114283  -66.912170    0.000000    0.000000    0.000000    0.000000
  0.039659319  -40.457209   74.252937   32.101520  -68.757401    0.000000    0.000000    0.000000    0.000000
  0.039859719  -40.092584   76.410187   32.082786  -70.899750    0.000000    0.000000    0.000000    0.000000
  0.040060120  -39.939114   76.036682   32.027997  -72.729797    0.000000    0.000000    0.000000    0.000000
  0.040260521  -40.384302   74.277534   32.067749  -74.911354    0.000000    0.000000    0.000000    0.000000
  0.040460922  -39.475182   82.580338   32.047935  -76.883827    0.000000    0.000000    0.000000    0.000000
  0.040661323  -39.821214   86.024010   32.034649  -78.647316    0.000000    0.000000    0.000000    0.000000
  0.040861723  -40.317818   86.657349   32.019551  -80.608360    0.000000    0.000000    0.000000    0.000000
  0.041062124  -39.763612   93.428261   32.083097  -82.098427    0.000000    0.000000    0.000000    0.000000
  0.041262525  -40.396452   87.027145   32.106222  -83.554138    0.000000    0.000000    0.000000    0.000000
  0.041462926  -40.340497   94.543999   32.145590  -84.508026    0.000000    0.000000    0.000000    0.000000
  0.041663327  -39.931915   94.700211   32.189191  -86.092918    0.000000    0.000000    0.000000    0.000000
  0.041863727  -38.613597   93.501488   32.187816  -87.215744    0.000000    0.000000    0.000000    0.000000
  0.042064128  -38.807214   95.556488   32.232925  -89.056572    0.000000    0.000000    0.000000    0.000000
  0.042264529  -39.389273   96.748650   32.280210  -90.272255    0.000000    0.000000    0.000000    0.000000
  0.042464930  -39.499434  101.463737   32.252956  -92.478989    0.000000    0.000000    0.000000    0.000000
  0.042665331  -39.899913  103.738945   32.247979  -94.015869    0.000000    0.000000    0.000000    0.000000
  0.042865731  -40.098089  108.429832   32.261565  -96.318192    0.000000    0.000000    0.000000    0.000000
