! Anritsu VNA Master:                 Model: MS2034B/10/19/501
! SN:                                  1337062
! /bd0/ovro-jan-2016/dcp-d2-s11-v2.s2p
! Existing Calibration Information:
! TYPE:                         Current Settings,       Active Cal Settings
! TIME:             	   01/09/2016 02:15:56 PM,    01/09/2016 12:40:35 PM
! INTERNAL TEMP:    	                   41.0 C,                    41.8 C
! # POINTS:         	                      500,                       500
! START FREQ:       	               10.000 MHz,                10.000 MHz
! STOP FREQ:        	              110.000 MHz,               110.000 MHz
! SOURCE POWER:     	                      Low,                       Low
! IFBW:             	                   100 Hz,                    100 Hz
! AVG FACTOR:       	                       3 ,                        3 
! REF PLANE 1:      	                 2.2245 m,                  2.2245 m
! REF PLANE 2:      	                     0 mm,                      0 mm
! CAL TYPE:         	             1P2P S11,S21,              1P2P S11,S21
! CAL METHOD:       	                     SOLT,                      SOLT
! CAL LINE TYPE:    	                     Coax,                      Coax
! DUT PORT 1:       	                K-Conn(M),                 K-Conn(M)
! DUT PORT 2:       	                N-Conn(M),                 N-Conn(M)
! CAL STATUS:       	        OK: Accuracy High,                        --
# GHZ S DB R 50.0
! FREQ.GHZ       S11DB        S11A       S21DB        S21A       S12DB        S12A       S22DB        S22A
  0.010000000  -26.432885 -170.189728  -57.132343 -133.245438    0.000000    0.000000    0.000000    0.000000
  0.010200401  -26.228509 -172.019424  -81.304750  -61.685390    0.000000    0.000000    0.000000    0.000000
  0.010400802  -26.664597 -175.025879  -54.674536   27.291481    0.000000    0.000000    0.000000    0.000000
  0.010601202  -26.412216 -178.167801  -49.532968   27.770002    0.000000    0.000000    0.000000    0.000000
  0.010801603  -26.560583  178.330017  -46.263375   28.299286    0.000000    0.000000    0.000000    0.000000
  0.011002004  -26.632437  178.154633  -43.944773   29.540125    0.000000    0.000000    0.000000    0.000000
  0.011202405  -26.490320  173.556885  -42.075043   25.487072    0.000000    0.000000    0.000000    0.000000
  0.011402806  -26.950373  171.592392  -40.795158   24.340115    0.000000    0.000000    0.000000    0.000000
  0.011603206  -26.863790  170.698883  -39.838259   23.185728    0.000000    0.000000    0.000000    0.000000
  0.011803607  -26.802657  165.055679  -39.026363   21.360079    0.000000    0.000000    0.000000    0.000000
  0.012004008  -26.687131  162.958649  -38.276100   20.368999    0.000000    0.000000    0.000000    0.000000
  0.012204409  -26.814840  160.957016  -37.686088   17.609808    0.000000    0.000000    0.000000    0.000000
  0.012404810  -26.709525  158.493271  -37.167450   16.639040    0.000000    0.000000    0.000000    0.000000
  0.012605210  -26.683251  156.329803  -36.926799   14.856940    0.000000    0.000000    0.000000    0.000000
  0.012805611  -26.893023  152.389038  -36.686043   12.827199    0.000000    0.000000    0.000000    0.000000
  0.013006012  -26.876085  149.623138  -36.748263   11.904897    0.000000    0.000000    0.000000    0.000000
  0.013206413  -26.521903  148.232269  -36.883687    9.303211    0.000000    0.000000    0.000000    0.000000
  0.013406814  -26.530200  144.261963  -37.148756    8.547395    0.000000    0.000000    0.000000    0.000000
  0.013607214  -26.545745  143.505737  -37.604102    6.278971    0.000000    0.000000    0.000000    0.000000
  0.013807615  -26.298553  140.976440  -38.158890    6.585189    0.000000    0.000000    0.000000    0.000000
  0.014008016  -26.150943  141.389526  -39.037169    5.432023    0.000000    0.000000    0.000000    0.000000
  0.014208417  -26.264628  136.473236  -40.299857    3.655740    0.000000    0.000000    0.000000    0.000000
  0.014408818  -26.268987  132.698456  -41.910772    3.498005    0.000000    0.000000    0.000000    0.000000
  0.014609218  -25.971513  132.616562  -44.104158    5.074273    0.000000    0.000000    0.000000    0.000000
  0.014809619  -25.673026  129.082214  -48.080088   10.173870    0.000000    0.000000    0.000000    0.000000
  0.015010020  -25.784784  128.966141  -54.647055   34.257492    0.000000    0.000000    0.000000    0.000000
  0.015210421  -25.526448  125.728523  -54.473610  125.932922    0.000000    0.000000    0.000000    0.000000
  0.015410822  -25.413687  123.636848  -46.276069  147.604370    0.000000    0.000000    0.000000    0.000000
  0.015611222  -25.441002  121.282768  -42.034175  153.787201    0.000000    0.000000    0.000000    0.000000
  0.015811623  -25.355625  119.405815  -39.013049  154.721039    0.000000    0.000000    0.000000    0.000000
  0.016012024  -25.160271  118.481064  -36.524193  154.755951    0.000000    0.000000    0.000000    0.000000
  0.016212425  -25.047465  116.306007  -34.551175  153.502762    0.000000    0.000000    0.000000    0.000000
  0.016412826  -24.670723  114.320496  -32.726268  152.066147    0.000000    0.000000    0.000000    0.000000
  0.016613226  -24.666540  112.171806  -31.571933  150.740402    0.000000    0.000000    0.000000    0.000000
  0.016813627  -24.561741  111.136284  -30.183315  149.572327    0.000000    0.000000    0.000000    0.000000
  0.017014028  -24.452323  108.549568  -29.205063  147.544495    0.000000    0.000000    0.000000    0.000000
  0.017214429  -24.298093  108.165733  -28.126248  145.946152    0.000000    0.000000    0.000000    0.000000
  0.017414830  -24.081942  105.482422  -27.392027  144.154846    0.000000    0.000000    0.000000    0.000000
  0.017615230  -23.903841  104.584084  -26.751718  142.654083    0.000000    0.000000    0.000000    0.000000
  0.017815631  -23.671785  103.094292  -26.229352  140.671478    0.000000    0.000000    0.000000    0.000000
  0.018016032  -23.684170  100.631950  -25.759685  138.863220    0.000000    0.000000    0.000000    0.000000
  0.018216433  -23.356170   99.666725  -25.437349  137.301407    0.000000    0.000000    0.000000    0.000000
  0.018416834  -23.255180   98.688942  -25.317588  135.862778    0.000000    0.000000    0.000000    0.000000
  0.018617234  -23.153695   97.330658  -25.293879  134.125046    0.000000    0.000000    0.000000    0.000000
  0.018817635  -23.062140   96.259941  -25.567422  132.621674    0.000000    0.000000    0.000000    0.000000
  0.019018036  -22.942580   92.636429  -26.111808  131.899185    0.000000    0.000000    0.000000    0.000000
  0.019218437  -22.721121   91.991928  -26.997277  131.358170    0.000000    0.000000    0.000000    0.000000
  0.019418838  -22.536804   90.781754  -28.316419  131.518753    0.000000    0.000000    0.000000    0.000000
  0.019619238  -22.253920   89.339218  -30.591497  134.698425    0.000000    0.000000    0.000000    0.000000
  0.019819639  -22.185935   88.885178  -34.670295  146.466171    0.000000    0.000000    0.000000    0.000000
  0.020020040  -22.040515   87.166290  -39.818013 -158.126740    0.000000    0.000000    0.000000    0.000000
  0.020220441  -21.972371   85.898361  -33.092562  -98.985161    0.000000    0.000000    0.000000    0.000000
  0.020420842  -21.807610   84.023155  -26.958693  -87.176277    0.000000    0.000000    0.000000    0.000000
  0.020621242  -21.706931   82.850052  -22.582026  -84.116661    0.000000    0.000000    0.000000    0.000000
  0.020821643  -21.537012   80.303421  -19.322111  -83.752388    0.000000    0.000000    0.000000    0.000000
  0.021022044  -21.436275   79.380913  -16.575744  -84.999855    0.000000    0.000000    0.000000    0.000000
  0.021222445  -21.290546   78.162483  -14.147991  -86.212296    0.000000    0.000000    0.000000    0.000000
  0.021422846  -21.258175   77.043655  -11.953493  -88.153107    0.000000    0.000000    0.000000    0.000000
  0.021623246  -21.124523   74.560921   -9.973259  -89.869980    0.000000    0.000000    0.000000    0.000000
  0.021823647  -20.937186   73.207832   -7.996399  -91.630440    0.000000    0.000000    0.000000    0.000000
  0.022024048  -20.832046   71.484818   -6.264263  -93.880470    0.000000    0.000000    0.000000    0.000000
  0.022224449  -20.607699   70.280861   -4.527956  -96.249977    0.000000    0.000000    0.000000    0.000000
  0.022424850  -20.503722   68.288689   -2.973588  -98.895332    0.000000    0.000000    0.000000    0.000000
  0.022625251  -20.507635   66.899910   -1.360981 -101.680565    0.000000    0.000000    0.000000    0.000000
  0.022825651  -20.306460   65.626343   -0.063544 -104.016029    0.000000    0.000000    0.000000    0.000000
  0.023026052  -20.248148   63.218933    1.431275 -106.856979    0.000000    0.000000    0.000000    0.000000
  0.023226453  -20.024120   61.830593    2.844479 -109.640274    0.000000    0.000000    0.000000    0.000000
  0.023426854  -20.042246   59.570457    4.194777 -112.499664    0.000000    0.000000    0.000000    0.000000
  0.023627255  -20.015226   58.055084    5.543274 -116.349129    0.000000    0.000000    0.000000    0.000000
  0.023827655  -19.850548   55.597958    6.826569 -119.295441    0.000000    0.000000    0.000000    0.000000
  0.024028056  -19.458025   55.708248    7.819667 -120.424812    0.000000    0.000000    0.000000    0.000000
  0.024228457  -19.399189   53.314915    9.088186 -124.039528    0.000000    0.000000    0.000000    0.000000
  0.024428858  -19.352345   50.540359   10.289241 -127.447952    0.000000    0.000000    0.000000    0.000000
  0.024629259  -19.101050   48.817192   11.546220 -131.151047    0.000000    0.000000    0.000000    0.000000
  0.024829659  -19.055590   47.737240   12.510862 -135.689362    0.000000    0.000000    0.000000    0.000000
  0.025030060  -18.993926   44.187454   13.806430 -139.868484    0.000000    0.000000    0.000000    0.000000
  0.025230461  -18.911465   41.849743   15.019036 -143.813309    0.000000    0.000000    0.000000    0.000000
  0.025430862  -18.979604   38.900814   16.187184 -149.145477    0.000000    0.000000    0.000000    0.000000
  0.025631263  -18.767526   36.611462   17.391141 -153.580444    0.000000    0.000000    0.000000    0.000000
  0.025831663  -18.756917   34.215492   18.474863 -159.257629    0.000000    0.000000    0.000000    0.000000
  0.026032064  -18.909877   30.697872   19.641862 -164.072571    0.000000    0.000000    0.000000    0.000000
  0.026232465  -18.849912   26.689985   20.677111 -170.048843    0.000000    0.000000    0.000000    0.000000
  0.026432866  -18.970842   23.815590   21.777988 -175.699615    0.000000    0.000000    0.000000    0.000000
  0.026633267  -19.039750   19.529480   22.729881  178.412582    0.000000    0.000000    0.000000    0.000000
  0.026833667  -19.339060   16.735304   23.784188  172.152130    0.000000    0.000000    0.000000    0.000000
  0.027034068  -19.573511   12.095313   24.699641  165.641861    0.000000    0.000000    0.000000    0.000000
  0.027234469  -19.906882    8.778790   25.544204  159.080368    0.000000    0.000000    0.000000    0.000000
  0.027434870  -20.249653    5.285690   26.407918  151.315445    0.000000    0.000000    0.000000    0.000000
  0.027635271  -20.819339    0.412217   27.034823  143.856293    0.000000    0.000000    0.000000    0.000000
  0.027835671  -21.532837   -3.181960   27.658426  136.262146    0.000000    0.000000    0.000000    0.000000
  0.028036072  -22.177170   -6.061356   28.167771  129.164825    0.000000    0.000000    0.000000    0.000000
  0.028236473  -22.959119   -8.072872   28.636216  121.254463    0.000000    0.000000    0.000000    0.000000
  0.028436874  -23.854688  -11.568554   28.943477  114.677254    0.000000    0.000000    0.000000    0.000000
  0.028637275  -24.563431  -11.041884   29.285692  106.896576    0.000000    0.000000    0.000000    0.000000
  0.028837675  -25.782686  -11.919352   29.549155   99.598976    0.000000    0.000000    0.000000    0.000000
  0.029038076  -26.786941   -8.936540   29.685329   92.801704    0.000000    0.000000    0.000000    0.000000
  0.029238477  -27.738393   -5.905009   29.836175   87.053482    0.000000    0.000000    0.000000    0.000000
  0.029438878  -28.314991   -5.670202   29.941659   81.098930    0.000000    0.000000    0.000000    0.000000
  0.029639279  -29.023818   -1.622153   30.009799   74.805885    0.000000    0.000000    0.000000    0.000000
  0.029839679  -29.369814    4.721382   30.105095   69.397797    0.000000    0.000000    0.000000    0.000000
  0.030040080  -29.975558    9.261423   30.094789   64.538994    0.000000    0.000000    0.000000    0.000000
  0.030240481  -30.218057   13.983370   30.144838   59.968220    0.000000    0.000000    0.000000    0.000000
  0.030440882  -30.420811   18.516054   30.195282   55.262321    0.000000    0.000000    0.000000    0.000000
  0.030641283  -29.686425   19.843445   30.131968   51.264328    0.000000    0.000000    0.000000    0.000000
  0.030841683  -29.892578   22.587763   30.162582   47.178616    0.000000    0.000000    0.000000    0.000000
  0.031042084  -29.956136   25.172924   30.207079   43.209293    0.000000    0.000000    0.000000    0.000000
  0.031242485  -30.392597   27.306173   30.199522   39.115410    0.000000    0.000000    0.000000    0.000000
  0.031442886  -29.515983   29.554625   30.222684   35.290688    0.000000    0.000000    0.000000    0.000000
  0.031643287  -29.866989   29.741806   30.290533   31.583328    0.000000    0.000000    0.000000    0.000000
  0.031843687  -29.838582   30.102379   30.240115   27.485775    0.000000    0.000000    0.000000    0.000000
  0.032044088  -29.794683   31.766497   30.266905   23.905384    0.000000    0.000000    0.000000    0.000000
  0.032244489  -29.813611   33.548367   30.286824   20.512096    0.000000    0.000000    0.000000    0.000000
  0.032444890  -29.868648   33.625870   30.260313   16.831051    0.000000    0.000000    0.000000    0.000000
  0.032645291  -29.764758   33.679207   30.319349   13.372300    0.000000    0.000000    0.000000    0.000000
  0.032845691  -30.010770   35.294838   30.345418   10.212059    0.000000    0.000000    0.000000    0.000000
  0.033046092  -30.101491   34.067219   30.319155    7.409524    0.000000    0.000000    0.000000    0.000000
  0.033246493  -30.058545   37.696140   30.322612    4.220492    0.000000    0.000000    0.000000    0.000000
  0.033446894  -30.537547   34.655548   30.381841    1.883782    0.000000    0.000000    0.000000    0.000000
  0.033647295  -30.744626   35.066006   30.345313   -1.205665    0.000000    0.000000    0.000000    0.000000
  0.033847695  -30.846649   36.518162   30.340702   -3.625602    0.000000    0.000000    0.000000    0.000000
  0.034048096  -30.744158   37.337685   30.329103   -6.166444    0.000000    0.000000    0.000000    0.000000
  0.034248497  -31.482904   40.866528   30.361226   -9.295859    0.000000    0.000000    0.000000    0.000000
  0.034448898  -31.268978   41.979652   30.333767  -11.647462    0.000000    0.000000    0.000000    0.000000
  0.034649299  -31.554009   40.984715   30.319324  -14.342898    0.000000    0.000000    0.000000    0.000000
  0.034849699  -31.671407   40.459957   30.317484  -17.203875    0.000000    0.000000    0.000000    0.000000
  0.035050100  -32.297211   43.564636   30.283192  -19.874510    0.000000    0.000000    0.000000    0.000000
  0.035250501  -31.949842   44.114609   30.323775  -22.674646    0.000000    0.000000    0.000000    0.000000
  0.035450902  -32.340521   47.997185   30.312758  -25.250473    0.000000    0.000000    0.000000    0.000000
  0.035651303  -32.614820   46.888912   30.277067  -28.149385    0.000000    0.000000    0.000000    0.000000
  0.035851703  -32.534426   52.790836   30.278738  -30.412319    0.000000    0.000000    0.000000    0.000000
  0.036052104  -32.330659   52.897419   30.201924  -32.645519    0.000000    0.000000    0.000000    0.000000
  0.036252505  -32.655076   56.352634   30.204189  -35.231449    0.000000    0.000000    0.000000    0.000000
  0.036452906  -32.622271   56.762695   30.163730  -37.342964    0.000000    0.000000    0.000000    0.000000
  0.036653307  -32.241849   61.394424   30.177064  -39.729515    0.000000    0.000000    0.000000    0.000000
  0.036853707  -33.006221   60.514118   30.136375  -41.752274    0.000000    0.000000    0.000000    0.000000
  0.037054108  -32.888705   62.200123   30.115343  -43.732464    0.000000    0.000000    0.000000    0.000000
  0.037254509  -32.882763   66.035088   30.177416  -45.938606    0.000000    0.000000    0.000000    0.000000
  0.037454910  -32.515906   66.248528   30.200276  -48.171856    0.000000    0.000000    0.000000    0.000000
  0.037655311  -33.116378   66.930611   30.222223  -50.096497    0.000000    0.000000    0.000000    0.000000
  0.037855711  -32.762388   71.118317   30.244041  -51.820236    0.000000    0.000000    0.000000    0.000000
  0.038056112  -33.063226   73.725548   30.314418  -53.395191    0.000000    0.000000    0.000000    0.000000
  0.038256513  -32.525397   74.255600   30.373673  -55.283672    0.000000    0.000000    0.000000    0.000000
  0.038456914  -32.773169   78.147263   30.431864  -57.264111    0.000000    0.000000    0.000000    0.000000
  0.038657315  -32.373239   80.091080   30.391643  -58.982243    0.000000    0.000000    0.000000    0.000000
  0.038857715  -32.717182   78.040047   30.393146  -60.893608    0.000000    0.000000    0.000000    0.000000
  0.039058116  -32.405719   80.726097   30.385968  -62.499714    0.000000    0.000000    0.000000    0.000000
  0.039258517  -32.147903   81.535988   30.368662  -65.033348    0.000000    0.000000    0.000000    0.000000
  0.039458918  -31.809892   82.689575   30.342236  -66.637833    0.000000    0.000000    0.000000    0.000000
  0.039659319  -32.089048   83.263275   30.329495  -69.032959    0.000000    0.000000    0.000000    0.000000
  0.039859719  -31.673133   83.892342   30.229745  -70.691635    0.000000    0.000000    0.000000    0.000000
  0.040060120  -31.517488   86.478638   30.248286  -72.968559    0.000000    0.000000    0.000000    0.000000
  0.040260521  -31.580446   85.246872   30.231410  -74.651665    0.000000    0.000000    0.000000    0.000000
  0.040460922  -31.479146   87.693466   30.214643  -76.612045    0.000000    0.000000    0.000000    0.000000
  0.040661323  -31.326727   89.071472   30.207592  -78.237915    0.000000    0.000000    0.000000    0.000000
  0.040861723  -31.102027   89.537392   30.260738  -79.453072    0.000000    0.000000    0.000000    0.000000
  0.041062124  -31.343248   91.912003   30.273587  -80.919678    0.000000    0.000000    0.000000    0.000000
  0.041262525  -31.323253   91.383820   30.280655  -82.490288    0.000000    0.000000    0.000000    0.000000
  0.041462926  -31.208771   89.514893   30.350636  -83.592728    0.000000    0.000000    0.000000    0.000000
  0.041663327  -31.037961   91.281937   30.346192  -84.862343    0.000000    0.000000    0.000000    0.000000
  0.041863727  -31.021858   93.658569   30.369492  -86.541107    0.000000    0.000000    0.000000    0.000000
  0.042064128  -30.874018   92.237030   30.372199  -87.970848    0.000000    0.000000    0.000000    0.000000
  0.042264529  -30.764095   92.895821   30.396406  -89.945549    0.000000    0.000000    0.000000    0.000000
  0.042464930  -30.519946   92.060051   30.364998  -92.056671    0.000000    0.000000    0.000000    0.000000
  0.042665331  -30.555456   94.159355   30.381844  -94.426590    0.000000    0.000000    0.000000    0.000000
  0.042865731  -30.898648   95.358681   30.400500  -95.827164    0.000000    0.000000    0.000000    0.000000
