! Anritsu VNA Master:                 Model: MS2034B/10/19/501
! SN:                                  1337062
! /bd0/ovro-jan-2016/dcp-c1-s21.s2p
! Existing Calibration Information:
! TYPE:                         Current Settings,       Active Cal Settings
! TIME:             	   01/10/2016 05:28:31 PM,    01/10/2016 03:13:30 PM
! INTERNAL TEMP:    	                   42.3 C,                    45.8 C
! # POINTS:         	                      500,                       500
! START FREQ:       	               10.000 MHz,                10.000 MHz
! STOP FREQ:        	              110.000 MHz,               110.000 MHz
! SOURCE POWER:     	                      Low,                       Low
! IFBW:             	                   100 Hz,                    100 Hz
! AVG FACTOR:       	                       3 ,                        3 
! REF PLANE 1:      	                 2.2245 m,                  2.2245 m
! REF PLANE 2:      	                     0 mm,                      0 mm
! CAL TYPE:         	             1P2P S11,S21,              1P2P S11,S21
! CAL METHOD:       	                     SOLT,                      SOLT
! CAL LINE TYPE:    	                     Coax,                      Coax
! DUT PORT 1:       	                K-Conn(M),                 K-Conn(M)
! DUT PORT 2:       	                N-Conn(M),                 N-Conn(M)
! CAL STATUS:       	        OK: Accuracy High,                        --
# GHZ S DB R 50.0
! FREQ.GHZ       S11DB        S11A       S21DB        S21A       S12DB        S12A       S22DB        S22A
  0.010000000  -26.403120 -172.725464  -66.059641 -113.803177    0.000000    0.000000    0.000000    0.000000
  0.010200401  -26.249326 -175.468475  -57.716906   43.517765    0.000000    0.000000    0.000000    0.000000
  0.010400802  -26.562907 -177.214767  -49.657071   46.242016    0.000000    0.000000    0.000000    0.000000
  0.010601202  -26.586793  178.671692  -46.121764   47.297550    0.000000    0.000000    0.000000    0.000000
  0.010801603  -26.532984  175.292755  -42.841708   46.559139    0.000000    0.000000    0.000000    0.000000
  0.011002004  -26.757487  173.235184  -41.112505   42.363792    0.000000    0.000000    0.000000    0.000000
  0.011202405  -26.612733  171.951965  -39.479425   41.214207    0.000000    0.000000    0.000000    0.000000
  0.011402806  -26.803650  168.820282  -38.105797   38.896755    0.000000    0.000000    0.000000    0.000000
  0.011603206  -26.593686  166.775787  -36.925622   37.397400    0.000000    0.000000    0.000000    0.000000
  0.011803607  -26.814283  162.805069  -36.093526   36.747643    0.000000    0.000000    0.000000    0.000000
  0.012004008  -26.407262  160.857574  -35.371516   33.130375    0.000000    0.000000    0.000000    0.000000
  0.012204409  -26.595467  157.810272  -34.767552   32.701111    0.000000    0.000000    0.000000    0.000000
  0.012404810  -26.455632  155.778580  -34.191983   30.191120    0.000000    0.000000    0.000000    0.000000
  0.012605210  -26.387514  153.443604  -33.780147   27.920141    0.000000    0.000000    0.000000    0.000000
  0.012805611  -26.197176  152.116638  -33.568251   26.777279    0.000000    0.000000    0.000000    0.000000
  0.013006012  -26.185516  146.973938  -33.381925   24.475185    0.000000    0.000000    0.000000    0.000000
  0.013206413  -26.191535  146.636215  -33.199007   23.361591    0.000000    0.000000    0.000000    0.000000
  0.013406814  -26.116121  144.586319  -33.193030   22.351881    0.000000    0.000000    0.000000    0.000000
  0.013607214  -26.211189  143.100510  -33.341164   19.514317    0.000000    0.000000    0.000000    0.000000
  0.013807615  -26.032288  140.081970  -33.599625   18.184952    0.000000    0.000000    0.000000    0.000000
  0.014008016  -25.799297  138.360504  -34.063902   16.837229    0.000000    0.000000    0.000000    0.000000
  0.014208417  -25.557537  135.676895  -34.462884   15.267608    0.000000    0.000000    0.000000    0.000000
  0.014408818  -25.731341  133.360184  -35.094530   13.733673    0.000000    0.000000    0.000000    0.000000
  0.014609218  -25.418549  130.947891  -35.948903   12.634486    0.000000    0.000000    0.000000    0.000000
  0.014809619  -25.479869  130.383865  -37.283783   12.092006    0.000000    0.000000    0.000000    0.000000
  0.015010020  -25.239160  129.051956  -38.893089   11.434129    0.000000    0.000000    0.000000    0.000000
  0.015210421  -25.290446  125.669144  -41.264902   12.233294    0.000000    0.000000    0.000000    0.000000
  0.015410822  -25.125392  125.201668  -44.265939   14.657842    0.000000    0.000000    0.000000    0.000000
  0.015611222  -24.703646  122.587662  -49.767007   29.795399    0.000000    0.000000    0.000000    0.000000
  0.015811623  -24.651911  120.087578  -55.034673  102.906082    0.000000    0.000000    0.000000    0.000000
  0.016012024  -24.610571  119.048370  -46.892475  149.607574    0.000000    0.000000    0.000000    0.000000
  0.016212425  -24.585222  116.679428  -41.875534  158.879639    0.000000    0.000000    0.000000    0.000000
  0.016412826  -24.382900  114.614265  -38.466396  160.082169    0.000000    0.000000    0.000000    0.000000
  0.016613226  -24.097702  113.185883  -36.118443  161.011246    0.000000    0.000000    0.000000    0.000000
  0.016813627  -24.077123  111.579437  -34.248894  160.016464    0.000000    0.000000    0.000000    0.000000
  0.017014028  -23.881528  110.361542  -32.671468  158.407471    0.000000    0.000000    0.000000    0.000000
  0.017214429  -23.934382  108.876961  -31.367763  157.434692    0.000000    0.000000    0.000000    0.000000
  0.017414830  -23.795556  107.271889  -30.428145  156.418137    0.000000    0.000000    0.000000    0.000000
  0.017615230  -23.497461  105.886497  -29.675615  154.439453    0.000000    0.000000    0.000000    0.000000
  0.017815631  -23.293000  104.948959  -29.136568  153.525330    0.000000    0.000000    0.000000    0.000000
  0.018016032  -23.072339  103.087181  -28.765172  150.841187    0.000000    0.000000    0.000000    0.000000
  0.018216433  -23.062025  100.763824  -28.545973  149.988800    0.000000    0.000000    0.000000    0.000000
  0.018416834  -22.865875  100.069481  -28.848911  148.905533    0.000000    0.000000    0.000000    0.000000
  0.018617234  -22.741157   98.568291  -29.179266  148.400665    0.000000    0.000000    0.000000    0.000000
  0.018817635  -22.535917   96.849968  -30.132869  147.523270    0.000000    0.000000    0.000000    0.000000
  0.019018036  -22.378659   94.929436  -31.726936  149.048080    0.000000    0.000000    0.000000    0.000000
  0.019218437  -22.388055   93.680275  -34.841464  154.237198    0.000000    0.000000    0.000000    0.000000
  0.019418838  -22.238252   92.330338  -40.273136  179.950455    0.000000    0.000000    0.000000    0.000000
  0.019619238  -22.142628   90.688126  -38.930551  -96.153069    0.000000    0.000000    0.000000    0.000000
  0.019819639  -21.941216   89.153191  -31.430804  -72.959465    0.000000    0.000000    0.000000    0.000000
  0.020020040  -21.710947   86.921616  -26.189599  -68.059616    0.000000    0.000000    0.000000    0.000000
  0.020220441  -21.806872   84.959679  -22.415131  -66.624901    0.000000    0.000000    0.000000    0.000000
  0.020420842  -21.517810   83.962349  -19.307511  -67.427902    0.000000    0.000000    0.000000    0.000000
  0.020621242  -21.334300   81.283325  -16.630989  -68.657829    0.000000    0.000000    0.000000    0.000000
  0.020821643  -21.415418   80.515808  -14.271894  -70.096268    0.000000    0.000000    0.000000    0.000000
  0.021022044  -21.166782   79.188972  -12.113276  -71.871574    0.000000    0.000000    0.000000    0.000000
  0.021222445  -21.075604   76.927200  -10.102011  -73.875114    0.000000    0.000000    0.000000    0.000000
  0.021422846  -20.812753   75.550179   -8.208384  -76.413872    0.000000    0.000000    0.000000    0.000000
  0.021623246  -20.801089   74.628845   -6.474259  -78.482643    0.000000    0.000000    0.000000    0.000000
  0.021823647  -20.720473   72.723190   -4.724192  -81.057930    0.000000    0.000000    0.000000    0.000000
  0.022024048  -20.634799   70.168327   -3.108221  -83.797470    0.000000    0.000000    0.000000    0.000000
  0.022224449  -20.535069   68.549004   -1.560148  -86.612694    0.000000    0.000000    0.000000    0.000000
  0.022424850  -20.427573   66.593781   -0.139712  -88.778099    0.000000    0.000000    0.000000    0.000000
  0.022625251  -20.278563   64.864967    1.319753  -92.019302    0.000000    0.000000    0.000000    0.000000
  0.022825651  -20.237636   62.629311    2.682194  -95.032059    0.000000    0.000000    0.000000    0.000000
  0.023026052  -20.266704   60.275894    4.155784  -97.756989    0.000000    0.000000    0.000000    0.000000
  0.023226453  -19.967083   58.342976    5.424161 -101.065254    0.000000    0.000000    0.000000    0.000000
  0.023426854  -19.927340   56.614769    6.743413 -104.470741    0.000000    0.000000    0.000000    0.000000
  0.023627255  -19.575962   56.192345    7.857162 -105.480972    0.000000    0.000000    0.000000    0.000000
  0.023827655  -19.505483   54.517921    9.165885 -108.808304    0.000000    0.000000    0.000000    0.000000
  0.024028056  -19.321416   51.778606   10.373186 -112.422470    0.000000    0.000000    0.000000    0.000000
  0.024228457  -19.412747   49.907551   11.512334 -116.040764    0.000000    0.000000    0.000000    0.000000
  0.024428858  -19.185754   47.549713   12.772679 -120.245468    0.000000    0.000000    0.000000    0.000000
  0.024629259  -19.000119   44.409897   13.949345 -124.070251    0.000000    0.000000    0.000000    0.000000
  0.024829659  -19.041913   41.509594   15.010403 -128.514267    0.000000    0.000000    0.000000    0.000000
  0.025030060  -19.002146   39.115002   16.153490 -132.645477    0.000000    0.000000    0.000000    0.000000
  0.025230461  -18.922766   35.709789   17.294011 -137.923767    0.000000    0.000000    0.000000    0.000000
  0.025430862  -19.196209   32.311405   18.489147 -142.559052    0.000000    0.000000    0.000000    0.000000
  0.025631263  -18.931449   29.704695   19.605647 -147.822876    0.000000    0.000000    0.000000    0.000000
  0.025831663  -18.959334   26.626741   20.692408 -152.950500    0.000000    0.000000    0.000000    0.000000
  0.026032064  -19.028933   22.990671   21.815792 -158.510559    0.000000    0.000000    0.000000    0.000000
  0.026232465  -19.068206   18.906713   22.854559 -163.767975    0.000000    0.000000    0.000000    0.000000
  0.026432866  -19.204941   15.000863   23.803696 -169.506149    0.000000    0.000000    0.000000    0.000000
  0.026633267  -19.486788   10.659415   24.821772 -175.866241    0.000000    0.000000    0.000000    0.000000
  0.026833667  -19.708853    4.549150   25.748584  178.474899    0.000000    0.000000    0.000000    0.000000
  0.027034068  -19.979937    1.702559   26.550448  171.710495    0.000000    0.000000    0.000000    0.000000
  0.027234469  -20.410590   -2.695033   27.397375  164.860184    0.000000    0.000000    0.000000    0.000000
  0.027434870  -20.742704   -7.403626   28.105488  157.696533    0.000000    0.000000    0.000000    0.000000
  0.027635271  -21.320104  -11.809215   28.711339  150.412888    0.000000    0.000000    0.000000    0.000000
  0.027835671  -22.065855  -15.791971   29.264113  142.835678    0.000000    0.000000    0.000000    0.000000
  0.028036072  -22.783282  -20.869268   29.718188  135.735703    0.000000    0.000000    0.000000    0.000000
  0.028236473  -23.827686  -24.804693   30.140158  128.425827    0.000000    0.000000    0.000000    0.000000
  0.028436874  -24.603036  -25.031782   30.497553  121.362709    0.000000    0.000000    0.000000    0.000000
  0.028637275  -25.665071  -27.974926   30.772514  114.073692    0.000000    0.000000    0.000000    0.000000
  0.028837675  -26.839827  -29.759127   30.969579  107.351997    0.000000    0.000000    0.000000    0.000000
  0.029038076  -28.062959  -30.782839   31.199801  101.200081    0.000000    0.000000    0.000000    0.000000
  0.029238477  -29.196542  -30.986164   31.300401   94.596436    0.000000    0.000000    0.000000    0.000000
  0.029438878  -30.399543  -28.143496   31.420514   89.092049    0.000000    0.000000    0.000000    0.000000
  0.029639279  -31.578265  -26.344465   31.507909   83.265198    0.000000    0.000000    0.000000    0.000000
  0.029839679  -32.682375  -19.802258   31.616060   77.894394    0.000000    0.000000    0.000000    0.000000
  0.030040080  -33.760222  -13.221672   31.645374   73.188629    0.000000    0.000000    0.000000    0.000000
  0.030240481  -34.478014   -6.202152   31.694573   67.718941    0.000000    0.000000    0.000000    0.000000
  0.030440882  -34.791871    0.443887   31.683035   63.485352    0.000000    0.000000    0.000000    0.000000
  0.030641283  -35.123619    7.727279   31.719996   59.237083    0.000000    0.000000    0.000000    0.000000
  0.030841683  -34.618596   14.383737   31.785376   54.640244    0.000000    0.000000    0.000000    0.000000
  0.031042084  -34.769807   21.404528   31.785168   50.604107    0.000000    0.000000    0.000000    0.000000
  0.031242485  -34.471230   22.406219   31.794120   46.443851    0.000000    0.000000    0.000000    0.000000
  0.031442886  -34.639203   25.105421   31.773536   42.251144    0.000000    0.000000    0.000000    0.000000
  0.031643287  -34.198721   27.852840   31.847005   38.559269    0.000000    0.000000    0.000000    0.000000
  0.031843687  -34.008044   24.761433   31.913523   34.648899    0.000000    0.000000    0.000000    0.000000
  0.032044088  -34.143084   33.637119   31.860490   30.690592    0.000000    0.000000    0.000000    0.000000
  0.032244489  -33.708442   37.177902   31.948387   27.010057    0.000000    0.000000    0.000000    0.000000
  0.032444890  -33.981927   35.963577   31.988395   23.693604    0.000000    0.000000    0.000000    0.000000
  0.032645291  -33.424946   32.903332   32.013057   20.509388    0.000000    0.000000    0.000000    0.000000
  0.032845691  -34.050996   37.707878   32.012230   17.220406    0.000000    0.000000    0.000000    0.000000
  0.033046092  -33.533880   32.784542   32.036613   14.343257    0.000000    0.000000    0.000000    0.000000
  0.033246493  -33.850705   38.389229   31.992885   11.709522    0.000000    0.000000    0.000000    0.000000
  0.033446894  -34.502502   42.035046   32.006834    8.542882    0.000000    0.000000    0.000000    0.000000
  0.033647295  -34.366627   40.073883   32.035246    6.090067    0.000000    0.000000    0.000000    0.000000
  0.033847695  -34.557148   40.173843   32.075793    3.230778    0.000000    0.000000    0.000000    0.000000
  0.034048096  -34.616458   39.362263   32.122782    0.245128    0.000000    0.000000    0.000000    0.000000
  0.034248497  -34.017936   43.423302   32.158927   -2.399273    0.000000    0.000000    0.000000    0.000000
  0.034448898  -34.822388   44.247738   32.223167   -5.302951    0.000000    0.000000    0.000000    0.000000
  0.034649299  -35.112885   42.171673   32.211292   -7.617992    0.000000    0.000000    0.000000    0.000000
  0.034849699  -35.297538   48.253929   32.292777  -10.414184    0.000000    0.000000    0.000000    0.000000
  0.035050100  -35.370042   47.418816   32.238025  -12.928025    0.000000    0.000000    0.000000    0.000000
  0.035250501  -35.292187   51.558971   32.250724  -15.308514    0.000000    0.000000    0.000000    0.000000
  0.035450902  -35.541095   46.915890   32.234317  -17.919331    0.000000    0.000000    0.000000    0.000000
  0.035651303  -36.289677   54.563488   32.189611  -20.261301    0.000000    0.000000    0.000000    0.000000
  0.035851703  -36.199060   56.749054   32.195925  -22.425154    0.000000    0.000000    0.000000    0.000000
  0.036052104  -36.595494   62.455933   32.124949  -24.938322    0.000000    0.000000    0.000000    0.000000
  0.036252505  -35.996592   63.636215   32.136017  -27.432020    0.000000    0.000000    0.000000    0.000000
  0.036452906  -35.980769   62.746052   32.110613  -29.931324    0.000000    0.000000    0.000000    0.000000
  0.036653307  -36.360165   66.179161   32.108067  -32.255993    0.000000    0.000000    0.000000    0.000000
  0.036853707  -36.220964   70.831619   32.051947  -34.779263    0.000000    0.000000    0.000000    0.000000
  0.037054108  -36.083844   71.890121   32.048064  -36.954254    0.000000    0.000000    0.000000    0.000000
  0.037254509  -36.269415   79.325523   32.039844  -39.227509    0.000000    0.000000    0.000000    0.000000
  0.037454910  -35.762103   73.749153   32.070966  -41.440010    0.000000    0.000000    0.000000    0.000000
  0.037655311  -35.476534   83.724922   32.091391  -43.646744    0.000000    0.000000    0.000000    0.000000
  0.037855711  -35.785395   79.253899   32.103927  -45.665600    0.000000    0.000000    0.000000    0.000000
  0.038056112  -35.539102   81.401733   32.135720  -47.706421    0.000000    0.000000    0.000000    0.000000
  0.038256513  -35.330936   86.946251   32.128398  -49.477673    0.000000    0.000000    0.000000    0.000000
  0.038456914  -35.358825   88.754570   32.177289  -51.388550    0.000000    0.000000    0.000000    0.000000
  0.038657315  -35.000639   88.337395   32.213687  -52.984035    0.000000    0.000000    0.000000    0.000000
  0.038857715  -34.702154   91.142220   32.265416  -54.459923    0.000000    0.000000    0.000000    0.000000
  0.039058116  -34.679217   89.922920   32.202772  -56.187176    0.000000    0.000000    0.000000    0.000000
  0.039258517  -34.419177   92.000099   32.251256  -57.982910    0.000000    0.000000    0.000000    0.000000
  0.039458918  -34.526111   94.666389   32.247100  -59.756390    0.000000    0.000000    0.000000    0.000000
  0.039659319  -34.694942   99.043282   32.241528  -61.718567    0.000000    0.000000    0.000000    0.000000
  0.039859719  -34.444651   99.119286   32.216302  -63.825134    0.000000    0.000000    0.000000    0.000000
  0.040060120  -34.001948   99.478615   32.157677  -65.696587    0.000000    0.000000    0.000000    0.000000
  0.040260521  -34.039571   98.035873   32.193398  -67.942055    0.000000    0.000000    0.000000    0.000000
  0.040460922  -33.253394   97.003685   32.174098  -69.941345    0.000000    0.000000    0.000000    0.000000
  0.040661323  -33.654592  100.167633   32.159846  -71.705711    0.000000    0.000000    0.000000    0.000000
  0.040861723  -33.848044  100.759293   32.144548  -73.690186    0.000000    0.000000    0.000000    0.000000
  0.041062124  -33.417864  104.904236   32.199566  -75.182884    0.000000    0.000000    0.000000    0.000000
  0.041262525  -33.778487  100.322998   32.227673  -76.681747    0.000000    0.000000    0.000000    0.000000
  0.041462926  -33.204577  104.809738   32.263776  -77.703033    0.000000    0.000000    0.000000    0.000000
  0.041663327  -33.245527  100.523331   32.311205  -79.337448    0.000000    0.000000    0.000000    0.000000
  0.041863727  -32.588762  100.782722   32.311874  -80.474075    0.000000    0.000000    0.000000    0.000000
  0.042064128  -32.520246  102.828362   32.364036  -82.385361    0.000000    0.000000    0.000000    0.000000
  0.042264529  -32.730089  101.840881   32.409463  -83.695518    0.000000    0.000000    0.000000    0.000000
  0.042464930  -32.896832  102.290268   32.388786  -85.852097    0.000000    0.000000    0.000000    0.000000
  0.042665331  -33.114164  104.663910   32.391536  -87.428566    0.000000    0.000000    0.000000    0.000000
  0.042865731  -32.920055  105.748329   32.400217  -89.789520    0.000000    0.000000    0.000000    0.000000
