! Anritsu VNA Master:                 Model: MS2034B/10/19/501
! SN:                                  1337062
! /bd0/ovro-jan-2016/dcp-z2-s21.s2p
! Existing Calibration Information:
! TYPE:                         Current Settings,       Active Cal Settings
! TIME:             	   01/08/2016 09:25:04 PM,    01/08/2016 08:43:08 PM
! INTERNAL TEMP:    	                   42.3 C,                    45.0 C
! # POINTS:         	                      500,                       500
! START FREQ:       	               10.000 MHz,                10.000 MHz
! STOP FREQ:        	              110.000 MHz,               110.000 MHz
! SOURCE POWER:     	                      Low,                       Low
! IFBW:             	                   100 Hz,                    100 Hz
! AVG FACTOR:       	                       3 ,                        3 
! REF PLANE 1:      	                 2.2245 m,                  2.2245 m
! REF PLANE 2:      	                     0 mm,                      0 mm
! CAL TYPE:         	             1P2P S11,S21,              1P2P S11,S21
! CAL METHOD:       	                     SOLT,                      SOLT
! CAL LINE TYPE:    	                     Coax,                      Coax
! DUT PORT 1:       	                K-Conn(M),                 K-Conn(M)
! DUT PORT 2:       	                N-Conn(M),                 N-Conn(M)
! CAL STATUS:       	        OK: Accuracy High,                        --
# GHZ S DB R 50.0
! FREQ.GHZ       S11DB        S11A       S21DB        S21A       S12DB        S12A       S22DB        S22A
  0.010000000  -21.337319 -161.343903  -43.680762 -144.212402    0.000000    0.000000    0.000000    0.000000
  0.010200401  -21.516940 -162.874802  -44.931159 -143.770401    0.000000    0.000000    0.000000    0.000000
  0.010400802  -21.384206 -163.396622  -46.482109 -146.258698    0.000000    0.000000    0.000000    0.000000
  0.010601202  -21.456471 -165.428391  -48.877024 -146.275757    0.000000    0.000000    0.000000    0.000000
  0.010801603  -21.778107 -166.116913  -51.908421 -147.566101    0.000000    0.000000    0.000000    0.000000
  0.011002004  -21.715710 -167.075653  -56.425287 -150.574326    0.000000    0.000000    0.000000    0.000000
  0.011202405  -21.721387 -168.549377  -61.757846 -164.633698    0.000000    0.000000    0.000000    0.000000
  0.011402806  -21.981796 -169.153061  -77.814353  126.920952    0.000000    0.000000    0.000000    0.000000
  0.011603206  -22.104589 -171.014267  -67.995874   31.079117    0.000000    0.000000    0.000000    0.000000
  0.011803607  -22.302812 -169.215790  -59.477963   23.947638    0.000000    0.000000    0.000000    0.000000
  0.012004008  -22.513087 -171.019257  -60.896530   22.218769    0.000000    0.000000    0.000000    0.000000
  0.012204409  -22.496678 -173.604218  -56.568476   22.182850    0.000000    0.000000    0.000000    0.000000
  0.012404810  -22.678873 -174.567886  -57.353638   30.289263    0.000000    0.000000    0.000000    0.000000
  0.012605210  -22.696329 -175.852097  -60.333357   28.586702    0.000000    0.000000    0.000000    0.000000
  0.012805611  -22.833365 -176.718124  -64.320203   31.459431    0.000000    0.000000    0.000000    0.000000
  0.013006012  -22.974866 -178.085556  -63.623795  123.936531    0.000000    0.000000    0.000000    0.000000
  0.013206413  -23.019899 -178.314011  -57.894234  165.235199    0.000000    0.000000    0.000000    0.000000
  0.013406814  -23.428560  179.693970  -52.423745  168.345093    0.000000    0.000000    0.000000    0.000000
  0.013607214  -23.478595 -179.992355  -48.018876  172.415955    0.000000    0.000000    0.000000    0.000000
  0.013807615  -23.663986  177.538452  -45.038207  171.037918    0.000000    0.000000    0.000000    0.000000
  0.014008016  -23.594853  177.762299  -42.666667  170.054794    0.000000    0.000000    0.000000    0.000000
  0.014208417  -23.869670  175.353455  -40.190219  169.590393    0.000000    0.000000    0.000000    0.000000
  0.014408818  -24.138173  174.347382  -38.356872  168.380981    0.000000    0.000000    0.000000    0.000000
  0.014609218  -24.045496  173.025055  -36.419672  166.984421    0.000000    0.000000    0.000000    0.000000
  0.014809619  -24.045848  171.353912  -34.815475  165.138672    0.000000    0.000000    0.000000    0.000000
  0.015010020  -24.557492  170.751328  -33.282734  163.716110    0.000000    0.000000    0.000000    0.000000
  0.015210421  -24.542359  169.450027  -31.923626  163.216812    0.000000    0.000000    0.000000    0.000000
  0.015410822  -24.719840  167.946121  -30.830613  161.120300    0.000000    0.000000    0.000000    0.000000
  0.015611222  -24.996807  166.434341  -29.593315  160.178680    0.000000    0.000000    0.000000    0.000000
  0.015811623  -24.993377  163.963287  -28.609440  157.868805    0.000000    0.000000    0.000000    0.000000
  0.016012024  -25.215340  162.729782  -27.556864  156.248291    0.000000    0.000000    0.000000    0.000000
  0.016212425  -25.441079  160.644714  -26.714746  154.250763    0.000000    0.000000    0.000000    0.000000
  0.016412826  -25.647642  160.287918  -25.829820  153.127533    0.000000    0.000000    0.000000    0.000000
  0.016613226  -25.570062  156.965561  -25.062003  151.263687    0.000000    0.000000    0.000000    0.000000
  0.016813627  -25.887810  155.720047  -24.334628  149.078094    0.000000    0.000000    0.000000    0.000000
  0.017014028  -26.076083  153.458420  -23.691965  147.191925    0.000000    0.000000    0.000000    0.000000
  0.017214429  -26.493833  150.556473  -23.194446  145.352737    0.000000    0.000000    0.000000    0.000000
  0.017414830  -26.287278  149.187943  -22.652337  143.648163    0.000000    0.000000    0.000000    0.000000
  0.017615230  -26.616158  146.718353  -22.250435  141.373383    0.000000    0.000000    0.000000    0.000000
  0.017815631  -26.902974  142.433029  -21.903691  139.281403    0.000000    0.000000    0.000000    0.000000
  0.018016032  -26.850457  141.774475  -21.585093  137.465912    0.000000    0.000000    0.000000    0.000000
  0.018216433  -26.926857  136.891144  -21.377370  135.552307    0.000000    0.000000    0.000000    0.000000
  0.018416834  -27.185188  136.250473  -21.372257  133.924332    0.000000    0.000000    0.000000    0.000000
  0.018617234  -27.167791  132.877808  -21.425310  132.333344    0.000000    0.000000    0.000000    0.000000
  0.018817635  -27.568794  129.045547  -21.723199  130.660950    0.000000    0.000000    0.000000    0.000000
  0.019018036  -27.898936  125.921944  -22.089804  129.322861    0.000000    0.000000    0.000000    0.000000
  0.019218437  -27.821178  123.224236  -22.747842  128.198837    0.000000    0.000000    0.000000    0.000000
  0.019418838  -27.903341  119.483315  -23.842245  127.489403    0.000000    0.000000    0.000000    0.000000
  0.019619238  -28.125151  115.624664  -25.500475  128.682510    0.000000    0.000000    0.000000    0.000000
  0.019819639  -27.992162  113.115440  -28.085070  132.367477    0.000000    0.000000    0.000000    0.000000
  0.020020040  -28.057372  109.859116  -32.659388  147.717712    0.000000    0.000000    0.000000    0.000000
  0.020220441  -28.084097  104.276474  -36.193448 -145.283035    0.000000    0.000000    0.000000    0.000000
  0.020420842  -28.306953  100.092239  -28.871346  -99.710983    0.000000    0.000000    0.000000    0.000000
  0.020621242  -28.065944   96.510803  -23.297945  -90.453934    0.000000    0.000000    0.000000    0.000000
  0.020821643  -28.168616   93.126984  -19.291849  -87.712509    0.000000    0.000000    0.000000    0.000000
  0.021022044  -27.952885   88.186447  -16.150807  -87.963959    0.000000    0.000000    0.000000    0.000000
  0.021222445  -27.763116   83.919167  -13.469744  -89.079407    0.000000    0.000000    0.000000    0.000000
  0.021422846  -27.680640   78.844894  -11.166456  -90.476517    0.000000    0.000000    0.000000    0.000000
  0.021623246  -27.671061   75.479149   -9.065401  -92.597397    0.000000    0.000000    0.000000    0.000000
  0.021823647  -27.470095   71.371986   -7.159860  -94.176834    0.000000    0.000000    0.000000    0.000000
  0.022024048  -27.115522   66.521317   -5.283555  -96.942627    0.000000    0.000000    0.000000    0.000000
  0.022224449  -26.896305   63.378548   -3.614950  -99.446602    0.000000    0.000000    0.000000    0.000000
  0.022424850  -26.652498   57.619530   -1.945594 -101.667656    0.000000    0.000000    0.000000    0.000000
  0.022625251  -26.310448   53.538979   -0.386508 -104.253960    0.000000    0.000000    0.000000    0.000000
  0.022825651  -26.245823   48.954342    1.126058 -107.299957    0.000000    0.000000    0.000000    0.000000
  0.023026052  -25.859906   44.165245    2.600941 -110.055534    0.000000    0.000000    0.000000    0.000000
  0.023226453  -25.720794   40.952408    3.960544 -112.870438    0.000000    0.000000    0.000000    0.000000
  0.023426854  -25.453947   35.829941    5.336213 -116.891396    0.000000    0.000000    0.000000    0.000000
  0.023627255  -24.940778   31.899435    6.693141 -119.983597    0.000000    0.000000    0.000000    0.000000
  0.023827655  -24.127366   33.829559    7.795173 -121.240715    0.000000    0.000000    0.000000    0.000000
  0.024028056  -24.030500   29.569948    9.129989 -124.814331    0.000000    0.000000    0.000000    0.000000
  0.024228457  -23.582210   24.719049   10.377731 -128.377045    0.000000    0.000000    0.000000    0.000000
  0.024428858  -23.214273   21.136011   11.595847 -132.138779    0.000000    0.000000    0.000000    0.000000
  0.024629259  -22.885078   17.981359   12.817909 -136.682816    0.000000    0.000000    0.000000    0.000000
  0.024829659  -22.494964   13.174093   13.913712 -140.616760    0.000000    0.000000    0.000000    0.000000
  0.025030060  -22.187512    9.514268   15.135820 -145.665771    0.000000    0.000000    0.000000    0.000000
  0.025230461  -22.101625    5.266915   16.331720 -150.696091    0.000000    0.000000    0.000000    0.000000
  0.025430862  -21.451899    1.143956   17.524047 -155.667450    0.000000    0.000000    0.000000    0.000000
  0.025631263  -21.380143   -2.803533   18.716162 -161.038437    0.000000    0.000000    0.000000    0.000000
  0.025831663  -21.056019   -7.513658   19.869763 -166.716736    0.000000    0.000000    0.000000    0.000000
  0.026032064  -20.790823  -12.809896   20.949296 -172.939957    0.000000    0.000000    0.000000    0.000000
  0.026232465  -20.693005  -17.753864   22.000086 -178.596252    0.000000    0.000000    0.000000    0.000000
  0.026432866  -20.631220  -22.389299   23.018755  175.072891    0.000000    0.000000    0.000000    0.000000
  0.026633267  -20.363282  -28.523424   23.948791  168.072510    0.000000    0.000000    0.000000    0.000000
  0.026833667  -20.530817  -33.922489   24.903309  160.899902    0.000000    0.000000    0.000000    0.000000
  0.027034068  -20.395367  -39.511959   25.692466  153.986710    0.000000    0.000000    0.000000    0.000000
  0.027234469  -20.649285  -45.031651   26.444555  146.244110    0.000000    0.000000    0.000000    0.000000
  0.027434870  -21.164496  -50.690872   27.051024  138.941528    0.000000    0.000000    0.000000    0.000000
  0.027635271  -21.405919  -55.479275   27.534112  131.199188    0.000000    0.000000    0.000000    0.000000
  0.027835671  -21.904433  -61.542763   28.012063  124.011513    0.000000    0.000000    0.000000    0.000000
  0.028036072  -22.455465  -65.415733   28.353362  116.724503    0.000000    0.000000    0.000000    0.000000
  0.028236473  -23.162809  -68.210320   28.696345  109.137993    0.000000    0.000000    0.000000    0.000000
  0.028436874  -23.748409  -72.462868   28.919633  102.122215    0.000000    0.000000    0.000000    0.000000
  0.028637275  -24.569489  -74.581322   29.054580   94.971275    0.000000    0.000000    0.000000    0.000000
  0.028837675  -25.479861  -75.811790   29.197467   88.764015    0.000000    0.000000    0.000000    0.000000
  0.029038076  -26.276525  -76.235222   29.297674   82.930122    0.000000    0.000000    0.000000    0.000000
  0.029238477  -27.179609  -77.833939   29.326541   76.817345    0.000000    0.000000    0.000000    0.000000
  0.029438878  -27.995459  -75.642555   29.359771   71.288528    0.000000    0.000000    0.000000    0.000000
  0.029639279  -28.605139  -74.318611   29.463298   66.061050    0.000000    0.000000    0.000000    0.000000
  0.029839679  -28.989354  -70.440170   29.518788   60.939686    0.000000    0.000000    0.000000    0.000000
  0.030040080  -29.888807  -66.562813   29.479182   56.428650    0.000000    0.000000    0.000000    0.000000
  0.030240481  -30.001508  -64.344284   29.520991   51.836845    0.000000    0.000000    0.000000    0.000000
  0.030440882  -30.190002  -60.640060   29.515482   48.110359    0.000000    0.000000    0.000000    0.000000
  0.030641283  -30.201624  -54.724239   29.505140   43.730007    0.000000    0.000000    0.000000    0.000000
  0.030841683  -30.310208  -51.181129   29.556860   40.108604    0.000000    0.000000    0.000000    0.000000
  0.031042084  -30.442449  -48.828690   29.550996   36.158012    0.000000    0.000000    0.000000    0.000000
  0.031242485  -30.168827  -45.856979   29.519522   32.489006    0.000000    0.000000    0.000000    0.000000
  0.031442886  -30.294490  -43.741737   29.574122   28.661880    0.000000    0.000000    0.000000    0.000000
  0.031643287  -29.380466  -43.342728   29.615287   24.912786    0.000000    0.000000    0.000000    0.000000
  0.031843687  -29.638495  -42.048862   29.613671   21.167923    0.000000    0.000000    0.000000    0.000000
  0.032044088  -29.254262  -42.019619   29.644785   17.741798    0.000000    0.000000    0.000000    0.000000
  0.032244489  -29.507183  -41.064579   29.706435   14.249879    0.000000    0.000000    0.000000    0.000000
  0.032444890  -29.186664  -40.268757   29.720522   11.542526    0.000000    0.000000    0.000000    0.000000
  0.032645291  -28.550487  -40.972683   29.739502    8.129096    0.000000    0.000000    0.000000    0.000000
  0.032845691  -28.695245  -40.796452   29.772506    4.958520    0.000000    0.000000    0.000000    0.000000
  0.033046092  -28.745796  -38.445454   29.781758    2.184980    0.000000    0.000000    0.000000    0.000000
  0.033246493  -28.835370  -39.637409   29.815020   -0.866246    0.000000    0.000000    0.000000    0.000000
  0.033446894  -28.601682  -40.309368   29.831400   -3.249631    0.000000    0.000000    0.000000    0.000000
  0.033647295  -28.353338  -40.439846   29.833316   -6.153082    0.000000    0.000000    0.000000    0.000000
  0.033847695  -28.507177  -40.943649   29.863128   -8.311806    0.000000    0.000000    0.000000    0.000000
  0.034048096  -28.349159  -40.593903   29.841182  -11.222609    0.000000    0.000000    0.000000    0.000000
  0.034248497  -28.288660  -40.594051   29.899481  -13.616803    0.000000    0.000000    0.000000    0.000000
  0.034448898  -28.597822  -41.176292   29.901912  -16.417629    0.000000    0.000000    0.000000    0.000000
  0.034649299  -28.535815  -44.551544   29.956246  -19.244509    0.000000    0.000000    0.000000    0.000000
  0.034849699  -28.285696  -42.959900   29.986416  -21.959318    0.000000    0.000000    0.000000    0.000000
  0.035050100  -28.217916  -41.551464   30.016845  -24.439585    0.000000    0.000000    0.000000    0.000000
  0.035250501  -28.576754  -42.226231   29.975351  -26.579353    0.000000    0.000000    0.000000    0.000000
  0.035450902  -28.306664  -44.095211   30.003240  -29.437155    0.000000    0.000000    0.000000    0.000000
  0.035651303  -28.448748  -44.730381   29.969877  -31.538275    0.000000    0.000000    0.000000    0.000000
  0.035851703  -28.510038  -43.983864   29.962237  -33.722519    0.000000    0.000000    0.000000    0.000000
  0.036052104  -28.743632  -44.235794   29.932918  -36.022797    0.000000    0.000000    0.000000    0.000000
  0.036252505  -28.766979  -43.986259   29.936448  -38.465183    0.000000    0.000000    0.000000    0.000000
  0.036452906  -28.896599  -44.355820   29.889820  -40.519352    0.000000    0.000000    0.000000    0.000000
  0.036653307  -29.120694  -44.341763   29.824598  -43.099087    0.000000    0.000000    0.000000    0.000000
  0.036853707  -28.967424  -43.037758   29.862596  -45.483551    0.000000    0.000000    0.000000    0.000000
  0.037054108  -28.850846  -44.045010   29.819772  -47.650890    0.000000    0.000000    0.000000    0.000000
  0.037254509  -29.347707  -44.482525   29.818366  -49.994404    0.000000    0.000000    0.000000    0.000000
  0.037454910  -29.110836  -44.681961   29.837236  -52.033955    0.000000    0.000000    0.000000    0.000000
  0.037655311  -29.395337  -44.820866   29.813030  -54.150356    0.000000    0.000000    0.000000    0.000000
  0.037855711  -29.582728  -42.675156   29.835525  -56.051517    0.000000    0.000000    0.000000    0.000000
  0.038056112  -29.566936  -41.977039   29.879269  -58.413723    0.000000    0.000000    0.000000    0.000000
  0.038256513  -29.952526  -42.296185   29.952702  -59.938816    0.000000    0.000000    0.000000    0.000000
  0.038456914  -29.842406  -43.421719   29.969320  -61.720081    0.000000    0.000000    0.000000    0.000000
  0.038657315  -29.925180  -43.401772   30.018267  -63.256737    0.000000    0.000000    0.000000    0.000000
  0.038857715  -30.220809  -41.009483   30.021996  -64.906342    0.000000    0.000000    0.000000    0.000000
  0.039058116  -30.100511  -40.367157   30.050955  -66.542900    0.000000    0.000000    0.000000    0.000000
  0.039258517  -30.286081  -40.408104   30.078521  -68.338066    0.000000    0.000000    0.000000    0.000000
  0.039458918  -30.374834  -40.678307   30.035574  -69.842102    0.000000    0.000000    0.000000    0.000000
  0.039659319  -30.332234  -40.701488   29.998528  -72.180595    0.000000    0.000000    0.000000    0.000000
  0.039859719  -30.414918  -39.189144   29.991093  -73.905464    0.000000    0.000000    0.000000    0.000000
  0.040060120  -30.452142  -37.780640   29.956849  -76.077080    0.000000    0.000000    0.000000    0.000000
  0.040260521  -30.600082  -37.115917   29.945088  -78.179245    0.000000    0.000000    0.000000    0.000000
  0.040460922  -30.717724  -36.930984   29.899171  -79.968040    0.000000    0.000000    0.000000    0.000000
  0.040661323  -30.869222  -35.772472   29.892691  -82.029991    0.000000    0.000000    0.000000    0.000000
  0.040861723  -30.684664  -34.116249   29.908095  -83.896988    0.000000    0.000000    0.000000    0.000000
  0.041062124  -31.128324  -32.478519   29.932168  -85.170883    0.000000    0.000000    0.000000    0.000000
  0.041262525  -31.010861  -34.794315   30.022681  -86.420387    0.000000    0.000000    0.000000    0.000000
  0.041462926  -30.829025  -31.431171   30.013130  -87.983398    0.000000    0.000000    0.000000    0.000000
  0.041663327  -31.075476  -31.059452   30.055637  -89.017036    0.000000    0.000000    0.000000    0.000000
  0.041863727  -31.052643  -30.750420   30.069316  -90.695114    0.000000    0.000000    0.000000    0.000000
  0.042064128  -31.430505  -30.902283   30.076006  -92.241310    0.000000    0.000000    0.000000    0.000000
  0.042264529  -31.041263  -28.836567   30.147169  -93.768372    0.000000    0.000000    0.000000    0.000000
  0.042464930  -30.941344  -27.282982   30.116877  -95.760719    0.000000    0.000000    0.000000    0.000000
  0.042665331  -31.014601  -27.376589   30.123774  -97.495964    0.000000    0.000000    0.000000    0.000000
  0.042865731  -30.943454  -26.188751   30.147616  -99.637970    0.000000    0.000000    0.000000    0.000000
