! Anritsu VNA Master:                 Model: MS2034B/10/19/501
! SN:                                  1337062
! /bd0/ovro-jan-2016/dcp-d2-s21.s2p
! Existing Calibration Information:
! TYPE:                         Current Settings,       Active Cal Settings
! TIME:             	   01/08/2016 09:48:34 PM,    01/08/2016 08:43:08 PM
! INTERNAL TEMP:    	                   42.5 C,                    45.0 C
! # POINTS:         	                      500,                       500
! START FREQ:       	               10.000 MHz,                10.000 MHz
! STOP FREQ:        	              110.000 MHz,               110.000 MHz
! SOURCE POWER:     	                      Low,                       Low
! IFBW:             	                   100 Hz,                    100 Hz
! AVG FACTOR:       	                       3 ,                        3 
! REF PLANE 1:      	                 2.2245 m,                  2.2245 m
! REF PLANE 2:      	                     0 mm,                      0 mm
! CAL TYPE:         	             1P2P S11,S21,              1P2P S11,S21
! CAL METHOD:       	                     SOLT,                      SOLT
! CAL LINE TYPE:    	                     Coax,                      Coax
! DUT PORT 1:       	                K-Conn(M),                 K-Conn(M)
! DUT PORT 2:       	                N-Conn(M),                 N-Conn(M)
! CAL STATUS:       	        OK: Accuracy High,                        --
# GHZ S DB R 50.0
! FREQ.GHZ       S11DB        S11A       S21DB        S21A       S12DB        S12A       S22DB        S22A
  0.010000000  -27.315586 -169.601532  -56.575694 -140.723129    0.000000    0.000000    0.000000    0.000000
  0.010200401  -27.326703 -174.735764  -71.436259  -35.638992    0.000000    0.000000    0.000000    0.000000
  0.010400802  -27.235011 -176.082367  -55.259806   33.056751    0.000000    0.000000    0.000000    0.000000
  0.010601202  -27.413505  179.462006  -50.153761   32.488689    0.000000    0.000000    0.000000    0.000000
  0.010801603  -27.697978  176.666473  -46.165864   27.872635    0.000000    0.000000    0.000000    0.000000
  0.011002004  -27.431560  174.211319  -44.238610   26.489040    0.000000    0.000000    0.000000    0.000000
  0.011202405  -27.362119  170.286758  -42.308156   26.097292    0.000000    0.000000    0.000000    0.000000
  0.011402806  -27.366320  166.130936  -40.895030   24.274231    0.000000    0.000000    0.000000    0.000000
  0.011603206  -27.501240  162.485672  -39.815104   22.418495    0.000000    0.000000    0.000000    0.000000
  0.011803607  -27.904592  163.593994  -38.926324   21.072985    0.000000    0.000000    0.000000    0.000000
  0.012004008  -27.893910  158.683533  -38.320382   18.393272    0.000000    0.000000    0.000000    0.000000
  0.012204409  -27.321526  155.738373  -37.788789   17.525412    0.000000    0.000000    0.000000    0.000000
  0.012404810  -27.567571  151.539551  -37.225430   15.625916    0.000000    0.000000    0.000000    0.000000
  0.012605210  -27.090017  149.330734  -37.063071   14.225040    0.000000    0.000000    0.000000    0.000000
  0.012805611  -27.165948  146.959686  -36.883606   13.078366    0.000000    0.000000    0.000000    0.000000
  0.013006012  -26.905093  145.199417  -36.751103   11.130011    0.000000    0.000000    0.000000    0.000000
  0.013206413  -26.786300  142.811356  -36.937075    9.023315    0.000000    0.000000    0.000000    0.000000
  0.013406814  -26.956339  137.286163  -37.162589    8.351871    0.000000    0.000000    0.000000    0.000000
  0.013607214  -26.809304  138.625458  -37.654076    6.337173    0.000000    0.000000    0.000000    0.000000
  0.013807615  -26.640765  134.321365  -38.230966    5.284500    0.000000    0.000000    0.000000    0.000000
  0.014008016  -26.483092  134.835403  -39.012653    3.997026    0.000000    0.000000    0.000000    0.000000
  0.014208417  -26.236680  130.669617  -40.221871    3.445172    0.000000    0.000000    0.000000    0.000000
  0.014408818  -26.375337  127.690880  -41.917521    3.660514    0.000000    0.000000    0.000000    0.000000
  0.014609218  -25.974517  126.630203  -44.282317    3.587796    0.000000    0.000000    0.000000    0.000000
  0.014809619  -25.537088  126.425911  -48.042571   11.076413    0.000000    0.000000    0.000000    0.000000
  0.015010020  -25.772323  123.048111  -54.686823   34.054771    0.000000    0.000000    0.000000    0.000000
  0.015210421  -25.372115  120.905357  -54.001699  124.546440    0.000000    0.000000    0.000000    0.000000
  0.015410822  -25.336530  119.595505  -46.993474  148.875946    0.000000    0.000000    0.000000    0.000000
  0.015611222  -25.232819  117.075264  -41.932544  154.551315    0.000000    0.000000    0.000000    0.000000
  0.015811623  -24.867101  115.551392  -39.117529  154.617294    0.000000    0.000000    0.000000    0.000000
  0.016012024  -24.856478  114.757164  -36.544022  154.040497    0.000000    0.000000    0.000000    0.000000
  0.016212425  -24.627834  112.193222  -34.509301  153.568451    0.000000    0.000000    0.000000    0.000000
  0.016412826  -24.677020  111.440422  -32.837405  152.637802    0.000000    0.000000    0.000000    0.000000
  0.016613226  -24.322439  109.244392  -31.475110  151.048279    0.000000    0.000000    0.000000    0.000000
  0.016813627  -24.181456  107.598999  -30.267147  149.227798    0.000000    0.000000    0.000000    0.000000
  0.017014028  -23.917099  106.510773  -29.138849  147.732544    0.000000    0.000000    0.000000    0.000000
  0.017214429  -23.922376  104.426636  -28.268095  145.964615    0.000000    0.000000    0.000000    0.000000
  0.017414830  -23.711796  103.801353  -27.461703  144.357056    0.000000    0.000000    0.000000    0.000000
  0.017615230  -23.503075  101.292038  -26.782814  142.146378    0.000000    0.000000    0.000000    0.000000
  0.017815631  -23.311900   99.727905  -26.225162  140.423859    0.000000    0.000000    0.000000    0.000000
  0.018016032  -23.251437   99.176567  -25.762144  139.065994    0.000000    0.000000    0.000000    0.000000
  0.018216433  -22.958188   97.624298  -25.460057  136.995621    0.000000    0.000000    0.000000    0.000000
  0.018416834  -22.835872   96.288734  -25.351729  135.482925    0.000000    0.000000    0.000000    0.000000
  0.018617234  -22.638321   95.409325  -25.342119  133.786179    0.000000    0.000000    0.000000    0.000000
  0.018817635  -22.615512   93.535591  -25.721814  132.336380    0.000000    0.000000    0.000000    0.000000
  0.019018036  -22.487701   92.253471  -26.119992  131.469742    0.000000    0.000000    0.000000    0.000000
  0.019218437  -22.320100   91.338142  -26.904410  131.593597    0.000000    0.000000    0.000000    0.000000
  0.019418838  -22.192137   89.447403  -28.336344  131.622330    0.000000    0.000000    0.000000    0.000000
  0.019619238  -22.058678   87.598099  -30.678183  134.744293    0.000000    0.000000    0.000000    0.000000
  0.019819639  -21.867130   87.168564  -34.642437  145.683548    0.000000    0.000000    0.000000    0.000000
  0.020020040  -21.774224   86.235275  -39.789717 -158.576340    0.000000    0.000000    0.000000    0.000000
  0.020220441  -21.541667   84.653854  -33.101793  -99.586395    0.000000    0.000000    0.000000    0.000000
  0.020420842  -21.507535   83.249191  -26.944610  -87.390450    0.000000    0.000000    0.000000    0.000000
  0.020621242  -21.292842   82.335922  -22.728761  -84.617981    0.000000    0.000000    0.000000    0.000000
  0.020821643  -21.190212   80.675415  -19.367305  -83.736542    0.000000    0.000000    0.000000    0.000000
  0.021022044  -21.074463   79.174339  -16.595126  -84.649368    0.000000    0.000000    0.000000    0.000000
  0.021222445  -20.940817   77.823067  -14.136066  -86.160110    0.000000    0.000000    0.000000    0.000000
  0.021422846  -20.837716   76.518768  -11.973612  -87.816620    0.000000    0.000000    0.000000    0.000000
  0.021623246  -20.753200   75.591499   -9.987502  -89.951439    0.000000    0.000000    0.000000    0.000000
  0.021823647  -20.621048   73.994568   -8.147024  -91.634300    0.000000    0.000000    0.000000    0.000000
  0.022024048  -20.429925   72.198395   -6.325883  -94.344002    0.000000    0.000000    0.000000    0.000000
  0.022224449  -20.359924   71.364357   -4.706758  -96.813164    0.000000    0.000000    0.000000    0.000000
  0.022424850  -20.192844   69.145081   -3.057446  -98.953804    0.000000    0.000000    0.000000    0.000000
  0.022625251  -20.144891   67.323616   -1.535475 -101.449944    0.000000    0.000000    0.000000    0.000000
  0.022825651  -20.113914   65.702072   -0.055595 -104.347366    0.000000    0.000000    0.000000    0.000000
  0.023026052  -20.027678   63.650719    1.399055 -106.979630    0.000000    0.000000    0.000000    0.000000
  0.023226453  -19.915264   62.810974    2.745076 -109.610497    0.000000    0.000000    0.000000    0.000000
  0.023426854  -19.939251   60.550037    4.104582 -113.380402    0.000000    0.000000    0.000000    0.000000
  0.023627255  -19.812250   58.413391    5.453207 -116.242851    0.000000    0.000000    0.000000    0.000000
  0.023827655  -19.620838   56.755825    6.745341 -119.570358    0.000000    0.000000    0.000000    0.000000
  0.024028056  -19.303356   56.534504    7.809658 -120.555626    0.000000    0.000000    0.000000    0.000000
  0.024228457  -19.278155   54.439590    9.064834 -124.120384    0.000000    0.000000    0.000000    0.000000
  0.024428858  -19.105694   52.077404   10.302650 -127.645226    0.000000    0.000000    0.000000    0.000000
  0.024629259  -18.998879   50.536957   11.534893 -131.739502    0.000000    0.000000    0.000000    0.000000
  0.024829659  -18.903178   47.705536   12.522711 -135.547455    0.000000    0.000000    0.000000    0.000000
  0.025030060  -18.876845   45.718426   13.783089 -140.001892    0.000000    0.000000    0.000000    0.000000
  0.025230461  -18.927702   43.810909   14.964834 -144.589401    0.000000    0.000000    0.000000    0.000000
  0.025430862  -18.689431   40.434010   16.151529 -149.266663    0.000000    0.000000    0.000000    0.000000
  0.025631263  -18.761727   38.024113   17.343893 -154.066757    0.000000    0.000000    0.000000    0.000000
  0.025831663  -18.735218   35.411556   18.511650 -159.132797    0.000000    0.000000    0.000000    0.000000
  0.026032064  -18.736079   31.607147   19.607866 -164.725052    0.000000    0.000000    0.000000    0.000000
  0.026232465  -18.806738   28.611229   20.697981 -169.720230    0.000000    0.000000    0.000000    0.000000
  0.026432866  -18.875584   25.538305   21.772897 -175.362091    0.000000    0.000000    0.000000    0.000000
  0.026633267  -19.028325   21.505156   22.775578  178.427292    0.000000    0.000000    0.000000    0.000000
  0.026833667  -19.359088   17.517839   23.817459  171.762192    0.000000    0.000000    0.000000    0.000000
  0.027034068  -19.498266   13.793880   24.695259  165.495804    0.000000    0.000000    0.000000    0.000000
  0.027234469  -19.932875    9.486624   25.583351  158.206863    0.000000    0.000000    0.000000    0.000000
  0.027434870  -20.420376    6.003839   26.330365  151.258316    0.000000    0.000000    0.000000    0.000000
  0.027635271  -20.892307    2.247320   26.972960  143.758987    0.000000    0.000000    0.000000    0.000000
  0.027835671  -21.715874   -1.549869   27.590001  136.640533    0.000000    0.000000    0.000000    0.000000
  0.028036072  -22.413725   -4.454529   28.079443  129.169891    0.000000    0.000000    0.000000    0.000000
  0.028236473  -23.142720   -6.521624   28.555888  121.266434    0.000000    0.000000    0.000000    0.000000
  0.028436874  -24.299580   -8.558791   28.889306  113.917686    0.000000    0.000000    0.000000    0.000000
  0.028637275  -25.106273  -10.162958   29.125769  106.324463    0.000000    0.000000    0.000000    0.000000
  0.028837675  -26.044535   -8.245242   29.355818   99.681183    0.000000    0.000000    0.000000    0.000000
  0.029038076  -26.897454   -6.859581   29.523919   93.263565    0.000000    0.000000    0.000000    0.000000
  0.029238477  -28.025146   -3.406241   29.612545   86.557755    0.000000    0.000000    0.000000    0.000000
  0.029438878  -28.701819   -0.207429   29.669219   80.538162    0.000000    0.000000    0.000000    0.000000
  0.029639279  -29.283041    3.636938   29.810270   74.873337    0.000000    0.000000    0.000000    0.000000
  0.029839679  -29.608118    6.996993   29.886716   69.336723    0.000000    0.000000    0.000000    0.000000
  0.030040080  -30.284668   13.540956   29.854541   64.390877    0.000000    0.000000    0.000000    0.000000
  0.030240481  -30.206429   15.612737   29.916694   59.389061    0.000000    0.000000    0.000000    0.000000
  0.030440882  -30.320281   20.982834   29.909751   55.433544    0.000000    0.000000    0.000000    0.000000
  0.030641283  -29.935475   24.075722   29.896479   50.676689    0.000000    0.000000    0.000000    0.000000
  0.030841683  -29.907752   26.360531   29.948178   46.812283    0.000000    0.000000    0.000000    0.000000
  0.031042084  -30.132460   30.223532   29.936885   42.571426    0.000000    0.000000    0.000000    0.000000
  0.031242485  -30.056077   31.131733   29.916729   38.694462    0.000000    0.000000    0.000000    0.000000
  0.031442886  -29.825251   34.022709   29.953543   34.671490    0.000000    0.000000    0.000000    0.000000
  0.031643287  -29.877687   32.137108   29.998395   30.755651    0.000000    0.000000    0.000000    0.000000
  0.031843687  -29.813687   35.152458   29.989508   26.856945    0.000000    0.000000    0.000000    0.000000
  0.032044088  -29.782043   34.080013   30.017990   23.252602    0.000000    0.000000    0.000000    0.000000
  0.032244489  -30.241256   37.054287   30.077260   19.632816    0.000000    0.000000    0.000000    0.000000
  0.032444890  -29.839886   37.954330   30.076675   16.795162    0.000000    0.000000    0.000000    0.000000
  0.032645291  -30.013196   34.447727   30.107033   13.258589    0.000000    0.000000    0.000000    0.000000
  0.032845691  -29.999644   36.948200   30.126862    9.998371    0.000000    0.000000    0.000000    0.000000
  0.033046092  -29.755879   38.114838   30.135636    7.076333    0.000000    0.000000    0.000000    0.000000
  0.033246493  -30.030360   40.738358   30.169105    3.980175    0.000000    0.000000    0.000000    0.000000
  0.033446894  -30.381268   39.164864   30.180493    1.473320    0.000000    0.000000    0.000000    0.000000
  0.033647295  -30.658456   39.168240   30.179184   -1.523600    0.000000    0.000000    0.000000    0.000000
  0.033847695  -30.628161   41.919792   30.206370   -3.711123    0.000000    0.000000    0.000000    0.000000
  0.034048096  -30.926054   42.364235   30.186188   -6.728889    0.000000    0.000000    0.000000    0.000000
  0.034248497  -30.791299   44.117523   30.241925   -9.146478    0.000000    0.000000    0.000000    0.000000
  0.034448898  -30.830708   46.057514   30.238803  -12.079875    0.000000    0.000000    0.000000    0.000000
  0.034649299  -31.793993   46.479965   30.293804  -14.936505    0.000000    0.000000    0.000000    0.000000
  0.034849699  -31.549441   45.213013   30.316541  -17.663933    0.000000    0.000000    0.000000    0.000000
  0.035050100  -31.430257   47.116692   30.344608  -20.173630    0.000000    0.000000    0.000000    0.000000
  0.035250501  -31.761507   50.549580   30.305220  -22.384140    0.000000    0.000000    0.000000    0.000000
  0.035450902  -32.094793   48.775612   30.327784  -25.261251    0.000000    0.000000    0.000000    0.000000
  0.035651303  -32.290749   52.734222   30.289176  -27.486000    0.000000    0.000000    0.000000    0.000000
  0.035851703  -31.965278   53.491020   30.282633  -29.650579    0.000000    0.000000    0.000000    0.000000
  0.036052104  -32.514609   57.298527   30.249484  -32.014900    0.000000    0.000000    0.000000    0.000000
  0.036252505  -32.454819   59.638542   30.261379  -34.514027    0.000000    0.000000    0.000000    0.000000
  0.036452906  -32.345013   62.098495   30.207982  -36.571362    0.000000    0.000000    0.000000    0.000000
  0.036653307  -32.355291   63.824745   30.139384  -39.198078    0.000000    0.000000    0.000000    0.000000
  0.036853707  -32.227985   63.885887   30.171862  -41.630783    0.000000    0.000000    0.000000    0.000000
  0.037054108  -32.747137   65.245476   30.130338  -43.809887    0.000000    0.000000    0.000000    0.000000
  0.037254509  -32.293132   68.186325   30.128796  -46.174664    0.000000    0.000000    0.000000    0.000000
  0.037454910  -32.790172   69.820465   30.144878  -48.198864    0.000000    0.000000    0.000000    0.000000
  0.037655311  -32.502982   73.403290   30.118209  -50.400734    0.000000    0.000000    0.000000    0.000000
  0.037855711  -32.003325   74.799652   30.136489  -52.311188    0.000000    0.000000    0.000000    0.000000
  0.038056112  -32.209650   75.184937   30.179793  -54.707294    0.000000    0.000000    0.000000    0.000000
  0.038256513  -32.009637   79.082687   30.259403  -56.226044    0.000000    0.000000    0.000000    0.000000
  0.038456914  -32.266296   80.019623   30.263509  -58.025265    0.000000    0.000000    0.000000    0.000000
  0.038657315  -32.169163   81.752243   30.317514  -59.564911    0.000000    0.000000    0.000000    0.000000
  0.038857715  -31.511475   83.704887   30.319612  -61.253609    0.000000    0.000000    0.000000    0.000000
  0.039058116  -31.471005   82.841042   30.347512  -62.901821    0.000000    0.000000    0.000000    0.000000
  0.039258517  -31.429912   85.097824   30.371957  -64.704094    0.000000    0.000000    0.000000    0.000000
  0.039458918  -31.683112   86.320602   30.330517  -66.243401    0.000000    0.000000    0.000000    0.000000
  0.039659319  -31.510258   86.674782   30.290262  -68.561638    0.000000    0.000000    0.000000    0.000000
  0.039859719  -31.479022   88.204750   30.286428  -70.302368    0.000000    0.000000    0.000000    0.000000
  0.040060120  -31.391973   87.456985   30.243257  -72.465126    0.000000    0.000000    0.000000    0.000000
  0.040260521  -30.902055   89.444984   30.239388  -74.547585    0.000000    0.000000    0.000000    0.000000
  0.040460922  -31.158625   91.687233   30.184677  -76.383385    0.000000    0.000000    0.000000    0.000000
  0.040661323  -30.801622   90.484062   30.176529  -78.431892    0.000000    0.000000    0.000000    0.000000
  0.040861723  -30.716435   90.811211   30.189844  -80.311920    0.000000    0.000000    0.000000    0.000000
  0.041062124  -30.341638   93.033958   30.220125  -81.601433    0.000000    0.000000    0.000000    0.000000
  0.041262525  -30.691497   92.924980   30.312220  -82.869057    0.000000    0.000000    0.000000    0.000000
  0.041462926  -30.339590   91.219193   30.298789  -84.374886    0.000000    0.000000    0.000000    0.000000
  0.041663327  -30.181676   93.006218   30.340989  -85.442184    0.000000    0.000000    0.000000    0.000000
  0.041863727  -30.158837   94.761398   30.358494  -87.101677    0.000000    0.000000    0.000000    0.000000
  0.042064128  -30.295729   95.891472   30.362590  -88.646484    0.000000    0.000000    0.000000    0.000000
  0.042264529  -30.219715   93.660172   30.437681  -90.185326    0.000000    0.000000    0.000000    0.000000
  0.042464930  -30.061563   93.608017   30.406299  -92.164131    0.000000    0.000000    0.000000    0.000000
  0.042665331  -29.927113   93.968315   30.411395  -93.932922    0.000000    0.000000    0.000000    0.000000
  0.042865731  -30.088126   95.328148   30.437227  -95.996056    0.000000    0.000000    0.000000    0.000000
