! Anritsu VNA Master:                 Model: MS2034B/10/19/501
! SN:                                  1337062
! /bd0/ovro-jan-2016/dcp-a2-s22.s2p
! Existing Calibration Information:
! TYPE:                         Current Settings,       Active Cal Settings
! TIME:             	   01/10/2016 08:58:52 PM,    01/10/2016 03:13:30 PM
! INTERNAL TEMP:    	                   45.0 C,                    45.8 C
! # POINTS:         	                      500,                       500
! START FREQ:       	               10.000 MHz,                10.000 MHz
! STOP FREQ:        	              110.000 MHz,               110.000 MHz
! SOURCE POWER:     	                      Low,                       Low
! IFBW:             	                   100 Hz,                    100 Hz
! AVG FACTOR:       	                       3 ,                        3 
! REF PLANE 1:      	                 2.2245 m,                  2.2245 m
! REF PLANE 2:      	                     0 mm,                      0 mm
! CAL TYPE:         	             1P2P S11,S21,              1P2P S11,S21
! CAL METHOD:       	                     SOLT,                      SOLT
! CAL LINE TYPE:    	                     Coax,                      Coax
! DUT PORT 1:       	                K-Conn(M),                 K-Conn(M)
! DUT PORT 2:       	                N-Conn(M),                 N-Conn(M)
! CAL STATUS:       	        OK: Accuracy High,                        --
# GHZ S DB R 50.0
! FREQ.GHZ       S11DB        S11A       S21DB        S21A       S12DB        S12A       S22DB        S22A
  0.010000000  -24.322420  166.597458  -66.701218   94.753517    0.000000    0.000000    0.000000    0.000000
  0.010200401  -24.554618  170.101059  -65.917686   87.913513    0.000000    0.000000    0.000000    0.000000
  0.010400802  -24.829837  173.568954  -66.727535   84.290497    0.000000    0.000000    0.000000    0.000000
  0.010601202  -25.150593  173.611771  -67.537439   89.609100    0.000000    0.000000    0.000000    0.000000
  0.010801603  -25.032864  178.443649  -65.679133   93.060944    0.000000    0.000000    0.000000    0.000000
  0.011002004  -25.351712 -177.680084  -66.029231   91.548630    0.000000    0.000000    0.000000    0.000000
  0.011202405  -25.399985 -174.758347  -66.850107   97.035568    0.000000    0.000000    0.000000    0.000000
  0.011402806  -25.532324 -170.496246  -65.908416   92.335564    0.000000    0.000000    0.000000    0.000000
  0.011603206  -25.587875 -168.082474  -66.202618  104.188393    0.000000    0.000000    0.000000    0.000000
  0.011803607  -25.900719 -167.551254  -65.135460  111.966972    0.000000    0.000000    0.000000    0.000000
  0.012004008  -25.379272 -162.137985  -66.605348  109.124245    0.000000    0.000000    0.000000    0.000000
  0.012204409  -25.416493 -160.201477  -67.548496   96.540871    0.000000    0.000000    0.000000    0.000000
  0.012404810  -25.387737 -156.629868  -66.548309  105.810982    0.000000    0.000000    0.000000    0.000000
  0.012605210  -25.368766 -154.050293  -66.229351  100.043060    0.000000    0.000000    0.000000    0.000000
  0.012805611  -25.158259 -151.278915  -65.929620  111.188187    0.000000    0.000000    0.000000    0.000000
  0.013006012  -25.428755 -151.780823  -65.728586  100.549545    0.000000    0.000000    0.000000    0.000000
  0.013206413  -25.194302 -147.270889  -67.071815  117.282928    0.000000    0.000000    0.000000    0.000000
  0.013406814  -25.008571 -144.274719  -67.745475  105.767159    0.000000    0.000000    0.000000    0.000000
  0.013607214  -24.812895 -142.369156  -66.818302  120.751144    0.000000    0.000000    0.000000    0.000000
  0.013807615  -24.785520 -140.681091  -67.458700  127.376511    0.000000    0.000000    0.000000    0.000000
  0.014008016  -24.555240 -139.358826  -68.210199  123.667542    0.000000    0.000000    0.000000    0.000000
  0.014208417  -24.626429 -138.946518  -67.279674  113.305580    0.000000    0.000000    0.000000    0.000000
  0.014408818  -24.377509 -134.950302  -67.323164  127.487831    0.000000    0.000000    0.000000    0.000000
  0.014609218  -24.388595 -133.970963  -65.794784  125.859161    0.000000    0.000000    0.000000    0.000000
  0.014809619  -24.109327 -133.143433  -67.153175  125.658707    0.000000    0.000000    0.000000    0.000000
  0.015010020  -24.032429 -131.394943  -66.968571  125.265221    0.000000    0.000000    0.000000    0.000000
  0.015210421  -23.987196 -129.624054  -68.673543  127.172668    0.000000    0.000000    0.000000    0.000000
  0.015410822  -23.738906 -128.504929  -67.492375  124.384399    0.000000    0.000000    0.000000    0.000000
  0.015611222  -23.755157 -128.962341  -67.060180  131.386292    0.000000    0.000000    0.000000    0.000000
  0.015811623  -23.482754 -126.304161  -67.233128  131.532898    0.000000    0.000000    0.000000    0.000000
  0.016012024  -23.491829 -125.064835  -67.034759  126.979797    0.000000    0.000000    0.000000    0.000000
  0.016212425  -23.381682 -124.026535  -66.985661  133.076065    0.000000    0.000000    0.000000    0.000000
  0.016412826  -23.345697 -123.166298  -66.524130  133.199051    0.000000    0.000000    0.000000    0.000000
  0.016613226  -23.119561 -123.269096  -67.504918  133.171906    0.000000    0.000000    0.000000    0.000000
  0.016813627  -23.143850 -122.533440  -67.217018  131.617584    0.000000    0.000000    0.000000    0.000000
  0.017014028  -23.003772 -121.307617  -67.261864  139.119308    0.000000    0.000000    0.000000    0.000000
  0.017214429  -22.808841 -120.532440  -67.149550  138.883423    0.000000    0.000000    0.000000    0.000000
  0.017414830  -22.757231 -119.669487  -66.946343  145.375565    0.000000    0.000000    0.000000    0.000000
  0.017615230  -22.728068 -118.986092  -67.771730  142.420593    0.000000    0.000000    0.000000    0.000000
  0.017815631  -22.691266 -119.875450  -67.371677  142.403641    0.000000    0.000000    0.000000    0.000000
  0.018016032  -22.707554 -120.619751  -68.039778  140.540329    0.000000    0.000000    0.000000    0.000000
  0.018216433  -22.632831 -117.964417  -68.271236  142.691101    0.000000    0.000000    0.000000    0.000000
  0.018416834  -22.567342 -118.995049  -68.701695  150.749084    0.000000    0.000000    0.000000    0.000000
  0.018617234  -22.451848 -117.383438  -68.866027  157.071259    0.000000    0.000000    0.000000    0.000000
  0.018817635  -22.511397 -117.645462  -68.418660  163.181381    0.000000    0.000000    0.000000    0.000000
  0.019018036  -22.532134 -117.356491  -67.194360  145.215073    0.000000    0.000000    0.000000    0.000000
  0.019218437  -22.370139 -117.721329  -66.571212  165.463470    0.000000    0.000000    0.000000    0.000000
  0.019418838  -22.362462 -116.131454  -67.016416  158.414047    0.000000    0.000000    0.000000    0.000000
  0.019619238  -22.423743 -116.445450  -67.359332  157.345520    0.000000    0.000000    0.000000    0.000000
  0.019819639  -22.346463 -116.229614  -69.465345  162.088608    0.000000    0.000000    0.000000    0.000000
  0.020020040  -22.413334 -116.133270  -67.578450  169.687408    0.000000    0.000000    0.000000    0.000000
  0.020220441  -22.297930 -114.687553  -68.097277  167.833984    0.000000    0.000000    0.000000    0.000000
  0.020420842  -22.355258 -115.566231  -68.217330  160.719971    0.000000    0.000000    0.000000    0.000000
  0.020621242  -22.433423 -115.620621  -66.901290  167.445267    0.000000    0.000000    0.000000    0.000000
  0.020821643  -22.378779 -114.473053  -68.134381  169.176544    0.000000    0.000000    0.000000    0.000000
  0.021022044  -22.412879 -114.714081  -66.490292  173.012253    0.000000    0.000000    0.000000    0.000000
  0.021222445  -22.389290 -114.588058  -67.412998 -171.008072    0.000000    0.000000    0.000000    0.000000
  0.021422846  -22.614804 -115.420265  -68.259805  173.801773    0.000000    0.000000    0.000000    0.000000
  0.021623246  -22.509966 -115.409477  -68.128678  172.502151    0.000000    0.000000    0.000000    0.000000
  0.021823647  -22.445400 -116.907181  -67.921969  177.717346    0.000000    0.000000    0.000000    0.000000
  0.022024048  -22.548674 -114.723343  -69.237662 -179.099503    0.000000    0.000000    0.000000    0.000000
  0.022224449  -22.644983 -115.346817  -66.738998 -173.120987    0.000000    0.000000    0.000000    0.000000
  0.022424850  -22.676562 -114.943329  -67.937819 -175.554291    0.000000    0.000000    0.000000    0.000000
  0.022625251  -22.742532 -115.662628  -67.598588 -170.857971    0.000000    0.000000    0.000000    0.000000
  0.022825651  -22.890576 -115.570122  -67.669266 -174.793564    0.000000    0.000000    0.000000    0.000000
  0.023026052  -22.763861 -116.441269  -67.594350 -166.852249    0.000000    0.000000    0.000000    0.000000
  0.023226453  -23.086586 -116.806252  -68.031678 -172.482956    0.000000    0.000000    0.000000    0.000000
  0.023426854  -23.151677 -117.382965  -67.531168 -164.075027    0.000000    0.000000    0.000000    0.000000
  0.023627255  -23.259014 -117.645241  -68.582729 -169.208450    0.000000    0.000000    0.000000    0.000000
  0.023827655  -23.431177 -118.373093  -68.800021 -163.868729    0.000000    0.000000    0.000000    0.000000
  0.024028056  -23.665346 -118.087616  -68.707808 -157.568359    0.000000    0.000000    0.000000    0.000000
  0.024228457  -23.518309 -120.023880  -67.047004 -158.535828    0.000000    0.000000    0.000000    0.000000
  0.024428858  -24.009001 -119.872345  -67.981622 -161.569778    0.000000    0.000000    0.000000    0.000000
  0.024629259  -24.366037 -118.890450  -67.670973 -157.812042    0.000000    0.000000    0.000000    0.000000
  0.024829659  -24.469356 -120.598396  -66.883483 -133.539078    0.000000    0.000000    0.000000    0.000000
  0.025030060  -24.590283 -121.742058  -65.785040 -123.245979    0.000000    0.000000    0.000000    0.000000
  0.025230461  -25.052105 -121.851189  -67.382178 -128.786179    0.000000    0.000000    0.000000    0.000000
  0.025430862  -24.999850 -123.599838  -65.518806 -122.851814    0.000000    0.000000    0.000000    0.000000
  0.025631263  -25.504291 -123.788719  -66.075446 -123.472702    0.000000    0.000000    0.000000    0.000000
  0.025831663  -26.015846 -125.928604  -65.811335 -114.597298    0.000000    0.000000    0.000000    0.000000
  0.026032064  -26.264965 -125.948799  -65.792548 -124.252754    0.000000    0.000000    0.000000    0.000000
  0.026232465  -27.090249 -125.857368  -66.062206 -116.787041    0.000000    0.000000    0.000000    0.000000
  0.026432866  -27.462867 -127.068878  -66.942838 -116.831070    0.000000    0.000000    0.000000    0.000000
  0.026633267  -27.984403 -128.154816  -66.816022 -123.395401    0.000000    0.000000    0.000000    0.000000
  0.026833667  -28.800764 -126.647568  -66.227948 -120.651588    0.000000    0.000000    0.000000    0.000000
  0.027034068  -29.687228 -125.694649  -66.974935 -116.849213    0.000000    0.000000    0.000000    0.000000
  0.027234469  -30.550768 -125.898720  -67.541341 -117.560631    0.000000    0.000000    0.000000    0.000000
  0.027434870  -31.417707 -120.660675  -66.027984 -107.010605    0.000000    0.000000    0.000000    0.000000
  0.027635271  -32.603419 -118.252419  -67.401991 -112.091621    0.000000    0.000000    0.000000    0.000000
  0.027835671  -33.753087 -112.920433  -66.567636 -119.575661    0.000000    0.000000    0.000000    0.000000
  0.028036072  -34.415103 -104.733047  -65.650369 -111.548111    0.000000    0.000000    0.000000    0.000000
  0.028236473  -34.341980  -99.533264  -65.769850 -107.897491    0.000000    0.000000    0.000000    0.000000
  0.028436874  -35.298088  -82.787415  -65.762115 -101.863350    0.000000    0.000000    0.000000    0.000000
  0.028637275  -34.919485  -74.874443  -66.412007 -100.181633    0.000000    0.000000    0.000000    0.000000
  0.028837675  -34.338032  -67.954491  -66.436070 -113.376274    0.000000    0.000000    0.000000    0.000000
  0.029038076  -33.968080  -62.372311  -66.429446 -102.234276    0.000000    0.000000    0.000000    0.000000
  0.029238477  -32.997611  -61.577972  -66.953302 -101.325218    0.000000    0.000000    0.000000    0.000000
  0.029438878  -32.784252  -58.446026  -66.216983 -104.003891    0.000000    0.000000    0.000000    0.000000
  0.029639279  -32.182301  -57.385151  -66.388267  -97.418762    0.000000    0.000000    0.000000    0.000000
  0.029839679  -32.135016  -55.116901  -66.733281 -100.851677    0.000000    0.000000    0.000000    0.000000
  0.030040080  -31.441128  -53.107433  -66.517666  -95.127937    0.000000    0.000000    0.000000    0.000000
  0.030240481  -31.470388  -53.434158  -66.417576  -91.784225    0.000000    0.000000    0.000000    0.000000
  0.030440882  -30.605818  -52.008610  -66.504434  -90.282501    0.000000    0.000000    0.000000    0.000000
  0.030641283  -31.006794  -51.494614  -66.278311  -84.440857    0.000000    0.000000    0.000000    0.000000
  0.030841683  -31.057851  -51.333702  -69.189307 -101.499619    0.000000    0.000000    0.000000    0.000000
  0.031042084  -31.249280  -52.025730  -66.831225  -91.046143    0.000000    0.000000    0.000000    0.000000
  0.031242485  -30.815114  -51.647858  -66.423866  -82.282188    0.000000    0.000000    0.000000    0.000000
  0.031442886  -30.940881  -50.453808  -67.159272  -86.736000    0.000000    0.000000    0.000000    0.000000
  0.031643287  -30.607264  -50.365414  -66.565864  -89.763382    0.000000    0.000000    0.000000    0.000000
  0.031843687  -30.903745  -50.002338  -67.730168  -83.640968    0.000000    0.000000    0.000000    0.000000
  0.032044088  -31.270663  -48.051529  -67.055667  -79.172119    0.000000    0.000000    0.000000    0.000000
  0.032244489  -31.215273  -47.541565  -67.441048  -78.103966    0.000000    0.000000    0.000000    0.000000
  0.032444890  -31.160614  -48.417866  -66.648298  -70.436012    0.000000    0.000000    0.000000    0.000000
  0.032645291  -31.004683  -44.599724  -66.325955  -77.607857    0.000000    0.000000    0.000000    0.000000
  0.032845691  -31.212880  -45.905594  -66.579056  -74.609222    0.000000    0.000000    0.000000    0.000000
  0.033046092  -30.913081  -41.918457  -67.906374  -72.174187    0.000000    0.000000    0.000000    0.000000
  0.033246493  -31.457152  -42.919956  -67.311505  -72.208199    0.000000    0.000000    0.000000    0.000000
  0.033446894  -31.846082  -41.523537  -67.348503  -71.601273    0.000000    0.000000    0.000000    0.000000
  0.033647295  -32.004129  -39.758762  -67.949971  -59.676346    0.000000    0.000000    0.000000    0.000000
  0.033847695  -31.891301  -39.178825  -67.377079  -72.691612    0.000000    0.000000    0.000000    0.000000
  0.034048096  -31.811978  -37.946968  -66.454700  -70.899376    0.000000    0.000000    0.000000    0.000000
  0.034248497  -32.244251  -34.444870  -68.153429  -61.644131    0.000000    0.000000    0.000000    0.000000
  0.034448898  -32.269092  -33.505920  -66.958325  -56.825298    0.000000    0.000000    0.000000    0.000000
  0.034649299  -31.952689  -33.813011  -66.704120  -71.454765    0.000000    0.000000    0.000000    0.000000
  0.034849699  -32.446300  -29.764595  -67.042071  -60.791573    0.000000    0.000000    0.000000    0.000000
  0.035050100  -32.261272  -31.232243  -67.299552  -67.010910    0.000000    0.000000    0.000000    0.000000
  0.035250501  -32.664114  -25.677055  -69.251825  -59.413212    0.000000    0.000000    0.000000    0.000000
  0.035450902  -32.203631  -25.675074  -67.149777  -48.498852    0.000000    0.000000    0.000000    0.000000
  0.035651303  -32.715282  -24.907291  -68.092702  -48.337299    0.000000    0.000000    0.000000    0.000000
  0.035851703  -32.730769  -23.737513  -66.215280  -55.874596    0.000000    0.000000    0.000000    0.000000
  0.036052104  -33.230120  -23.861431  -68.109885  -52.608799    0.000000    0.000000    0.000000    0.000000
  0.036252505  -33.144736  -18.739515  -67.084077  -50.226151    0.000000    0.000000    0.000000    0.000000
  0.036452906  -32.728313  -16.491497  -66.619795  -57.375713    0.000000    0.000000    0.000000    0.000000
  0.036653307  -32.745349  -15.336729  -66.995682  -49.745045    0.000000    0.000000    0.000000    0.000000
  0.036853707  -33.518394  -15.627961  -66.774814  -49.832359    0.000000    0.000000    0.000000    0.000000
  0.037054108  -33.015379  -11.067250  -67.833441  -53.865681    0.000000    0.000000    0.000000    0.000000
  0.037254509  -33.468455  -11.379514  -67.247888  -45.069435    0.000000    0.000000    0.000000    0.000000
  0.037454910  -32.846950   -6.680014  -68.279805  -31.828928    0.000000    0.000000    0.000000    0.000000
  0.037655311  -33.557005   -5.631497  -68.252869  -43.711807    0.000000    0.000000    0.000000    0.000000
  0.037855711  -33.136565   -4.360099  -68.194590  -42.963493    0.000000    0.000000    0.000000    0.000000
  0.038056112  -33.469917   -5.012779  -67.707045  -34.580009    0.000000    0.000000    0.000000    0.000000
  0.038256513  -33.389083   -0.466438  -67.668796  -34.508965    0.000000    0.000000    0.000000    0.000000
  0.038456914  -33.437910    0.056856  -68.343059  -28.210123    0.000000    0.000000    0.000000    0.000000
  0.038657315  -33.305400    1.409912  -67.984440  -32.580715    0.000000    0.000000    0.000000    0.000000
  0.038857715  -33.463227    4.329209  -66.564164  -23.188946    0.000000    0.000000    0.000000    0.000000
  0.039058116  -33.158873    5.520403  -66.169931  -26.232216    0.000000    0.000000    0.000000    0.000000
  0.039258517  -33.819041    6.912130  -68.026531  -31.163504    0.000000    0.000000    0.000000    0.000000
  0.039458918  -33.364751    8.530092  -67.802341  -27.879147    0.000000    0.000000    0.000000    0.000000
  0.039659319  -33.882432   10.249326  -67.683209  -18.304399    0.000000    0.000000    0.000000    0.000000
  0.039859719  -33.746524   11.591349  -68.507380  -13.930288    0.000000    0.000000    0.000000    0.000000
  0.040060120  -33.505978   15.693842  -68.260166  -10.138185    0.000000    0.000000    0.000000    0.000000
  0.040260521  -33.449192   14.232082  -68.394033  -10.025804    0.000000    0.000000    0.000000    0.000000
  0.040460922  -33.712209   16.810707  -68.441681   -9.204857    0.000000    0.000000    0.000000    0.000000
  0.040661323  -33.438789   19.124094  -67.942719  -15.297804    0.000000    0.000000    0.000000    0.000000
  0.040861723  -33.569723   18.377962  -67.598540  -15.121407    0.000000    0.000000    0.000000    0.000000
  0.041062124  -33.919015   20.835590  -68.849055   -6.992423    0.000000    0.000000    0.000000    0.000000
  0.041262525  -33.432657   20.213469  -67.476398  -15.434608    0.000000    0.000000    0.000000    0.000000
  0.041462926  -33.563791   24.075768  -68.652671    2.912658    0.000000    0.000000    0.000000    0.000000
  0.041663327  -33.402871   25.542028  -68.847065    0.660745    0.000000    0.000000    0.000000    0.000000
  0.041863727  -33.456457   25.814053  -67.808175   -8.700085    0.000000    0.000000    0.000000    0.000000
  0.042064128  -33.171401   30.796286  -67.759710   -0.916248    0.000000    0.000000    0.000000    0.000000
  0.042264529  -33.165130   31.578642  -67.667762   -0.532857    0.000000    0.000000    0.000000    0.000000
  0.042464930  -33.224887   31.827040  -67.496758    6.016860    0.000000    0.000000    0.000000    0.000000
  0.042665331  -33.477009   31.535782  -67.482858    1.112227    0.000000    0.000000    0.000000    0.000000
  0.042865731  -33.645188   33.244633  -68.049624    7.986382    0.000000    0.000000    0.000000    0.000000
