! Anritsu VNA Master:                 Model: MS2034B/10/19/501
! SN:                                  1337062
! /bd0/ovro-jan-2016/dcp-c2-s21-40db.s2p
! Existing Calibration Information:
! TYPE:                         Current Settings,       Active Cal Settings
! TIME:             	   01/10/2016 06:02:04 PM,    01/10/2016 03:13:30 PM
! INTERNAL TEMP:    	                   43.0 C,                    45.8 C
! # POINTS:         	                      500,                       500
! START FREQ:       	               10.000 MHz,                10.000 MHz
! STOP FREQ:        	              110.000 MHz,               110.000 MHz
! SOURCE POWER:     	                      Low,                       Low
! IFBW:             	                   100 Hz,                    100 Hz
! AVG FACTOR:       	                       3 ,                        3 
! REF PLANE 1:      	                 2.2245 m,                  2.2245 m
! REF PLANE 2:      	                     0 mm,                      0 mm
! CAL TYPE:         	             1P2P S11,S21,              1P2P S11,S21
! CAL METHOD:       	                     SOLT,                      SOLT
! CAL LINE TYPE:    	                     Coax,                      Coax
! DUT PORT 1:       	                K-Conn(M),                 K-Conn(M)
! DUT PORT 2:       	                N-Conn(M),                 N-Conn(M)
! CAL STATUS:       	        OK: Accuracy High,                        --
# GHZ S DB R 50.0
! FREQ.GHZ       S11DB        S11A       S21DB        S21A       S12DB        S12A       S22DB        S22A
  0.010000000  -41.308745 -111.829597  -64.622764  106.341652    0.000000    0.000000    0.000000    0.000000
  0.010200401  -41.041740 -113.414391  -63.538276   91.972366    0.000000    0.000000    0.000000    0.000000
  0.010400802  -40.490529 -104.796654  -63.374021   99.941986    0.000000    0.000000    0.000000    0.000000
  0.010601202  -41.665020 -106.204399  -63.876438  102.637703    0.000000    0.000000    0.000000    0.000000
  0.010801603  -41.227872 -106.115173  -63.386244   98.371109    0.000000    0.000000    0.000000    0.000000
  0.011002004  -41.321820  -97.835075  -63.489876  101.917938    0.000000    0.000000    0.000000    0.000000
  0.011202405  -41.209211 -102.056854  -61.835410  107.541458    0.000000    0.000000    0.000000    0.000000
  0.011402806  -40.576786  -91.746864  -64.857285  113.738167    0.000000    0.000000    0.000000    0.000000
  0.011603206  -41.135190 -102.092758  -63.440253  102.001335    0.000000    0.000000    0.000000    0.000000
  0.011803607  -41.988806  -91.352409  -64.724856   96.320221    0.000000    0.000000    0.000000    0.000000
  0.012004008  -40.739650 -105.113808  -64.925741   96.557571    0.000000    0.000000    0.000000    0.000000
  0.012204409  -40.786597  -97.020935  -64.474188  112.424919    0.000000    0.000000    0.000000    0.000000
  0.012404810  -40.989069  -99.238075  -65.928396  102.034401    0.000000    0.000000    0.000000    0.000000
  0.012605210  -41.734282  -96.007439  -63.874319  102.365402    0.000000    0.000000    0.000000    0.000000
  0.012805611  -40.419193  -98.172852  -65.604265  108.744576    0.000000    0.000000    0.000000    0.000000
  0.013006012  -41.692657  -93.510300  -64.999832  119.506493    0.000000    0.000000    0.000000    0.000000
  0.013206413  -41.299902  -92.035820  -64.503856  114.892921    0.000000    0.000000    0.000000    0.000000
  0.013406814  -40.806432  -90.219765  -65.862407  116.495804    0.000000    0.000000    0.000000    0.000000
  0.013607214  -40.407649  -91.058884  -64.004923  116.847420    0.000000    0.000000    0.000000    0.000000
  0.013807615  -41.138331  -86.636169  -64.877035  127.948898    0.000000    0.000000    0.000000    0.000000
  0.014008016  -40.726734  -93.632034  -64.595237  114.087250    0.000000    0.000000    0.000000    0.000000
  0.014208417  -41.115703  -87.658112  -64.329201  121.911377    0.000000    0.000000    0.000000    0.000000
  0.014408818  -40.695721  -84.317375  -64.590735  128.892044    0.000000    0.000000    0.000000    0.000000
  0.014609218  -41.081354  -82.868668  -64.377274  135.376221    0.000000    0.000000    0.000000    0.000000
  0.014809619  -40.674371  -82.135201  -63.992316  135.853592    0.000000    0.000000    0.000000    0.000000
  0.015010020  -41.109145  -87.380547  -63.263199  134.067535    0.000000    0.000000    0.000000    0.000000
  0.015210421  -40.647230  -78.080658  -63.251207  147.141953    0.000000    0.000000    0.000000    0.000000
  0.015410822  -40.208267  -81.002434  -62.883197  139.041061    0.000000    0.000000    0.000000    0.000000
  0.015611222  -40.617944  -78.668266  -62.884692  141.335526    0.000000    0.000000    0.000000    0.000000
  0.015811623  -40.887048  -77.658470  -62.655091  152.316650    0.000000    0.000000    0.000000    0.000000
  0.016012024  -40.031757  -75.490509  -61.409415  149.311737    0.000000    0.000000    0.000000    0.000000
  0.016212425  -40.547979  -71.633270  -60.534067  153.013321    0.000000    0.000000    0.000000    0.000000
  0.016412826  -40.793264  -68.257545  -60.174755  145.301300    0.000000    0.000000    0.000000    0.000000
  0.016613226  -41.412212  -71.677948  -59.662526  150.192184    0.000000    0.000000    0.000000    0.000000
  0.016813627  -40.063939  -69.072540  -59.093318  146.184647    0.000000    0.000000    0.000000    0.000000
  0.017014028  -41.009888  -70.911339  -59.228616  145.860580    0.000000    0.000000    0.000000    0.000000
  0.017214429  -39.985820  -73.200661  -58.913244  147.916595    0.000000    0.000000    0.000000    0.000000
  0.017414830  -39.462630  -68.740585  -57.907897  148.586884    0.000000    0.000000    0.000000    0.000000
  0.017615230  -39.824840  -67.777534  -58.141383  147.820450    0.000000    0.000000    0.000000    0.000000
  0.017815631  -40.543370  -68.844826  -57.310484  148.564835    0.000000    0.000000    0.000000    0.000000
  0.018016032  -41.680952  -67.507111  -56.896301  145.140701    0.000000    0.000000    0.000000    0.000000
  0.018216433  -40.270093  -60.436821  -56.067477  143.891479    0.000000    0.000000    0.000000    0.000000
  0.018416834  -41.299172  -65.891945  -57.285566  143.149521    0.000000    0.000000    0.000000    0.000000
  0.018617234  -40.209702  -61.629539  -56.827858  142.008728    0.000000    0.000000    0.000000    0.000000
  0.018817635  -41.285414  -59.540844  -57.282433  140.855911    0.000000    0.000000    0.000000    0.000000
  0.019018036  -41.760240  -57.537037  -57.015820  147.226913    0.000000    0.000000    0.000000    0.000000
  0.019218437  -41.076531  -58.174046  -57.135689  143.037216    0.000000    0.000000    0.000000    0.000000
  0.019418838  -41.030932  -54.175003  -58.059575  140.106781    0.000000    0.000000    0.000000    0.000000
  0.019619238  -41.618545  -60.398468  -57.697212  145.999130    0.000000    0.000000    0.000000    0.000000
  0.019819639  -41.249308  -55.697220  -58.460378  146.836548    0.000000    0.000000    0.000000    0.000000
  0.020020040  -41.050037  -44.984592  -59.845818  148.414413    0.000000    0.000000    0.000000    0.000000
  0.020220441  -39.410549  -47.837635  -60.478432  160.188370    0.000000    0.000000    0.000000    0.000000
  0.020420842  -40.813220  -49.236340  -62.232406  164.722260    0.000000    0.000000    0.000000    0.000000
  0.020621242  -41.058552  -44.347649  -63.243369 -169.862366    0.000000    0.000000    0.000000    0.000000
  0.020821643  -39.763476  -47.254635  -63.172817 -144.509995    0.000000    0.000000    0.000000    0.000000
  0.021022044  -40.167775  -49.026569  -60.049168 -127.948746    0.000000    0.000000    0.000000    0.000000
  0.021222445  -39.871260  -44.799927  -56.509402 -108.721100    0.000000    0.000000    0.000000    0.000000
  0.021422846  -40.766430  -34.921303  -54.089970 -101.555016    0.000000    0.000000    0.000000    0.000000
  0.021623246  -40.873963  -41.118267  -51.293809  -99.027870    0.000000    0.000000    0.000000    0.000000
  0.021823647  -41.287003  -38.915123  -48.668530  -97.535454    0.000000    0.000000    0.000000    0.000000
  0.022024048  -39.412701  -38.020782  -46.360644 -100.145302    0.000000    0.000000    0.000000    0.000000
  0.022224449  -40.411847  -40.203846  -44.370784 -101.291588    0.000000    0.000000    0.000000    0.000000
  0.022424850  -40.412385  -38.251091  -42.724986 -101.877762    0.000000    0.000000    0.000000    0.000000
  0.022625251  -40.834984  -36.525253  -41.145196 -103.694145    0.000000    0.000000    0.000000    0.000000
  0.022825651  -40.344208  -34.566040  -39.612721 -105.886574    0.000000    0.000000    0.000000    0.000000
  0.023026052  -40.436026  -36.289299  -37.871665 -108.034943    0.000000    0.000000    0.000000    0.000000
  0.023226453  -41.001332  -34.769547  -36.512992 -109.994408    0.000000    0.000000    0.000000    0.000000
  0.023426854  -41.225337  -31.723845  -34.918554 -113.133286    0.000000    0.000000    0.000000    0.000000
  0.023627255  -40.868456  -30.548532  -33.596087 -115.320999    0.000000    0.000000    0.000000    0.000000
  0.023827655  -41.573034  -29.700949  -32.194258 -117.884132    0.000000    0.000000    0.000000    0.000000
  0.024028056  -40.690489  -22.881554  -30.905771 -120.960411    0.000000    0.000000    0.000000    0.000000
  0.024228457  -41.448168  -31.144533  -29.589928 -123.634071    0.000000    0.000000    0.000000    0.000000
  0.024428858  -40.829140  -21.187902  -28.235746 -127.522743    0.000000    0.000000    0.000000    0.000000
  0.024629259  -38.939246  -17.193699  -27.033986 -130.532196    0.000000    0.000000    0.000000    0.000000
  0.024829659  -39.987168  -25.264524  -25.684678 -132.812851    0.000000    0.000000    0.000000    0.000000
  0.025030060  -40.506478  -24.877832  -24.447690 -136.567261    0.000000    0.000000    0.000000    0.000000
  0.025230461  -40.247802  -15.236914  -23.272541 -141.031296    0.000000    0.000000    0.000000    0.000000
  0.025430862  -41.093796  -24.944128  -22.066970 -145.137222    0.000000    0.000000    0.000000    0.000000
  0.025631263  -40.722519  -15.665734  -20.946330 -150.108795    0.000000    0.000000    0.000000    0.000000
  0.025831663  -40.895871  -11.990499  -19.777144 -154.600479    0.000000    0.000000    0.000000    0.000000
  0.026032064  -40.843296  -14.387083  -18.656663 -160.416962    0.000000    0.000000    0.000000    0.000000
  0.026232465  -40.026002  -11.541348  -17.598422 -165.213089    0.000000    0.000000    0.000000    0.000000
  0.026432866  -40.966423  -13.809854  -16.591903 -170.698090    0.000000    0.000000    0.000000    0.000000
  0.026633267  -41.524711  -14.819903  -15.485469 -176.512054    0.000000    0.000000    0.000000    0.000000
  0.026833667  -40.956763  -14.506474  -14.546677  177.383194    0.000000    0.000000    0.000000    0.000000
  0.027034068  -40.563443  -13.023720  -13.609998  170.704742    0.000000    0.000000    0.000000    0.000000
  0.027234469  -40.848461  -10.212154  -12.731429  163.934692    0.000000    0.000000    0.000000    0.000000
  0.027434870  -40.569566  -11.180713  -11.926110  156.881790    0.000000    0.000000    0.000000    0.000000
  0.027635271  -40.487456   -8.386732  -11.152667  149.651520    0.000000    0.000000    0.000000    0.000000
  0.027835671  -40.730861   -2.583562  -10.465199  141.757599    0.000000    0.000000    0.000000    0.000000
  0.028036072  -40.898280  -10.683783   -9.938021  134.677277    0.000000    0.000000    0.000000    0.000000
  0.028236473  -42.238898  -12.078409   -9.402154  127.139694    0.000000    0.000000    0.000000    0.000000
  0.028436874  -40.873610    1.688146   -8.972663  119.716766    0.000000    0.000000    0.000000    0.000000
  0.028637275  -40.601403    6.541883   -8.587297  112.224846    0.000000    0.000000    0.000000    0.000000
  0.028837675  -40.301931    3.119512   -8.336355  105.112595    0.000000    0.000000    0.000000    0.000000
  0.029038076  -40.471495    4.803755   -8.099123   98.793930    0.000000    0.000000    0.000000    0.000000
  0.029238477  -40.994486    7.241751   -7.951419   91.820389    0.000000    0.000000    0.000000    0.000000
  0.029438878  -40.179117    9.235200   -7.762333   86.052422    0.000000    0.000000    0.000000    0.000000
  0.029639279  -41.243853    7.778376   -7.702583   79.889954    0.000000    0.000000    0.000000    0.000000
  0.029839679  -40.533398   13.139695   -7.584921   74.169701    0.000000    0.000000    0.000000    0.000000
  0.030040080  -41.196581   14.431090   -7.545065   69.045265    0.000000    0.000000    0.000000    0.000000
  0.030240481  -40.524038   19.133436   -7.467044   63.495358    0.000000    0.000000    0.000000    0.000000
  0.030440882  -40.125113   13.281675   -7.479042   58.930939    0.000000    0.000000    0.000000    0.000000
  0.030641283  -40.627935   18.302017   -7.449085   54.222282    0.000000    0.000000    0.000000    0.000000
  0.030841683  -40.530159   23.455008   -7.376823   49.740818    0.000000    0.000000    0.000000    0.000000
  0.031042084  -41.070711   27.753754   -7.358801   45.308338    0.000000    0.000000    0.000000    0.000000
  0.031242485  -39.925580   22.036522   -7.345578   41.214821    0.000000    0.000000    0.000000    0.000000
  0.031442886  -40.363664   19.869528   -7.426330   37.116329    0.000000    0.000000    0.000000    0.000000
  0.031643287  -39.855175   23.894119   -7.365645   33.400089    0.000000    0.000000    0.000000    0.000000
  0.031843687  -39.957744   19.221647   -7.291954   30.173010    0.000000    0.000000    0.000000    0.000000
  0.032044088  -40.248590   33.648647   -7.406672   25.993784    0.000000    0.000000    0.000000    0.000000
  0.032244489  -39.817781   33.227245   -7.337463   22.864431    0.000000    0.000000    0.000000    0.000000
  0.032444890  -40.821650   34.448147   -7.262003   19.317852    0.000000    0.000000    0.000000    0.000000
  0.032645291  -39.141808   26.703587   -7.311582   15.917819    0.000000    0.000000    0.000000    0.000000
  0.032845691  -40.019595   34.852573   -7.281690   12.569819    0.000000    0.000000    0.000000    0.000000
  0.033046092  -38.904367   27.540535   -7.237085    9.681995    0.000000    0.000000    0.000000    0.000000
  0.033246493  -39.960792   40.169998   -7.341276    6.700393    0.000000    0.000000    0.000000    0.000000
  0.033446894  -39.806547   40.954296   -7.360990    3.277075    0.000000    0.000000    0.000000    0.000000
  0.033647295  -40.038098   37.529591   -7.341769    0.579018    0.000000    0.000000    0.000000    0.000000
  0.033847695  -40.224894   35.861904   -7.300292   -2.661751    0.000000    0.000000    0.000000    0.000000
  0.034048096  -39.864773   34.153587   -7.247567   -5.175366    0.000000    0.000000    0.000000    0.000000
  0.034248497  -38.781213   41.147923   -7.271724   -7.844388    0.000000    0.000000    0.000000    0.000000
  0.034448898  -39.579150   44.806393   -7.235213  -10.822570    0.000000    0.000000    0.000000    0.000000
  0.034649299  -39.826774   41.963257   -7.214990  -12.953492    0.000000    0.000000    0.000000    0.000000
  0.034849699  -39.206388   46.279720   -7.192994  -15.760129    0.000000    0.000000    0.000000    0.000000
  0.035050100  -39.890680   40.826725   -7.268466  -18.465405    0.000000    0.000000    0.000000    0.000000
  0.035250501  -39.115642   44.337334   -7.244593  -20.753002    0.000000    0.000000    0.000000    0.000000
  0.035450902  -39.198353   43.898899   -7.224667  -22.984322    0.000000    0.000000    0.000000    0.000000
  0.035651303  -39.884475   47.788273   -7.217959  -25.727875    0.000000    0.000000    0.000000    0.000000
  0.035851703  -39.799845   46.722202   -7.244328  -28.086611    0.000000    0.000000    0.000000    0.000000
  0.036052104  -40.614730   53.462524   -7.290162  -30.429575    0.000000    0.000000    0.000000    0.000000
  0.036252505  -39.861853   51.753178   -7.205083  -32.717716    0.000000    0.000000    0.000000    0.000000
  0.036452906  -39.097553   47.064121   -7.245713  -35.078812    0.000000    0.000000    0.000000    0.000000
  0.036653307  -39.261605   46.768169   -7.188230  -37.420021    0.000000    0.000000    0.000000    0.000000
  0.036853707  -39.624880   54.769997   -7.237606  -39.878822    0.000000    0.000000    0.000000    0.000000
  0.037054108  -39.565057   50.676384   -7.256945  -41.806076    0.000000    0.000000    0.000000    0.000000
  0.037254509  -39.798753   58.300308   -7.260679  -43.762074    0.000000    0.000000    0.000000    0.000000
  0.037454910  -39.020051   53.211044   -7.222338  -46.068298    0.000000    0.000000    0.000000    0.000000
  0.037655311  -39.127340   62.192070   -7.231139  -48.438595    0.000000    0.000000    0.000000    0.000000
  0.037855711  -39.022845   57.164486   -7.247181  -50.151947    0.000000    0.000000    0.000000    0.000000
  0.038056112  -39.530099   56.111172   -7.259148  -52.167370    0.000000    0.000000    0.000000    0.000000
  0.038256513  -39.487958   62.923302   -7.322330  -54.606873    0.000000    0.000000    0.000000    0.000000
  0.038456914  -40.192882   64.650772   -7.270920  -56.612766    0.000000    0.000000    0.000000    0.000000
  0.038657315  -40.182682   63.416893   -7.259737  -58.656681    0.000000    0.000000    0.000000    0.000000
  0.038857715  -39.372721   65.604958   -7.222573  -60.437801    0.000000    0.000000    0.000000    0.000000
  0.039058116  -38.910802   60.649448   -7.274435  -62.258041    0.000000    0.000000    0.000000    0.000000
  0.039258517  -39.656603   68.256157   -7.257249  -63.948078    0.000000    0.000000    0.000000    0.000000
  0.039458918  -39.549717   65.901428   -7.242536  -65.958214    0.000000    0.000000    0.000000    0.000000
  0.039659319  -40.593830   75.185295   -7.240398  -67.809853    0.000000    0.000000    0.000000    0.000000
  0.039859719  -39.844318   72.190651   -7.255587  -69.932907    0.000000    0.000000    0.000000    0.000000
  0.040060120  -39.551816   72.271706   -7.270319  -71.079857    0.000000    0.000000    0.000000    0.000000
  0.040260521  -40.223898   72.532692   -7.227173  -73.292801    0.000000    0.000000    0.000000    0.000000
  0.040460922  -39.435350   74.002525   -7.241053  -75.111092    0.000000    0.000000    0.000000    0.000000
  0.040661323  -39.651571   74.978546   -7.263402  -76.492722    0.000000    0.000000    0.000000    0.000000
  0.040861723  -40.449728   78.302391   -7.267126  -78.789131    0.000000    0.000000    0.000000    0.000000
  0.041062124  -40.129074   82.267128   -7.264762  -80.217941    0.000000    0.000000    0.000000    0.000000
  0.041262525  -40.590052   76.290054   -7.271359  -82.123680    0.000000    0.000000    0.000000    0.000000
  0.041462926  -40.359983   84.947044   -7.268452  -83.228363    0.000000    0.000000    0.000000    0.000000
  0.041663327  -40.131916   80.537918   -7.274686  -85.758179    0.000000    0.000000    0.000000    0.000000
  0.041863727  -39.991944   81.676239   -7.278286  -86.984085    0.000000    0.000000    0.000000    0.000000
  0.042064128  -38.871197   85.448792   -7.234865  -88.698418    0.000000    0.000000    0.000000    0.000000
  0.042264529  -39.599907   86.048103   -7.262247  -90.202324    0.000000    0.000000    0.000000    0.000000
  0.042464930  -39.742936   83.298393   -7.250547  -92.343437    0.000000    0.000000    0.000000    0.000000
  0.042665331  -40.031463   89.752899   -7.228705  -93.450249    0.000000    0.000000    0.000000    0.000000
  0.042865731  -40.473791   95.054283   -7.245906  -95.419296    0.000000    0.000000    0.000000    0.000000
