! Anritsu VNA Master:                 Model: MS2034B/10/19/501
! SN:                                  1337062
! /bd0/ovro-jan-2016/dcp-z2-s22.s2p
! Existing Calibration Information:
! TYPE:                         Current Settings,       Active Cal Settings
! TIME:             	   01/08/2016 09:32:04 PM,    01/08/2016 08:43:08 PM
! INTERNAL TEMP:    	                   42.5 C,                    45.0 C
! # POINTS:         	                      500,                       500
! START FREQ:       	               10.000 MHz,                10.000 MHz
! STOP FREQ:        	              110.000 MHz,               110.000 MHz
! SOURCE POWER:     	                      Low,                       Low
! IFBW:             	                   100 Hz,                    100 Hz
! AVG FACTOR:       	                       3 ,                        3 
! REF PLANE 1:      	                 2.2245 m,                  2.2245 m
! REF PLANE 2:      	                     0 mm,                      0 mm
! CAL TYPE:         	             1P2P S11,S21,              1P2P S11,S21
! CAL METHOD:       	                     SOLT,                      SOLT
! CAL LINE TYPE:    	                     Coax,                      Coax
! DUT PORT 1:       	                K-Conn(M),                 K-Conn(M)
! DUT PORT 2:       	                N-Conn(M),                 N-Conn(M)
! CAL STATUS:       	        OK: Accuracy High,                        --
# GHZ S DB R 50.0
! FREQ.GHZ       S11DB        S11A       S21DB        S21A       S12DB        S12A       S22DB        S22A
  0.010000000  -23.531023  155.564240  -66.879919   84.471405    0.000000    0.000000    0.000000    0.000000
  0.010200401  -23.740225  157.018036  -66.032316   80.643509    0.000000    0.000000    0.000000    0.000000
  0.010400802  -23.862341  159.806076  -66.182232   81.111595    0.000000    0.000000    0.000000    0.000000
  0.010601202  -23.939425  161.704208  -65.105178   87.397499    0.000000    0.000000    0.000000    0.000000
  0.010801603  -24.302234  163.219376  -65.232364   82.712914    0.000000    0.000000    0.000000    0.000000
  0.011002004  -24.250577  166.096573  -65.233833   93.224190    0.000000    0.000000    0.000000    0.000000
  0.011202405  -24.423713  168.143311  -65.446399   84.367905    0.000000    0.000000    0.000000    0.000000
  0.011402806  -24.627301  169.410690  -67.433914   94.229523    0.000000    0.000000    0.000000    0.000000
  0.011603206  -24.880580  170.534637  -67.304061   94.468994    0.000000    0.000000    0.000000    0.000000
  0.011803607  -25.256720  176.632050  -67.406738   93.278793    0.000000    0.000000    0.000000    0.000000
  0.012004008  -25.514253  178.481796  -66.395925   92.609840    0.000000    0.000000    0.000000    0.000000
  0.012204409  -25.184139  177.763779  -66.109536  115.417969    0.000000    0.000000    0.000000    0.000000
  0.012404810  -25.431776 -179.904388  -65.375570  106.233452    0.000000    0.000000    0.000000    0.000000
  0.012605210  -25.300377 -177.739410  -65.820863   94.583252    0.000000    0.000000    0.000000    0.000000
  0.012805611  -25.542485 -174.570663  -66.478505  107.862114    0.000000    0.000000    0.000000    0.000000
  0.013006012  -25.553713 -173.044830  -67.831924  115.753113    0.000000    0.000000    0.000000    0.000000
  0.013206413  -25.402358 -171.294647  -66.411340  106.695625    0.000000    0.000000    0.000000    0.000000
  0.013406814  -25.906066 -168.397293  -65.781517  102.830559    0.000000    0.000000    0.000000    0.000000
  0.013607214  -25.496423 -165.737503  -66.940237  104.545952    0.000000    0.000000    0.000000    0.000000
  0.013807615  -25.657025 -164.101944  -65.500610  101.124886    0.000000    0.000000    0.000000    0.000000
  0.014008016  -25.448276 -161.731552  -67.637330  104.823006    0.000000    0.000000    0.000000    0.000000
  0.014208417  -25.606919 -160.808929  -66.536230  112.433884    0.000000    0.000000    0.000000    0.000000
  0.014408818  -25.644659 -157.817749  -66.117906  118.058853    0.000000    0.000000    0.000000    0.000000
  0.014609218  -25.397045 -157.248703  -66.483011  112.133850    0.000000    0.000000    0.000000    0.000000
  0.014809619  -25.282540 -156.183228  -67.649582  118.714973    0.000000    0.000000    0.000000    0.000000
  0.015010020  -25.213834 -152.848740  -65.269661  110.799210    0.000000    0.000000    0.000000    0.000000
  0.015210421  -25.421137 -152.370056  -66.045702  114.570206    0.000000    0.000000    0.000000    0.000000
  0.015410822  -25.221798 -150.420670  -65.454224  118.433472    0.000000    0.000000    0.000000    0.000000
  0.015611222  -25.264916 -148.836990  -66.608308  125.147209    0.000000    0.000000    0.000000    0.000000
  0.015811623  -25.160448 -147.697876  -66.837977  128.044769    0.000000    0.000000    0.000000    0.000000
  0.016012024  -25.018692 -146.423782  -66.300914  126.076340    0.000000    0.000000    0.000000    0.000000
  0.016212425  -25.184081 -146.019196  -66.794610  118.792488    0.000000    0.000000    0.000000    0.000000
  0.016412826  -24.857095 -143.863373  -65.975854  127.216766    0.000000    0.000000    0.000000    0.000000
  0.016613226  -24.904895 -144.245132  -66.232236  132.353653    0.000000    0.000000    0.000000    0.000000
  0.016813627  -24.970200 -142.012207  -67.084489  125.366379    0.000000    0.000000    0.000000    0.000000
  0.017014028  -24.840346 -141.515427  -66.425276  133.649994    0.000000    0.000000    0.000000    0.000000
  0.017214429  -24.893635 -140.035538  -67.022413  134.157913    0.000000    0.000000    0.000000    0.000000
  0.017414830  -24.776526 -139.620758  -66.919687  133.920563    0.000000    0.000000    0.000000    0.000000
  0.017615230  -24.815670 -139.161850  -66.785206  143.025131    0.000000    0.000000    0.000000    0.000000
  0.017815631  -24.805312 -137.995728  -66.393929  127.585655    0.000000    0.000000    0.000000    0.000000
  0.018016032  -24.470864 -137.363403  -66.257814  136.276657    0.000000    0.000000    0.000000    0.000000
  0.018216433  -24.713360 -137.184021  -66.970100  144.687088    0.000000    0.000000    0.000000    0.000000
  0.018416834  -24.535939 -136.446136  -66.141243  146.503204    0.000000    0.000000    0.000000    0.000000
  0.018617234  -24.574767 -135.988968  -67.436646  155.594955    0.000000    0.000000    0.000000    0.000000
  0.018817635  -24.474962 -134.447800  -67.881853  144.277176    0.000000    0.000000    0.000000    0.000000
  0.019018036  -24.545149 -133.754196  -66.318339  148.281631    0.000000    0.000000    0.000000    0.000000
  0.019218437  -24.439830 -134.236710  -66.314478  152.904526    0.000000    0.000000    0.000000    0.000000
  0.019418838  -24.483781 -132.853943  -66.784311  150.995331    0.000000    0.000000    0.000000    0.000000
  0.019619238  -24.487545 -132.088120  -66.415242  153.424164    0.000000    0.000000    0.000000    0.000000
  0.019819639  -24.441645 -132.787811  -67.727022  153.749054    0.000000    0.000000    0.000000    0.000000
  0.020020040  -24.278273 -131.386185  -66.413718  157.121811    0.000000    0.000000    0.000000    0.000000
  0.020220441  -24.414700 -131.732513  -66.117303  163.112335    0.000000    0.000000    0.000000    0.000000
  0.020420842  -24.338056 -131.013275  -67.199577  166.177383    0.000000    0.000000    0.000000    0.000000
  0.020621242  -24.381294 -131.523972  -66.350273  170.037170    0.000000    0.000000    0.000000    0.000000
  0.020821643  -24.334770 -130.499252  -66.792863  169.633743    0.000000    0.000000    0.000000    0.000000
  0.021022044  -24.360971 -130.810257  -66.736195  163.088577    0.000000    0.000000    0.000000    0.000000
  0.021222445  -24.322674 -130.985062  -66.272886  163.755524    0.000000    0.000000    0.000000    0.000000
  0.021422846  -24.597148 -130.310059  -66.636793  166.037155    0.000000    0.000000    0.000000    0.000000
  0.021623246  -24.481958 -130.817596  -67.889318  170.754074    0.000000    0.000000    0.000000    0.000000
  0.021823647  -24.435321 -130.396622  -67.513883  172.611206    0.000000    0.000000    0.000000    0.000000
  0.022024048  -24.652014 -129.619812  -65.939614  174.651031    0.000000    0.000000    0.000000    0.000000
  0.022224449  -24.638668 -130.517654  -67.363928  168.746552    0.000000    0.000000    0.000000    0.000000
  0.022424850  -24.808128 -129.576447  -68.180992  174.037277    0.000000    0.000000    0.000000    0.000000
  0.022625251  -24.767083 -129.018250  -66.790537 -176.498047    0.000000    0.000000    0.000000    0.000000
  0.022825651  -24.806738 -129.090805  -67.020709 -176.673325    0.000000    0.000000    0.000000    0.000000
  0.023026052  -24.932443 -129.093979  -66.643276 -175.450363    0.000000    0.000000    0.000000    0.000000
  0.023226453  -24.848740 -130.018066  -67.435598 -172.769012    0.000000    0.000000    0.000000    0.000000
  0.023426854  -24.855724 -129.370499  -66.326145  179.647446    0.000000    0.000000    0.000000    0.000000
  0.023627255  -25.106386 -129.136200  -66.858551 -159.805435    0.000000    0.000000    0.000000    0.000000
  0.023827655  -25.448939 -130.312927  -66.356214 -170.674988    0.000000    0.000000    0.000000    0.000000
  0.024028056  -25.312265 -130.424622  -66.756908 -174.124054    0.000000    0.000000    0.000000    0.000000
  0.024228457  -25.368885 -130.103012  -66.853463 -170.003784    0.000000    0.000000    0.000000    0.000000
  0.024428858  -25.650829 -129.944626  -68.425733 -167.963531    0.000000    0.000000    0.000000    0.000000
  0.024629259  -25.749308 -131.121567  -67.544374 -165.896927    0.000000    0.000000    0.000000    0.000000
  0.024829659  -26.061756 -129.791168  -66.995682 -146.059738    0.000000    0.000000    0.000000    0.000000
  0.025030060  -26.153005 -131.369492  -65.561065 -140.651855    0.000000    0.000000    0.000000    0.000000
  0.025230461  -26.103998 -133.854736  -64.476034 -137.387009    0.000000    0.000000    0.000000    0.000000
  0.025430862  -26.787828 -131.003937  -66.519239 -140.429398    0.000000    0.000000    0.000000    0.000000
  0.025631263  -26.782885 -133.281464  -65.919402 -139.529556    0.000000    0.000000    0.000000    0.000000
  0.025831663  -27.370244 -134.099274  -65.973951 -121.940689    0.000000    0.000000    0.000000    0.000000
  0.026032064  -27.377737 -132.118378  -65.318320 -139.670135    0.000000    0.000000    0.000000    0.000000
  0.026232465  -28.082669 -134.401321  -66.019034 -124.784058    0.000000    0.000000    0.000000    0.000000
  0.026432866  -28.487680 -134.852203  -63.696084 -127.052490    0.000000    0.000000    0.000000    0.000000
  0.026633267  -28.736263 -132.234009  -64.151571 -115.241043    0.000000    0.000000    0.000000    0.000000
  0.026833667  -29.269324 -133.134262  -65.460602 -129.602386    0.000000    0.000000    0.000000    0.000000
  0.027034068  -29.984586 -128.956482  -65.390275 -122.944855    0.000000    0.000000    0.000000    0.000000
  0.027234469  -30.226441 -127.197876  -65.287341 -125.777550    0.000000    0.000000    0.000000    0.000000
  0.027434870  -30.810100 -129.268463  -64.528121 -129.184433    0.000000    0.000000    0.000000    0.000000
  0.027635271  -31.129095 -124.182404  -66.914840 -124.681580    0.000000    0.000000    0.000000    0.000000
  0.027835671  -31.426289 -120.653053  -64.851664 -119.632004    0.000000    0.000000    0.000000    0.000000
  0.028036072  -31.813216 -118.854660  -64.883711 -117.586281    0.000000    0.000000    0.000000    0.000000
  0.028236473  -32.027276 -111.769073  -64.652447 -122.457901    0.000000    0.000000    0.000000    0.000000
  0.028436874  -31.796983 -112.701836  -66.352506 -110.433807    0.000000    0.000000    0.000000    0.000000
  0.028637275  -31.721994 -108.154823  -64.731539 -113.667854    0.000000    0.000000    0.000000    0.000000
  0.028837675  -32.212612 -102.786766  -65.223613 -118.113914    0.000000    0.000000    0.000000    0.000000
  0.029038076  -31.859628  -99.389282  -65.298138 -122.821800    0.000000    0.000000    0.000000    0.000000
  0.029238477  -32.320147 -100.328270  -65.031850 -101.334793    0.000000    0.000000    0.000000    0.000000
  0.029438878  -31.753096  -98.696770  -65.699175 -109.056442    0.000000    0.000000    0.000000    0.000000
  0.029639279  -31.809462  -94.212723  -65.406666 -114.398941    0.000000    0.000000    0.000000    0.000000
  0.029839679  -31.765915  -92.607819  -64.479316 -103.288696    0.000000    0.000000    0.000000    0.000000
  0.030040080  -32.163185  -92.258614  -65.047992 -106.461372    0.000000    0.000000    0.000000    0.000000
  0.030240481  -31.783053  -89.697746  -65.139157 -100.955559    0.000000    0.000000    0.000000    0.000000
  0.030440882  -31.826707  -89.060486  -65.281141 -108.360832    0.000000    0.000000    0.000000    0.000000
  0.030641283  -31.817125  -86.612320  -64.685300 -100.247505    0.000000    0.000000    0.000000    0.000000
  0.030841683  -32.002047  -86.014023  -66.518524 -104.942886    0.000000    0.000000    0.000000    0.000000
  0.031042084  -32.188894  -87.192841  -65.616815  -97.134399    0.000000    0.000000    0.000000    0.000000
  0.031242485  -32.223626  -83.672897  -64.957389 -103.229309    0.000000    0.000000    0.000000    0.000000
  0.031442886  -32.575252  -83.713249  -65.649612 -100.671822    0.000000    0.000000    0.000000    0.000000
  0.031643287  -32.120001  -81.008781  -66.765570  -91.816689    0.000000    0.000000    0.000000    0.000000
  0.031843687  -32.445448  -80.641106  -66.633198  -99.691498    0.000000    0.000000    0.000000    0.000000
  0.032044088  -32.465949  -77.388535  -66.134795 -101.595055    0.000000    0.000000    0.000000    0.000000
  0.032244489  -32.608268  -79.652596  -65.866377  -99.092354    0.000000    0.000000    0.000000    0.000000
  0.032444890  -32.907615  -75.086189  -65.968192  -90.593529    0.000000    0.000000    0.000000    0.000000
  0.032645291  -32.493129  -72.287773  -66.644560  -91.674576    0.000000    0.000000    0.000000    0.000000
  0.032845691  -32.648403  -75.444405  -66.843712  -89.626122    0.000000    0.000000    0.000000    0.000000
  0.033046092  -33.435132  -69.993118  -66.516271  -80.525093    0.000000    0.000000    0.000000    0.000000
  0.033246493  -33.563084  -69.562408  -68.529311  -79.140114    0.000000    0.000000    0.000000    0.000000
  0.033446894  -33.225645  -68.722504  -67.644876  -73.296028    0.000000    0.000000    0.000000    0.000000
  0.033647295  -32.951354  -68.019447  -66.673226  -78.664513    0.000000    0.000000    0.000000    0.000000
  0.033847695  -33.427419  -66.432663  -65.461078  -83.476517    0.000000    0.000000    0.000000    0.000000
  0.034048096  -33.338402  -65.162186  -66.216416  -75.251717    0.000000    0.000000    0.000000    0.000000
  0.034248497  -33.324468  -60.096813  -67.281745  -71.562866    0.000000    0.000000    0.000000    0.000000
  0.034448898  -33.502101  -57.261189  -66.492693  -71.043968    0.000000    0.000000    0.000000    0.000000
  0.034649299  -33.535034  -64.801643  -67.970718  -76.313461    0.000000    0.000000    0.000000    0.000000
  0.034849699  -33.139325  -59.269020  -67.178875  -77.159462    0.000000    0.000000    0.000000    0.000000
  0.035050100  -33.355129  -55.654396  -67.883506  -58.497177    0.000000    0.000000    0.000000    0.000000
  0.035250501  -33.842579  -54.943733  -66.663723  -59.723347    0.000000    0.000000    0.000000    0.000000
  0.035450902  -33.017533  -52.907761  -65.707371  -66.102554    0.000000    0.000000    0.000000    0.000000
  0.035651303  -33.310458  -55.255463  -67.448587  -60.758072    0.000000    0.000000    0.000000    0.000000
  0.035851703  -33.201635  -50.605007  -67.212698  -62.895584    0.000000    0.000000    0.000000    0.000000
  0.036052104  -33.431333  -51.141003  -67.844007  -67.992996    0.000000    0.000000    0.000000    0.000000
  0.036252505  -33.400404  -50.532566  -66.770590  -49.235943    0.000000    0.000000    0.000000    0.000000
  0.036452906  -33.612196  -50.041546  -65.517873  -52.703327    0.000000    0.000000    0.000000    0.000000
  0.036653307  -33.844213  -48.852943  -66.674500  -48.592930    0.000000    0.000000    0.000000    0.000000
  0.036853707  -33.432556  -45.086357  -66.357661  -51.998333    0.000000    0.000000    0.000000    0.000000
  0.037054108  -33.360033  -44.360348  -69.429391  -55.669899    0.000000    0.000000    0.000000    0.000000
  0.037254509  -33.836456  -43.582684  -67.753766  -53.040287    0.000000    0.000000    0.000000    0.000000
  0.037454910  -33.703682  -42.921539  -66.879479  -50.888046    0.000000    0.000000    0.000000    0.000000
  0.037655311  -33.773486  -41.888062  -67.538411  -45.195122    0.000000    0.000000    0.000000    0.000000
  0.037855711  -33.845042  -39.037704  -67.809072  -41.340874    0.000000    0.000000    0.000000    0.000000
  0.038056112  -33.652791  -38.030991  -67.016095  -33.753761    0.000000    0.000000    0.000000    0.000000
  0.038256513  -33.963816  -38.297302  -67.991822  -35.356758    0.000000    0.000000    0.000000    0.000000
  0.038456914  -33.872779  -37.513191  -66.479220  -38.598850    0.000000    0.000000    0.000000    0.000000
  0.038657315  -34.044631  -34.946453  -67.791589  -30.941395    0.000000    0.000000    0.000000    0.000000
  0.038857715  -34.236354  -32.755241  -68.840491  -35.910416    0.000000    0.000000    0.000000    0.000000
  0.039058116  -33.927965  -32.072460  -66.909589  -36.497375    0.000000    0.000000    0.000000    0.000000
  0.039258517  -34.160502  -32.449184  -67.181928  -26.872353    0.000000    0.000000    0.000000    0.000000
  0.039458918  -34.305112  -33.029881  -68.181729  -25.228235    0.000000    0.000000    0.000000    0.000000
  0.039659319  -33.874145  -31.272318  -68.264713  -24.612909    0.000000    0.000000    0.000000    0.000000
  0.039859719  -34.207668  -28.738537  -67.190487  -25.992758    0.000000    0.000000    0.000000    0.000000
  0.040060120  -33.938680  -28.593880  -67.945587  -21.572315    0.000000    0.000000    0.000000    0.000000
  0.040260521  -34.531264  -27.698606  -68.166809  -19.955555    0.000000    0.000000    0.000000    0.000000
  0.040460922  -34.470081  -28.639757  -67.455446  -25.113083    0.000000    0.000000    0.000000    0.000000
  0.040661323  -34.370620  -26.718798  -67.483405  -20.803665    0.000000    0.000000    0.000000    0.000000
  0.040861723  -34.670453  -23.261633  -67.400963  -15.464487    0.000000    0.000000    0.000000    0.000000
  0.041062124  -34.944922  -20.645844  -67.873837  -14.059334    0.000000    0.000000    0.000000    0.000000
  0.041262525  -34.646567  -24.519203  -67.198588  -14.364406    0.000000    0.000000    0.000000    0.000000
  0.041462926  -34.467295  -19.590939  -66.504148  -12.953245    0.000000    0.000000    0.000000    0.000000
  0.041663327  -34.950550  -19.274218  -67.251111  -11.809774    0.000000    0.000000    0.000000    0.000000
  0.041863727  -35.094046  -19.756746  -66.673078  -10.405194    0.000000    0.000000    0.000000    0.000000
  0.042064128  -35.330566  -19.196238  -67.450222  -11.434627    0.000000    0.000000    0.000000    0.000000
  0.042264529  -35.140555  -14.924424  -68.067808   -5.335365    0.000000    0.000000    0.000000    0.000000
  0.042464930  -35.304197  -15.185879  -67.572565   -2.774377    0.000000    0.000000    0.000000    0.000000
  0.042665331  -35.098526  -13.654354  -66.840578    2.835055    0.000000    0.000000    0.000000    0.000000
  0.042865731  -35.444889  -14.558876  -67.036101    6.770290    0.000000    0.000000    0.000000    0.000000
