! Anritsu VNA Master:                 Model: MS2034B/10/19/501
! SN:                                  1337062
! /bd0/ovro-jan-2016/dcp2-c1-s22.s2p
! Existing Calibration Information:
! TYPE:                         Current Settings,       Active Cal Settings
! TIME:             	   01/12/2016 06:11:43 PM,    01/12/2016 05:57:47 PM
! INTERNAL TEMP:    	                   44.3 C,                    46.0 C
! # POINTS:         	                      500,                       500
! START FREQ:       	               10.000 MHz,                10.000 MHz
! STOP FREQ:        	              110.000 MHz,               110.000 MHz
! SOURCE POWER:     	                      Low,                       Low
! IFBW:             	                   100 Hz,                     1 kHz
! AVG FACTOR:       	                       3 ,                        3 
! REF PLANE 1:      	                     0 mm,                      0 mm
! REF PLANE 2:      	                     0 mm,                      0 mm
! CAL TYPE:         	             1P2P S11,S21,              1P2P S11,S21
! CAL METHOD:       	                     SOLT,                      SOLT
! CAL LINE TYPE:    	                     Coax,                      Coax
! DUT PORT 1:       	                K-Conn(M),                 K-Conn(M)
! DUT PORT 2:       	                N-Conn(M),                 N-Conn(M)
! CAL STATUS:       	        OK: Accuracy High,                        --
# GHZ S DB R 50.0
! FREQ.GHZ       S11DB        S11A       S21DB        S21A       S12DB        S12A       S22DB        S22A
  0.010000000  -24.713549  108.732796  -67.277305   65.609138    0.000000    0.000000    0.000000    0.000000
  0.010200401  -24.695108  110.551926  -67.402994   68.085388    0.000000    0.000000    0.000000    0.000000
  0.010400802  -25.269822  111.280350  -66.755039   59.800247    0.000000    0.000000    0.000000    0.000000
  0.010601202  -25.291344  111.448662  -66.381149   73.054947    0.000000    0.000000    0.000000    0.000000
  0.010801603  -25.293448  116.935364  -67.911173   82.591743    0.000000    0.000000    0.000000    0.000000
  0.011002004  -25.496245  119.206665  -67.827078   75.162590    0.000000    0.000000    0.000000    0.000000
  0.011202405  -25.396364  119.986534  -66.247761   75.982361    0.000000    0.000000    0.000000    0.000000
  0.011402806  -25.678807  122.899170  -65.572871   71.417442    0.000000    0.000000    0.000000    0.000000
  0.011603206  -25.562712  123.699051  -68.506633   63.692108    0.000000    0.000000    0.000000    0.000000
  0.011803607  -25.479467  126.068092  -67.125078   78.291496    0.000000    0.000000    0.000000    0.000000
  0.012004008  -25.584867  126.516975  -67.601420   64.269890    0.000000    0.000000    0.000000    0.000000
  0.012204409  -25.407155  128.137039  -67.128314   80.687042    0.000000    0.000000    0.000000    0.000000
  0.012404810  -25.340679  130.553757  -66.754155   79.647720    0.000000    0.000000    0.000000    0.000000
  0.012605210  -25.358094  131.823334  -66.540336   78.426735    0.000000    0.000000    0.000000    0.000000
  0.012805611  -25.070590  131.912827  -67.968928   80.707764    0.000000    0.000000    0.000000    0.000000
  0.013006012  -25.248234  131.342239  -67.217336   72.964569    0.000000    0.000000    0.000000    0.000000
  0.013206413  -24.932337  134.195099  -67.978570   72.443527    0.000000    0.000000    0.000000    0.000000
  0.013406814  -24.943060  135.997086  -67.882697   81.050911    0.000000    0.000000    0.000000    0.000000
  0.013607214  -24.754366  136.844254  -67.248366   83.058426    0.000000    0.000000    0.000000    0.000000
  0.013807615  -24.643730  136.989899  -68.316160   83.661148    0.000000    0.000000    0.000000    0.000000
  0.014008016  -24.398061  137.928574  -66.584572   82.687828    0.000000    0.000000    0.000000    0.000000
  0.014208417  -24.515943  134.464676  -67.429655   85.996162    0.000000    0.000000    0.000000    0.000000
  0.014408818  -24.362963  139.008270  -68.297376   88.586861    0.000000    0.000000    0.000000    0.000000
  0.014609218  -24.137106  138.961899  -67.595824   83.902107    0.000000    0.000000    0.000000    0.000000
  0.014809619  -24.017643  139.505432  -67.813002   91.295052    0.000000    0.000000    0.000000    0.000000
  0.015010020  -23.856299  138.166107  -68.110502   86.297241    0.000000    0.000000    0.000000    0.000000
  0.015210421  -23.786645  139.069717  -67.193330   93.216370    0.000000    0.000000    0.000000    0.000000
  0.015410822  -23.648153  138.185852  -67.680373   85.701637    0.000000    0.000000    0.000000    0.000000
  0.015611222  -23.648076  136.643616  -67.291017   92.295349    0.000000    0.000000    0.000000    0.000000
  0.015811623  -23.449580  137.283127  -67.995841   92.170807    0.000000    0.000000    0.000000    0.000000
  0.016012024  -23.237228  137.427551  -68.698572   92.065598    0.000000    0.000000    0.000000    0.000000
  0.016212425  -23.087618  137.218475  -67.191497   94.473930    0.000000    0.000000    0.000000    0.000000
  0.016412826  -23.156962  137.453918  -67.974932   93.064117    0.000000    0.000000    0.000000    0.000000
  0.016613226  -23.034142  135.861938  -67.018492   89.217300    0.000000    0.000000    0.000000    0.000000
  0.016813627  -22.962658  135.361038  -68.476111   91.405899    0.000000    0.000000    0.000000    0.000000
  0.017014028  -22.961025  135.245438  -68.759597   99.322517    0.000000    0.000000    0.000000    0.000000
  0.017214429  -22.656068  133.924789  -67.901460   88.205856    0.000000    0.000000    0.000000    0.000000
  0.017414830  -22.569066  133.173767  -67.852287   92.135880    0.000000    0.000000    0.000000    0.000000
  0.017615230  -22.634763  132.901199  -67.704912   86.510651    0.000000    0.000000    0.000000    0.000000
  0.017815631  -22.679703  132.393204  -67.148788   93.179970    0.000000    0.000000    0.000000    0.000000
  0.018016032  -22.515427  128.994659  -66.689028   93.718178    0.000000    0.000000    0.000000    0.000000
  0.018216433  -22.486293  129.842438  -68.021362   98.040810    0.000000    0.000000    0.000000    0.000000
  0.018416834  -22.495777  128.847031  -67.649270   94.548401    0.000000    0.000000    0.000000    0.000000
  0.018617234  -22.435714  127.584465  -67.606289  109.795723    0.000000    0.000000    0.000000    0.000000
  0.018817635  -22.408046  126.865631  -68.820213  101.917107    0.000000    0.000000    0.000000    0.000000
  0.019018036  -22.327938  126.147423  -68.032424  104.342461    0.000000    0.000000    0.000000    0.000000
  0.019218437  -22.291109  124.166374  -67.263738   96.113480    0.000000    0.000000    0.000000    0.000000
  0.019418838  -22.285444  124.597977  -67.494592  105.937904    0.000000    0.000000    0.000000    0.000000
  0.019619238  -22.256276  122.749306  -68.493907   96.584938    0.000000    0.000000    0.000000    0.000000
  0.019819639  -22.403084  121.392136  -68.723227  102.094345    0.000000    0.000000    0.000000    0.000000
  0.020020040  -22.360510  120.709251  -67.853763  106.407578    0.000000    0.000000    0.000000    0.000000
  0.020220441  -22.480082  120.394257  -67.890986  114.068497    0.000000    0.000000    0.000000    0.000000
  0.020420842  -22.361222  118.120224  -67.978969  110.484360    0.000000    0.000000    0.000000    0.000000
  0.020621242  -22.347273  115.333466  -68.073586  106.415901    0.000000    0.000000    0.000000    0.000000
  0.020821643  -22.509117  116.066811  -68.074005  116.059746    0.000000    0.000000    0.000000    0.000000
  0.021022044  -22.500108  115.631729  -69.667061  119.894310    0.000000    0.000000    0.000000    0.000000
  0.021222445  -22.530462  113.710709  -67.737794  118.894623    0.000000    0.000000    0.000000    0.000000
  0.021422846  -22.474313  111.497940  -68.815625  113.276970    0.000000    0.000000    0.000000    0.000000
  0.021623246  -22.502023  110.427536  -68.299400  113.245827    0.000000    0.000000    0.000000    0.000000
  0.021823647  -22.749272  108.952538  -67.995135  105.296928    0.000000    0.000000    0.000000    0.000000
  0.022024048  -22.812230  108.028976  -67.871594  105.193840    0.000000    0.000000    0.000000    0.000000
  0.022224449  -22.961385  106.508461  -67.843947  111.449738    0.000000    0.000000    0.000000    0.000000
  0.022424850  -22.985163  104.926811  -67.563868  118.518372    0.000000    0.000000    0.000000    0.000000
  0.022625251  -23.104130  102.899452  -68.517642  111.065338    0.000000    0.000000    0.000000    0.000000
  0.022825651  -23.287052  102.186646  -68.927829  116.174088    0.000000    0.000000    0.000000    0.000000
  0.023026052  -23.120611   99.402130  -68.494453  118.857254    0.000000    0.000000    0.000000    0.000000
  0.023226453  -23.270364   97.990746  -68.079664  117.033463    0.000000    0.000000    0.000000    0.000000
  0.023426854  -23.681332   97.502129  -67.400368  125.462799    0.000000    0.000000    0.000000    0.000000
  0.023627255  -23.734955   95.296471  -67.376644  124.238739    0.000000    0.000000    0.000000    0.000000
  0.023827655  -24.094757   93.612984  -67.719982  118.576759    0.000000    0.000000    0.000000    0.000000
  0.024028056  -24.136627   91.757423  -68.298798  123.959274    0.000000    0.000000    0.000000    0.000000
  0.024228457  -24.255195   89.843834  -68.173376  130.235565    0.000000    0.000000    0.000000    0.000000
  0.024428858  -24.505477   87.519676  -67.813361  120.352921    0.000000    0.000000    0.000000    0.000000
  0.024629259  -24.665275   85.794022  -70.134983  132.890610    0.000000    0.000000    0.000000    0.000000
  0.024829659  -25.168252   84.230225  -66.222216  164.894974    0.000000    0.000000    0.000000    0.000000
  0.025030060  -25.416823   82.465538  -66.199479  152.966690    0.000000    0.000000    0.000000    0.000000
  0.025230461  -25.880753   79.496323  -66.328499  161.367218    0.000000    0.000000    0.000000    0.000000
  0.025430862  -26.142516   77.607750  -66.413605  157.120026    0.000000    0.000000    0.000000    0.000000
  0.025631263  -26.619880   76.264900  -66.300243  161.767319    0.000000    0.000000    0.000000    0.000000
  0.025831663  -27.099281   73.553734  -65.807040  160.921463    0.000000    0.000000    0.000000    0.000000
  0.026032064  -27.563366   72.267204  -65.842417  160.803482    0.000000    0.000000    0.000000    0.000000
  0.026232465  -27.969165   69.113205  -67.158188  163.868912    0.000000    0.000000    0.000000    0.000000
  0.026432866  -28.872306   67.720306  -66.925857  165.775879    0.000000    0.000000    0.000000    0.000000
  0.026633267  -29.734591   67.190941  -66.824149  159.146820    0.000000    0.000000    0.000000    0.000000
  0.026833667  -31.305459   64.659622  -65.978624  162.484238    0.000000    0.000000    0.000000    0.000000
  0.027034068  -32.003446   66.636169  -67.628010  164.665604    0.000000    0.000000    0.000000    0.000000
  0.027234469  -33.583847   70.713249  -66.268292  159.074158    0.000000    0.000000    0.000000    0.000000
  0.027434870  -34.726645   74.750725  -66.145397  171.246750    0.000000    0.000000    0.000000    0.000000
  0.027635271  -35.617100   79.946411  -65.942164  173.517715    0.000000    0.000000    0.000000    0.000000
  0.027835671  -36.515528   84.577751  -67.315950  172.692612    0.000000    0.000000    0.000000    0.000000
  0.028036072  -36.526625   99.413269  -66.757127  161.798569    0.000000    0.000000    0.000000    0.000000
  0.028236473  -36.241625  108.303062  -66.781923  173.028488    0.000000    0.000000    0.000000    0.000000
  0.028436874  -35.304861  112.802620  -65.849213  166.893311    0.000000    0.000000    0.000000    0.000000
  0.028637275  -35.190641  121.157059  -66.403277  176.613327    0.000000    0.000000    0.000000    0.000000
  0.028837675  -34.633129  125.560226  -67.251501  167.141312    0.000000    0.000000    0.000000    0.000000
  0.029038076  -34.056383  125.429459  -66.656745  174.113434    0.000000    0.000000    0.000000    0.000000
  0.029238477  -34.078008  127.488350  -66.592582  166.963882    0.000000    0.000000    0.000000    0.000000
  0.029438878  -33.211005  127.920998  -66.674291  172.300827    0.000000    0.000000    0.000000    0.000000
  0.029639279  -32.754674  126.431953  -65.872970 -179.845322    0.000000    0.000000    0.000000    0.000000
  0.029839679  -32.595611  129.755432  -67.707211  179.609863    0.000000    0.000000    0.000000    0.000000
  0.030040080  -32.360078  126.440460  -66.590033  177.636948    0.000000    0.000000    0.000000    0.000000
  0.030240481  -32.060450  127.623314  -68.029475 -174.903595    0.000000    0.000000    0.000000    0.000000
  0.030440882  -31.455101  123.873489  -66.639063  175.844208    0.000000    0.000000    0.000000    0.000000
  0.030641283  -32.092784  127.719086  -66.236850  170.472458    0.000000    0.000000    0.000000    0.000000
  0.030841683  -32.244909  125.951271  -66.802865  167.180038    0.000000    0.000000    0.000000    0.000000
  0.031042084  -31.907634  125.979805  -67.674839  177.805908    0.000000    0.000000    0.000000    0.000000
  0.031242485  -32.009442  126.489380  -66.747340  169.298019    0.000000    0.000000    0.000000    0.000000
  0.031442886  -31.688472  125.497421  -68.325688  177.079498    0.000000    0.000000    0.000000    0.000000
  0.031643287  -31.596376  123.594894  -66.731300  179.337646    0.000000    0.000000    0.000000    0.000000
  0.031843687  -31.730841  125.920822  -66.680132 -178.476395    0.000000    0.000000    0.000000    0.000000
  0.032044088  -31.535671  127.585663  -67.799874  175.258484    0.000000    0.000000    0.000000    0.000000
  0.032244489  -31.836282  125.896507  -66.449515  171.572067    0.000000    0.000000    0.000000    0.000000
  0.032444890  -31.513537  125.975761  -67.917511 -177.954971    0.000000    0.000000    0.000000    0.000000
  0.032645291  -31.793031  125.266846  -67.608786 -171.853973    0.000000    0.000000    0.000000    0.000000
  0.032845691  -31.601684  124.929352  -68.416568 -164.335342    0.000000    0.000000    0.000000    0.000000
  0.033046092  -31.475053  127.574585  -67.809676  177.056946    0.000000    0.000000    0.000000    0.000000
  0.033246493  -31.424885  124.676323  -67.502338  177.012283    0.000000    0.000000    0.000000    0.000000
  0.033446894  -31.276428  126.841560  -67.852219 -171.299820    0.000000    0.000000    0.000000    0.000000
  0.033647295  -31.380478  126.149948  -68.082509  179.847412    0.000000    0.000000    0.000000    0.000000
  0.033847695  -31.614390  127.673050  -69.771997 -172.412247    0.000000    0.000000    0.000000    0.000000
  0.034048096  -31.673997  126.312439  -68.317443 -159.866852    0.000000    0.000000    0.000000    0.000000
  0.034248497  -32.164142  125.266106  -67.996870 -169.941071    0.000000    0.000000    0.000000    0.000000
  0.034448898  -31.425077  128.301163  -69.046569  178.802078    0.000000    0.000000    0.000000    0.000000
  0.034649299  -31.335241  125.907242  -67.948628 -170.966873    0.000000    0.000000    0.000000    0.000000
  0.034849699  -31.612951  127.090012  -68.421623 -169.799637    0.000000    0.000000    0.000000    0.000000
  0.035050100  -31.315050  125.917366  -70.065304 -172.252258    0.000000    0.000000    0.000000    0.000000
  0.035250501  -31.493484  126.004288  -67.525649 -164.829559    0.000000    0.000000    0.000000    0.000000
  0.035450902  -31.312719  126.190598  -68.268011 -167.775375    0.000000    0.000000    0.000000    0.000000
  0.035651303  -31.205185  126.003128  -70.283624 -165.376694    0.000000    0.000000    0.000000    0.000000
  0.035851703  -31.437363  126.365425  -67.793896 -164.706451    0.000000    0.000000    0.000000    0.000000
  0.036052104  -31.555682  125.032898  -67.917177 -166.925308    0.000000    0.000000    0.000000    0.000000
  0.036252505  -31.755734  125.663544  -66.916214 -155.714828    0.000000    0.000000    0.000000    0.000000
  0.036452906  -31.409680  124.703911  -69.169026 -172.109528    0.000000    0.000000    0.000000    0.000000
  0.036653307  -31.397921  124.406906  -69.596149 -159.655212    0.000000    0.000000    0.000000    0.000000
  0.036853707  -31.198622  125.355980  -69.228021 -150.365143    0.000000    0.000000    0.000000    0.000000
  0.037054108  -31.711553  124.191086  -68.666615 -168.938507    0.000000    0.000000    0.000000    0.000000
  0.037254509  -31.901902  123.658920  -68.988139 -151.540863    0.000000    0.000000    0.000000    0.000000
  0.037454910  -32.134148  122.990204  -68.088551 -158.783478    0.000000    0.000000    0.000000    0.000000
  0.037655311  -32.050237  123.114655  -67.770895 -161.413147    0.000000    0.000000    0.000000    0.000000
  0.037855711  -31.740693  123.608215  -68.619134 -147.076126    0.000000    0.000000    0.000000    0.000000
  0.038056112  -31.822880  121.135696  -68.551692 -142.434387    0.000000    0.000000    0.000000    0.000000
  0.038256513  -32.168369  121.760269  -69.383901 -140.183029    0.000000    0.000000    0.000000    0.000000
  0.038456914  -32.010342  122.014458  -70.945574 -143.161118    0.000000    0.000000    0.000000    0.000000
  0.038657315  -32.199166  122.249336  -68.691672 -135.793930    0.000000    0.000000    0.000000    0.000000
  0.038857715  -31.922629  123.330788  -71.766513 -148.246429    0.000000    0.000000    0.000000    0.000000
  0.039058116  -32.184550  121.513794  -70.789678 -145.578827    0.000000    0.000000    0.000000    0.000000
  0.039258517  -32.731872  119.682922  -70.195284 -132.963760    0.000000    0.000000    0.000000    0.000000
  0.039458918  -32.530729  119.204666  -69.792997 -136.540924    0.000000    0.000000    0.000000    0.000000
  0.039659319  -32.490648  121.918633  -69.009604 -125.592293    0.000000    0.000000    0.000000    0.000000
  0.039859719  -32.507509  123.661163  -68.944937 -139.730316    0.000000    0.000000    0.000000    0.000000
  0.040060120  -32.613120  119.531464  -70.421000 -135.660843    0.000000    0.000000    0.000000    0.000000
  0.040260521  -32.878387  120.341743  -68.663503 -131.297379    0.000000    0.000000    0.000000    0.000000
  0.040460922  -32.779916  120.011086  -68.461919 -144.971771    0.000000    0.000000    0.000000    0.000000
  0.040661323  -33.072444  123.361450  -69.945359 -126.097313    0.000000    0.000000    0.000000    0.000000
  0.040861723  -33.294225  121.622757  -68.246378 -129.357132    0.000000    0.000000    0.000000    0.000000
  0.041062124  -33.257758  120.871742  -67.895054 -133.935577    0.000000    0.000000    0.000000    0.000000
  0.041262525  -33.273794  119.939117  -67.244966 -126.663017    0.000000    0.000000    0.000000    0.000000
  0.041462926  -33.477138  120.446861  -69.500379 -122.884361    0.000000    0.000000    0.000000    0.000000
  0.041663327  -33.544405  123.105034  -69.700938 -130.669235    0.000000    0.000000    0.000000    0.000000
  0.041863727  -34.220354  117.698692  -67.524553 -118.598930    0.000000    0.000000    0.000000    0.000000
  0.042064128  -33.640833  121.206253  -68.808018 -113.421913    0.000000    0.000000    0.000000    0.000000
  0.042264529  -33.867956  121.082932  -69.686584 -121.907455    0.000000    0.000000    0.000000    0.000000
  0.042464930  -34.231190  123.424568  -68.513602 -120.613754    0.000000    0.000000    0.000000    0.000000
  0.042665331  -33.879764  122.457466  -68.395568 -127.165306    0.000000    0.000000    0.000000    0.000000
  0.042865731  -34.325501  122.743446  -68.909833 -126.091644    0.000000    0.000000    0.000000    0.000000
