! Anritsu VNA Master:                 Model: MS2034B/10/19/501
! SN:                                  1337062
! /bd0/ovro-jan-2016/ljg-vna-s22-z1.s2p
! Existing Calibration Information:
! TYPE:                         Current Settings,       Active Cal Settings
! TIME:             	   01/08/2016 05:52:24 PM,    01/08/2016 05:30:02 PM
! INTERNAL TEMP:    	                   45.0 C,                    46.5 C
! # POINTS:         	                      500,                       500
! START FREQ:       	               10.000 MHz,                10.000 MHz
! STOP FREQ:        	              110.000 MHz,               110.000 MHz
! SOURCE POWER:     	                      Low,                       Low
! IFBW:             	                   100 Hz,                    100 Hz
! AVG FACTOR:       	                       3 ,                        3 
! REF PLANE 1:      	                 1.2232 m,                  1.2232 m
! REF PLANE 2:      	                     0 mm,                      0 mm
! CAL TYPE:         	             1P2P S11,S21,              1P2P S11,S21
! CAL METHOD:       	                     SOLT,                      SOLT
! CAL LINE TYPE:    	                     Coax,                      Coax
! DUT PORT 1:       	                K-Conn(M),                 K-Conn(M)
! DUT PORT 2:       	                N-Conn(M),                 N-Conn(M)
! CAL STATUS:       	        OK: Accuracy High,                        --
# GHZ S DB R 50.0
! FREQ.GHZ       S11DB        S11A       S21DB        S21A       S12DB        S12A       S22DB        S22A
  0.010000000  -22.865418  136.689331  -66.323647   64.952827    0.000000    0.000000    0.000000    0.000000
  0.010200401  -23.017284  137.218933  -67.210409   78.103104    0.000000    0.000000    0.000000    0.000000
  0.010400802  -23.280970  139.935822  -67.359699   73.209694    0.000000    0.000000    0.000000    0.000000
  0.010601202  -23.430122  140.804718  -66.705648   78.874161    0.000000    0.000000    0.000000    0.000000
  0.010801603  -23.619072  142.598373  -66.021711   77.264641    0.000000    0.000000    0.000000    0.000000
  0.011002004  -23.826204  144.526108  -67.232428   77.566162    0.000000    0.000000    0.000000    0.000000
  0.011202405  -23.971647  145.952652  -67.117294   80.828354    0.000000    0.000000    0.000000    0.000000
  0.011402806  -23.963096  147.462524  -66.172545   81.178200    0.000000    0.000000    0.000000    0.000000
  0.011603206  -24.210951  149.976913  -65.787401   75.173744    0.000000    0.000000    0.000000    0.000000
  0.011803607  -24.241532  151.984665  -66.765017   84.826164    0.000000    0.000000    0.000000    0.000000
  0.012004008  -24.359846  153.387802  -65.827820   86.854103    0.000000    0.000000    0.000000    0.000000
  0.012204409  -24.221015  155.435684  -67.344547   91.157829    0.000000    0.000000    0.000000    0.000000
  0.012404810  -24.510825  157.123810  -66.328724   85.840874    0.000000    0.000000    0.000000    0.000000
  0.012605210  -24.576873  158.743271  -66.987708   89.699928    0.000000    0.000000    0.000000    0.000000
  0.012805611  -24.623981  160.439865  -67.773466   91.626801    0.000000    0.000000    0.000000    0.000000
  0.013006012  -24.577424  160.621292  -66.487141   88.437065    0.000000    0.000000    0.000000    0.000000
  0.013206413  -24.572853  163.028305  -66.612483   91.764236    0.000000    0.000000    0.000000    0.000000
  0.013406814  -24.573313  163.197601  -68.423465  100.079178    0.000000    0.000000    0.000000    0.000000
  0.013607214  -24.597587  164.168457  -66.831390   98.674980    0.000000    0.000000    0.000000    0.000000
  0.013807615  -24.564322  167.092392  -67.500634   94.296013    0.000000    0.000000    0.000000    0.000000
  0.014008016  -24.596760  168.473343  -66.779216   98.355392    0.000000    0.000000    0.000000    0.000000
  0.014208417  -24.434012  169.704559  -67.153137   98.099976    0.000000    0.000000    0.000000    0.000000
  0.014408818  -24.541753  170.622757  -66.903761   99.516968    0.000000    0.000000    0.000000    0.000000
  0.014609218  -24.631362  170.952133  -66.369542   98.278938    0.000000    0.000000    0.000000    0.000000
  0.014809619  -24.558380  172.708298  -66.053782   97.085197    0.000000    0.000000    0.000000    0.000000
  0.015010020  -24.523122  173.511292  -67.834545  104.257637    0.000000    0.000000    0.000000    0.000000
  0.015210421  -24.171906  175.120895  -66.287412  106.193642    0.000000    0.000000    0.000000    0.000000
  0.015410822  -24.450371  175.214554  -67.757767   99.865067    0.000000    0.000000    0.000000    0.000000
  0.015611222  -24.178447  176.055984  -66.732779  104.221649    0.000000    0.000000    0.000000    0.000000
  0.015811623  -24.213200  177.248795  -65.570351  107.748383    0.000000    0.000000    0.000000    0.000000
  0.016012024  -24.154728  177.833176  -66.262230   99.317879    0.000000    0.000000    0.000000    0.000000
  0.016212425  -24.263479  178.167023  -66.902033  105.902229    0.000000    0.000000    0.000000    0.000000
  0.016412826  -24.156701  178.024246  -67.122530  111.012573    0.000000    0.000000    0.000000    0.000000
  0.016613226  -23.918508 -179.859238  -66.420796  112.419006    0.000000    0.000000    0.000000    0.000000
  0.016813627  -23.980829 -179.428162  -67.279701  111.310295    0.000000    0.000000    0.000000    0.000000
  0.017014028  -24.019270 -179.630508  -67.083841  114.800362    0.000000    0.000000    0.000000    0.000000
  0.017214429  -23.806723 -179.703308  -67.804650  108.289795    0.000000    0.000000    0.000000    0.000000
  0.017414830  -23.983408 -179.680862  -68.053234  118.431862    0.000000    0.000000    0.000000    0.000000
  0.017615230  -23.716905 -179.360550  -68.536848  129.034302    0.000000    0.000000    0.000000    0.000000
  0.017815631  -23.754426 -179.910690  -67.061254  119.881447    0.000000    0.000000    0.000000    0.000000
  0.018016032  -23.876237 -179.255707  -67.608490  120.494019    0.000000    0.000000    0.000000    0.000000
  0.018216433  -23.791042 -179.813507  -67.798854  120.843781    0.000000    0.000000    0.000000    0.000000
  0.018416834  -23.827045 -179.329590  -67.969080  118.885040    0.000000    0.000000    0.000000    0.000000
  0.018617234  -24.041261 -178.344101  -67.683591  129.212860    0.000000    0.000000    0.000000    0.000000
  0.018817635  -23.896825 -178.125183  -67.438907  125.957893    0.000000    0.000000    0.000000    0.000000
  0.019018036  -23.804242 -178.756424  -68.381349  133.989670    0.000000    0.000000    0.000000    0.000000
  0.019218437  -23.790186 -177.871017  -67.282891  127.245689    0.000000    0.000000    0.000000    0.000000
  0.019418838  -23.861641 -178.674927  -67.656010  133.743149    0.000000    0.000000    0.000000    0.000000
  0.019619238  -23.789426 -178.968918  -67.296433  131.219086    0.000000    0.000000    0.000000    0.000000
  0.019819639  -23.897465 -178.840637  -66.679735  132.577225    0.000000    0.000000    0.000000    0.000000
  0.020020040  -23.791157 -178.648331  -67.065765  134.402206    0.000000    0.000000    0.000000    0.000000
  0.020220441  -23.901247 -179.202103  -68.696781  145.438873    0.000000    0.000000    0.000000    0.000000
  0.020420842  -23.963529 -179.458984  -67.789762  140.460175    0.000000    0.000000    0.000000    0.000000
  0.020621242  -23.918533  179.979172  -67.715818  142.052643    0.000000    0.000000    0.000000    0.000000
  0.020821643  -23.926613 -179.861496  -68.994230  143.867371    0.000000    0.000000    0.000000    0.000000
  0.021022044  -23.927542  178.916183  -67.663611  140.475723    0.000000    0.000000    0.000000    0.000000
  0.021222445  -24.105996  179.380402  -67.762471  145.707367    0.000000    0.000000    0.000000    0.000000
  0.021422846  -24.241915  179.241837  -67.279659  142.177231    0.000000    0.000000    0.000000    0.000000
  0.021623246  -24.360343  178.883179  -66.840317  145.174759    0.000000    0.000000    0.000000    0.000000
  0.021823647  -24.443644  178.786377  -67.103131  141.919571    0.000000    0.000000    0.000000    0.000000
  0.022024048  -24.379084  177.486099  -66.853614  148.795120    0.000000    0.000000    0.000000    0.000000
  0.022224449  -24.613606  178.133469  -66.602014  145.282455    0.000000    0.000000    0.000000    0.000000
  0.022424850  -24.659992  177.110245  -68.007707  154.729843    0.000000    0.000000    0.000000    0.000000
  0.022625251  -24.770250  175.816895  -67.764297  154.995132    0.000000    0.000000    0.000000    0.000000
  0.022825651  -24.811986  176.286697  -67.342501  150.941467    0.000000    0.000000    0.000000    0.000000
  0.023026052  -24.842617  175.364029  -67.642686  157.738678    0.000000    0.000000    0.000000    0.000000
  0.023226453  -24.916593  174.735184  -68.033763  155.534271    0.000000    0.000000    0.000000    0.000000
  0.023426854  -25.395873  173.487564  -66.560680  152.719604    0.000000    0.000000    0.000000    0.000000
  0.023627255  -25.497168  173.673050  -67.132705  162.215286    0.000000    0.000000    0.000000    0.000000
  0.023827655  -25.780329  172.635605  -67.271324  154.891449    0.000000    0.000000    0.000000    0.000000
  0.024028056  -25.864243  172.735748  -67.548117  160.667831    0.000000    0.000000    0.000000    0.000000
  0.024228457  -25.870144  172.057373  -67.719723  166.217957    0.000000    0.000000    0.000000    0.000000
  0.024428858  -26.377648  170.946381  -67.773893  158.245941    0.000000    0.000000    0.000000    0.000000
  0.024629259  -26.464868  170.071442  -67.794927  174.225723    0.000000    0.000000    0.000000    0.000000
  0.024829659  -27.123694  167.833160  -66.869449 -162.384354    0.000000    0.000000    0.000000    0.000000
  0.025030060  -26.981787  168.462128  -65.724236 -151.990128    0.000000    0.000000    0.000000    0.000000
  0.025230461  -27.569789  168.795059  -65.627403 -165.515884    0.000000    0.000000    0.000000    0.000000
  0.025430862  -28.076234  167.568527  -66.686538 -168.356064    0.000000    0.000000    0.000000    0.000000
  0.025631263  -28.467455  166.151855  -66.513607 -170.092178    0.000000    0.000000    0.000000    0.000000
  0.025831663  -28.451416  166.047760  -66.203749 -170.189224    0.000000    0.000000    0.000000    0.000000
  0.026032064  -28.968490  168.632278  -66.305456 -166.871231    0.000000    0.000000    0.000000    0.000000
  0.026232465  -29.890141  166.380051  -66.581774 -147.170364    0.000000    0.000000    0.000000    0.000000
  0.026432866  -30.389202  169.300552  -66.011405 -158.988937    0.000000    0.000000    0.000000    0.000000
  0.026633267  -30.625713  167.165497  -66.298806 -165.378708    0.000000    0.000000    0.000000    0.000000
  0.026833667  -31.748156  173.891083  -66.494794 -162.912018    0.000000    0.000000    0.000000    0.000000
  0.027034068  -32.904134  177.250092  -65.924357 -161.126495    0.000000    0.000000    0.000000    0.000000
  0.027234469  -33.203797  177.015793  -65.760928 -156.488235    0.000000    0.000000    0.000000    0.000000
  0.027434870  -33.157786 -176.966660  -65.466043 -155.399719    0.000000    0.000000    0.000000    0.000000
  0.027635271  -34.147960 -172.508850  -66.096282 -151.303787    0.000000    0.000000    0.000000    0.000000
  0.027835671  -34.244609 -165.394547  -66.602700 -157.169724    0.000000    0.000000    0.000000    0.000000
  0.028036072  -34.022422 -158.563629  -66.849480 -157.753494    0.000000    0.000000    0.000000    0.000000
  0.028236473  -33.688788 -151.957657  -66.166693 -151.002625    0.000000    0.000000    0.000000    0.000000
  0.028436874  -33.767054 -154.276520  -66.083182 -154.659515    0.000000    0.000000    0.000000    0.000000
  0.028637275  -33.320090 -149.691711  -66.555280 -140.733185    0.000000    0.000000    0.000000    0.000000
  0.028837675  -33.050477 -142.364243  -66.410010 -140.076950    0.000000    0.000000    0.000000    0.000000
  0.029038076  -32.930127 -145.027237  -66.946625 -148.362671    0.000000    0.000000    0.000000    0.000000
  0.029238477  -32.601555 -142.271347  -65.890255 -141.920746    0.000000    0.000000    0.000000    0.000000
  0.029438878  -32.670196 -142.478867  -67.586142 -141.221481    0.000000    0.000000    0.000000    0.000000
  0.029639279  -31.849599 -140.799576  -66.771613 -137.328308    0.000000    0.000000    0.000000    0.000000
  0.029839679  -32.393908 -138.079575  -66.449983 -141.210892    0.000000    0.000000    0.000000    0.000000
  0.030040080  -31.895943 -139.561340  -69.193761 -131.094955    0.000000    0.000000    0.000000    0.000000
  0.030240481  -32.036190 -139.178635  -66.780537 -132.401001    0.000000    0.000000    0.000000    0.000000
  0.030440882  -32.028926 -138.663040  -67.230186 -132.505585    0.000000    0.000000    0.000000    0.000000
  0.030641283  -31.953930 -138.289963  -65.543047 -141.336075    0.000000    0.000000    0.000000    0.000000
  0.030841683  -32.197967 -136.595016  -67.748239 -134.017593    0.000000    0.000000    0.000000    0.000000
  0.031042084  -32.218744 -139.101044  -66.817315 -126.912018    0.000000    0.000000    0.000000    0.000000
  0.031242485  -31.917642 -135.174622  -67.225886 -136.695786    0.000000    0.000000    0.000000    0.000000
  0.031442886  -31.676334 -136.625443  -66.638741 -132.959320    0.000000    0.000000    0.000000    0.000000
  0.031643287  -31.773908 -134.658997  -66.281417 -132.551163    0.000000    0.000000    0.000000    0.000000
  0.031843687  -31.992068 -135.131500  -67.068952 -124.752998    0.000000    0.000000    0.000000    0.000000
  0.032044088  -31.723524 -132.924561  -66.890377 -126.048752    0.000000    0.000000    0.000000    0.000000
  0.032244489  -31.544382 -131.920578  -66.890228 -125.184265    0.000000    0.000000    0.000000    0.000000
  0.032444890  -31.932721 -132.186066  -68.205918 -128.165329    0.000000    0.000000    0.000000    0.000000
  0.032645291  -31.952290 -132.007690  -67.056114 -125.690819    0.000000    0.000000    0.000000    0.000000
  0.032845691  -31.914988 -131.045090  -67.395521 -126.796822    0.000000    0.000000    0.000000    0.000000
  0.033046092  -32.033608 -125.110077  -67.544922 -111.226639    0.000000    0.000000    0.000000    0.000000
  0.033246493  -32.032825 -128.566803  -67.787353 -107.426811    0.000000    0.000000    0.000000    0.000000
  0.033446894  -32.045411 -128.285202  -67.223419 -119.276619    0.000000    0.000000    0.000000    0.000000
  0.033647295  -32.279171 -128.186539  -67.569925 -115.799408    0.000000    0.000000    0.000000    0.000000
  0.033847695  -32.085167 -124.476921  -67.343599 -104.455925    0.000000    0.000000    0.000000    0.000000
  0.034048096  -32.234565 -128.348236  -67.867552 -113.594002    0.000000    0.000000    0.000000    0.000000
  0.034248497  -32.062703 -126.114822  -67.851915 -114.062416    0.000000    0.000000    0.000000    0.000000
  0.034448898  -32.325771 -125.948494  -67.217630 -104.486794    0.000000    0.000000    0.000000    0.000000
  0.034649299  -32.197822 -123.064148  -66.947495 -108.130386    0.000000    0.000000    0.000000    0.000000
  0.034849699  -32.527615 -125.060776  -67.125941 -104.292450    0.000000    0.000000    0.000000    0.000000
  0.035050100  -32.277094 -121.572433  -68.077138 -109.517105    0.000000    0.000000    0.000000    0.000000
  0.035250501  -32.467814 -122.545723  -66.815111 -105.901581    0.000000    0.000000    0.000000    0.000000
  0.035450902  -32.430065 -123.272675  -66.735952 -108.541779    0.000000    0.000000    0.000000    0.000000
  0.035651303  -32.490444 -121.723503  -67.730894 -102.042244    0.000000    0.000000    0.000000    0.000000
  0.035851703  -32.558232 -122.944252  -66.660365 -104.489883    0.000000    0.000000    0.000000    0.000000
  0.036052104  -32.231901 -119.771820  -67.321975 -100.354485    0.000000    0.000000    0.000000    0.000000
  0.036252505  -32.494183 -119.836159  -66.829644 -100.069527    0.000000    0.000000    0.000000    0.000000
  0.036452906  -32.435230 -121.170837  -68.512058 -104.675964    0.000000    0.000000    0.000000    0.000000
  0.036653307  -32.631031 -119.039787  -67.846262 -102.670700    0.000000    0.000000    0.000000    0.000000
  0.036853707  -32.758160 -115.850296  -67.151015  -89.767937    0.000000    0.000000    0.000000    0.000000
  0.037054108  -32.733337 -118.349037  -68.427270 -100.373360    0.000000    0.000000    0.000000    0.000000
  0.037254509  -32.800027 -117.491783  -68.743194  -92.718826    0.000000    0.000000    0.000000    0.000000
  0.037454910  -32.827583 -115.982239  -66.772579  -91.377571    0.000000    0.000000    0.000000    0.000000
  0.037655311  -32.630659 -117.085426  -67.305533  -92.116730    0.000000    0.000000    0.000000    0.000000
  0.037855711  -33.292387 -114.876785  -67.511060  -94.120956    0.000000    0.000000    0.000000    0.000000
  0.038056112  -32.720063 -113.008339  -67.961811  -87.200066    0.000000    0.000000    0.000000    0.000000
  0.038256513  -33.041452 -114.742630  -67.894788  -89.752419    0.000000    0.000000    0.000000    0.000000
  0.038456914  -33.134484 -112.824593  -66.928293  -90.475243    0.000000    0.000000    0.000000    0.000000
  0.038657315  -33.350802 -111.751381  -66.889396  -90.908951    0.000000    0.000000    0.000000    0.000000
  0.038857715  -33.609975 -110.952232  -67.824641  -93.417084    0.000000    0.000000    0.000000    0.000000
  0.039058116  -33.478515 -110.968185  -67.676042  -91.118912    0.000000    0.000000    0.000000    0.000000
  0.039258517  -33.174448 -107.814430  -67.924096  -81.417252    0.000000    0.000000    0.000000    0.000000
  0.039458918  -33.910033 -113.056046  -67.893128  -84.396729    0.000000    0.000000    0.000000    0.000000
  0.039659319  -33.495316 -108.698181  -68.321829  -78.309723    0.000000    0.000000    0.000000    0.000000
  0.039859719  -34.005390 -106.996597  -67.827041  -78.803162    0.000000    0.000000    0.000000    0.000000
  0.040060120  -33.655678 -107.478439  -67.799840  -76.019424    0.000000    0.000000    0.000000    0.000000
  0.040260521  -33.818539 -107.588470  -68.810603  -69.573105    0.000000    0.000000    0.000000    0.000000
  0.040460922  -33.525832 -104.867180  -67.280643  -74.121948    0.000000    0.000000    0.000000    0.000000
  0.040661323  -34.327936 -105.648544  -68.274998  -72.432442    0.000000    0.000000    0.000000    0.000000
  0.040861723  -34.111608 -104.258255  -67.148811  -75.295700    0.000000    0.000000    0.000000    0.000000
  0.041062124  -34.101842 -102.529503  -67.981721  -70.789505    0.000000    0.000000    0.000000    0.000000
  0.041262525  -34.498112 -104.831154  -69.037134  -70.674683    0.000000    0.000000    0.000000    0.000000
  0.041462926  -34.098065 -103.270660  -68.466635  -71.326950    0.000000    0.000000    0.000000    0.000000
  0.041663327  -34.879245 -103.587173  -68.392923  -64.144478    0.000000    0.000000    0.000000    0.000000
  0.041863727  -34.849301  -98.231575  -68.116838  -68.025475    0.000000    0.000000    0.000000    0.000000
  0.042064128  -34.719019 -101.711281  -68.400957  -65.881310    0.000000    0.000000    0.000000    0.000000
  0.042264529  -35.286870  -99.808083  -67.994320  -55.946609    0.000000    0.000000    0.000000    0.000000
  0.042464930  -35.089993  -98.023911  -68.904349  -66.981216    0.000000    0.000000    0.000000    0.000000
  0.042665331  -35.163201  -97.636765  -68.131881  -62.766617    0.000000    0.000000    0.000000    0.000000
  0.042865731  -35.857100  -97.403900  -68.535802  -55.170204    0.000000    0.000000    0.000000    0.000000
