! Anritsu VNA Master:                 Model: MS2034B/10/19/501
! SN:                                  1337062
! /bd0/ovro-jan-2016/ljg-vna-s22-y1.s2p
! Existing Calibration Information:
! TYPE:                         Current Settings,       Active Cal Settings
! TIME:             	   01/08/2016 07:11:44 PM,    01/08/2016 05:30:02 PM
! INTERNAL TEMP:    	                   45.0 C,                    46.5 C
! # POINTS:         	                      500,                       500
! START FREQ:       	               10.000 MHz,                10.000 MHz
! STOP FREQ:        	              110.000 MHz,               110.000 MHz
! SOURCE POWER:     	                      Low,                       Low
! IFBW:             	                   100 Hz,                    100 Hz
! AVG FACTOR:       	                       6 ,                        3 
! REF PLANE 1:      	                 2.2451 m,                  1.2232 m
! REF PLANE 2:      	                     0 mm,                      0 mm
! CAL TYPE:         	             1P2P S11,S21,              1P2P S11,S21
! CAL METHOD:       	                     SOLT,                      SOLT
! CAL LINE TYPE:    	                     Coax,                      Coax
! DUT PORT 1:       	                K-Conn(M),                 K-Conn(M)
! DUT PORT 2:       	                N-Conn(M),                 N-Conn(M)
! CAL STATUS:       	        OK: Accuracy High,                        --
# GHZ S DB R 50.0
! FREQ.GHZ       S11DB        S11A       S21DB        S21A       S12DB        S12A       S22DB        S22A
  0.010000000  -25.525641  162.438522  -65.787787   90.276428    0.000000    0.000000    0.000000    0.000000
  0.010200401  -25.651845  162.683868  -66.036433   90.076103    0.000000    0.000000    0.000000    0.000000
  0.010400802  -25.908252  165.738327  -65.196623   83.359062    0.000000    0.000000    0.000000    0.000000
  0.010601202  -26.034512  169.100250  -65.392606   87.729080    0.000000    0.000000    0.000000    0.000000
  0.010801603  -26.341752  171.191116  -65.561375   86.806847    0.000000    0.000000    0.000000    0.000000
  0.011002004  -26.615064  172.956589  -66.366666   87.926880    0.000000    0.000000    0.000000    0.000000
  0.011202405  -26.867928  176.356964  -65.967114   87.081772    0.000000    0.000000    0.000000    0.000000
  0.011402806  -26.772032  178.894684  -65.139995   90.467812    0.000000    0.000000    0.000000    0.000000
  0.011603206  -26.951285 -177.373489  -66.072431   93.521118    0.000000    0.000000    0.000000    0.000000
  0.011803607  -26.977538 -174.199249  -66.534267   99.320724    0.000000    0.000000    0.000000    0.000000
  0.012004008  -27.255547 -172.766312  -67.260498  102.595947    0.000000    0.000000    0.000000    0.000000
  0.012204409  -26.849757 -169.593826  -65.733231   99.478546    0.000000    0.000000    0.000000    0.000000
  0.012404810  -27.226780 -166.413864  -64.466547  100.427635    0.000000    0.000000    0.000000    0.000000
  0.012605210  -27.317089 -163.885788  -66.327065  104.562912    0.000000    0.000000    0.000000    0.000000
  0.012805611  -27.283323 -161.902573  -66.103292  102.464523    0.000000    0.000000    0.000000    0.000000
  0.013006012  -27.204789 -160.405746  -66.573802  107.842545    0.000000    0.000000    0.000000    0.000000
  0.013206413  -27.107755 -157.848450  -65.509184  109.028748    0.000000    0.000000    0.000000    0.000000
  0.013406814  -27.078562 -157.099182  -65.749459  110.025467    0.000000    0.000000    0.000000    0.000000
  0.013607214  -27.175935 -154.445358  -66.900600  113.557304    0.000000    0.000000    0.000000    0.000000
  0.013807615  -27.060705 -150.960739  -67.020601  110.660912    0.000000    0.000000    0.000000    0.000000
  0.014008016  -27.078175 -149.841110  -66.687507  110.020775    0.000000    0.000000    0.000000    0.000000
  0.014208417  -26.934068 -147.741119  -66.101529  115.030457    0.000000    0.000000    0.000000    0.000000
  0.014408818  -27.047578 -145.212372  -66.141787  116.903252    0.000000    0.000000    0.000000    0.000000
  0.014609218  -27.055794 -144.881363  -65.940434  116.885506    0.000000    0.000000    0.000000    0.000000
  0.014809619  -26.960743 -141.843079  -66.249351  117.449692    0.000000    0.000000    0.000000    0.000000
  0.015010020  -26.858887 -140.352524  -65.611314  119.562683    0.000000    0.000000    0.000000    0.000000
  0.015210421  -26.457232 -137.791092  -66.330729  118.498085    0.000000    0.000000    0.000000    0.000000
  0.015410822  -26.659622 -137.467987  -66.150312  126.051140    0.000000    0.000000    0.000000    0.000000
  0.015611222  -26.361550 -135.531342  -66.286674  127.463211    0.000000    0.000000    0.000000    0.000000
  0.015811623  -26.290095 -134.752594  -66.666014  128.713013    0.000000    0.000000    0.000000    0.000000
  0.016012024  -26.236393 -133.365112  -66.039750  127.814888    0.000000    0.000000    0.000000    0.000000
  0.016212425  -26.277847 -132.565277  -66.435116  124.475609    0.000000    0.000000    0.000000    0.000000
  0.016412826  -26.236252 -131.820206  -65.936214  135.449860    0.000000    0.000000    0.000000    0.000000
  0.016613226  -25.908506 -128.785446  -66.951423  129.226105    0.000000    0.000000    0.000000    0.000000
  0.016813627  -25.965928 -127.986351  -66.298159  137.224899    0.000000    0.000000    0.000000    0.000000
  0.017014028  -26.064060 -128.342300  -66.467356  133.243896    0.000000    0.000000    0.000000    0.000000
  0.017214429  -25.676561 -127.720535  -66.348645  137.457275    0.000000    0.000000    0.000000    0.000000
  0.017414830  -25.834443 -127.556908  -66.501480  136.680954    0.000000    0.000000    0.000000    0.000000
  0.017615230  -25.618756 -126.887100  -65.879290  147.063583    0.000000    0.000000    0.000000    0.000000
  0.017815631  -25.718886 -126.244904  -66.518738  143.531799    0.000000    0.000000    0.000000    0.000000
  0.018016032  -25.727540 -125.083702  -66.178031  147.139877    0.000000    0.000000    0.000000    0.000000
  0.018216433  -25.674563 -125.860016  -66.672893  141.702011    0.000000    0.000000    0.000000    0.000000
  0.018416834  -25.640911 -124.494621  -65.837731  135.401947    0.000000    0.000000    0.000000    0.000000
  0.018617234  -25.877844 -123.364174  -66.727142  149.709808    0.000000    0.000000    0.000000    0.000000
  0.018817635  -25.629155 -122.482857  -67.369771  156.652908    0.000000    0.000000    0.000000    0.000000
  0.019018036  -25.554224 -122.778076  -67.331307  152.909134    0.000000    0.000000    0.000000    0.000000
  0.019218437  -25.486965 -121.223618  -66.358546  156.984131    0.000000    0.000000    0.000000    0.000000
  0.019418838  -25.518290 -121.830521  -66.561128  149.431366    0.000000    0.000000    0.000000    0.000000
  0.019619238  -25.472896 -120.845078  -67.155608  155.530945    0.000000    0.000000    0.000000    0.000000
  0.019819639  -25.515058 -121.011459  -66.821057  164.049088    0.000000    0.000000    0.000000    0.000000
  0.020020040  -25.451247 -120.084518  -67.391983  162.951996    0.000000    0.000000    0.000000    0.000000
  0.020220441  -25.486162 -119.727203  -67.032714  170.157822    0.000000    0.000000    0.000000    0.000000
  0.020420842  -25.530385 -120.401711  -67.578391  166.512375    0.000000    0.000000    0.000000    0.000000
  0.020621242  -25.456731 -119.670471  -66.834313  161.958588    0.000000    0.000000    0.000000    0.000000
  0.020821643  -25.429525 -119.437439  -67.419731  167.986435    0.000000    0.000000    0.000000    0.000000
  0.021022044  -25.467506 -120.084328  -66.850403  168.087158    0.000000    0.000000    0.000000    0.000000
  0.021222445  -25.617381 -119.207458  -67.072223  172.386871    0.000000    0.000000    0.000000    0.000000
  0.021422846  -25.687796 -118.694565  -67.890301  169.923386    0.000000    0.000000    0.000000    0.000000
  0.021623246  -25.781796 -119.468124  -67.137304  171.693008    0.000000    0.000000    0.000000    0.000000
  0.021823647  -25.808532 -118.630005  -66.914284  179.918579    0.000000    0.000000    0.000000    0.000000
  0.022024048  -25.738247 -119.324417  -67.721876  175.254837    0.000000    0.000000    0.000000    0.000000
  0.022224449  -25.934713 -118.995895  -66.593132  178.718262    0.000000    0.000000    0.000000    0.000000
  0.022424850  -25.982633 -118.817696  -67.349538 -176.433472    0.000000    0.000000    0.000000    0.000000
  0.022625251  -26.123721 -120.205139  -66.831956 -178.333466    0.000000    0.000000    0.000000    0.000000
  0.022825651  -26.100059 -119.815971  -67.111719  179.631454    0.000000    0.000000    0.000000    0.000000
  0.023026052  -26.200120 -119.870132  -66.799916 -175.349823    0.000000    0.000000    0.000000    0.000000
  0.023226453  -26.215060 -119.775192  -66.897797 -173.995575    0.000000    0.000000    0.000000    0.000000
  0.023426854  -26.618330 -121.451813  -66.446445 -171.261261    0.000000    0.000000    0.000000    0.000000
  0.023627255  -26.731566 -120.726326  -66.759143 -172.552338    0.000000    0.000000    0.000000    0.000000
  0.023827655  -26.959537 -121.529007  -66.727737 -169.322128    0.000000    0.000000    0.000000    0.000000
  0.024028056  -27.034740 -121.225365  -66.910383 -165.970596    0.000000    0.000000    0.000000    0.000000
  0.024228457  -26.947046 -121.145737  -66.844048 -164.697800    0.000000    0.000000    0.000000    0.000000
  0.024428858  -27.385625 -122.874786  -66.274962 -163.929550    0.000000    0.000000    0.000000    0.000000
  0.024629259  -27.557691 -123.026924  -67.116591 -162.188995    0.000000    0.000000    0.000000    0.000000
  0.024829659  -28.162776 -125.167824  -65.484130 -141.927490    0.000000    0.000000    0.000000    0.000000
  0.025030060  -27.951768 -124.299484  -65.701332 -128.215729    0.000000    0.000000    0.000000    0.000000
  0.025230461  -28.706286 -123.659454  -65.512238 -135.989944    0.000000    0.000000    0.000000    0.000000
  0.025430862  -28.673055 -124.594727  -66.362146 -133.690704    0.000000    0.000000    0.000000    0.000000
  0.025631263  -29.303146 -127.529251  -65.789647 -134.013428    0.000000    0.000000    0.000000    0.000000
  0.025831663  -29.240363 -128.451431  -65.786703 -128.682846    0.000000    0.000000    0.000000    0.000000
  0.026032064  -29.663968 -125.387260  -66.071375 -127.118645    0.000000    0.000000    0.000000    0.000000
  0.026232465  -30.483506 -128.484161  -65.563253 -127.836746    0.000000    0.000000    0.000000    0.000000
  0.026432866  -31.283118 -126.842880  -65.519566 -120.682213    0.000000    0.000000    0.000000    0.000000
  0.026633267  -31.530647 -127.971039  -65.970292 -122.550903    0.000000    0.000000    0.000000    0.000000
  0.026833667  -33.017194 -124.739693  -65.525856 -115.417725    0.000000    0.000000    0.000000    0.000000
  0.027034068  -34.322557 -121.771744  -66.080754 -116.214096    0.000000    0.000000    0.000000    0.000000
  0.027234469  -34.755888 -123.390221  -66.175541 -114.932030    0.000000    0.000000    0.000000    0.000000
  0.027434870  -35.076988 -116.783432  -66.643343 -113.610313    0.000000    0.000000    0.000000    0.000000
  0.027635271  -36.486596 -111.193718  -65.444825 -116.111443    0.000000    0.000000    0.000000    0.000000
  0.027835671  -37.558686 -102.797325  -65.122618 -115.414444    0.000000    0.000000    0.000000    0.000000
  0.028036072  -37.565418  -88.942032  -66.344694 -113.991028    0.000000    0.000000    0.000000    0.000000
  0.028236473  -37.051682  -81.640770  -65.735642 -104.537666    0.000000    0.000000    0.000000    0.000000
  0.028436874  -36.794791  -81.406609  -64.633123 -106.523018    0.000000    0.000000    0.000000    0.000000
  0.028637275  -36.358158  -76.057175  -65.609018 -104.775848    0.000000    0.000000    0.000000    0.000000
  0.028837675  -35.804611  -64.704796  -65.468911 -105.402222    0.000000    0.000000    0.000000    0.000000
  0.029038076  -35.492832  -67.810066  -66.198771 -105.324654    0.000000    0.000000    0.000000    0.000000
  0.029238477  -35.145676  -67.131989  -65.721939 -101.736671    0.000000    0.000000    0.000000    0.000000
  0.029438878  -35.121438  -68.081223  -65.462657 -101.423866    0.000000    0.000000    0.000000    0.000000
  0.029639279  -34.081082  -63.028515  -65.672248 -103.321518    0.000000    0.000000    0.000000    0.000000
  0.029839679  -35.081191  -59.423717  -65.894564 -102.457596    0.000000    0.000000    0.000000    0.000000
  0.030040080  -34.429594  -62.442844  -65.607140 -106.579910    0.000000    0.000000    0.000000    0.000000
  0.030240481  -34.634550  -62.537186  -65.232381 -104.107307    0.000000    0.000000    0.000000    0.000000
  0.030440882  -34.589261  -62.035404  -65.255973 -102.503075    0.000000    0.000000    0.000000    0.000000
  0.030641283  -34.298188  -61.163906  -64.703173 -100.847572    0.000000    0.000000    0.000000    0.000000
  0.030841683  -34.957953  -59.363026  -64.292283 -100.137634    0.000000    0.000000    0.000000    0.000000
  0.031042084  -34.857567  -64.850807  -65.751595  -97.562119    0.000000    0.000000    0.000000    0.000000
  0.031242485  -35.055687  -61.196663  -65.412146  -96.591949    0.000000    0.000000    0.000000    0.000000
  0.031442886  -35.033942  -59.562412  -65.031872  -94.261063    0.000000    0.000000    0.000000    0.000000
  0.031643287  -35.160142  -55.092781  -65.800802 -102.684624    0.000000    0.000000    0.000000    0.000000
  0.031843687  -35.548894  -56.872913  -65.228798  -91.656586    0.000000    0.000000    0.000000    0.000000
  0.032044088  -35.409143  -52.795609  -67.376124  -95.713112    0.000000    0.000000    0.000000    0.000000
  0.032244489  -35.062780  -48.434864  -65.957428  -92.847183    0.000000    0.000000    0.000000    0.000000
  0.032444890  -35.568618  -50.823261  -66.301478  -87.515663    0.000000    0.000000    0.000000    0.000000
  0.032645291  -35.409723  -47.749783  -65.306600  -87.815002    0.000000    0.000000    0.000000    0.000000
  0.032845691  -35.518841  -48.012203  -66.460780  -85.442886    0.000000    0.000000    0.000000    0.000000
  0.033046092  -35.800506  -36.656349  -66.677946  -87.263695    0.000000    0.000000    0.000000    0.000000
  0.033246493  -35.760595  -42.633656  -67.044470  -83.137825    0.000000    0.000000    0.000000    0.000000
  0.033446894  -36.028613  -40.954659  -66.774617  -78.461250    0.000000    0.000000    0.000000    0.000000
  0.033647295  -36.089723  -38.961433  -66.569756  -79.487267    0.000000    0.000000    0.000000    0.000000
  0.033847695  -35.907265  -33.095795  -66.535940  -80.014732    0.000000    0.000000    0.000000    0.000000
  0.034048096  -36.145865  -39.131359  -67.103537  -79.267105    0.000000    0.000000    0.000000    0.000000
  0.034248497  -35.651910  -36.319260  -66.511481  -74.046524    0.000000    0.000000    0.000000    0.000000
  0.034448898  -36.185485  -35.165020  -66.110574  -74.796959    0.000000    0.000000    0.000000    0.000000
  0.034649299  -36.322717  -29.718700  -66.524054  -71.111046    0.000000    0.000000    0.000000    0.000000
  0.034849699  -36.669266  -29.518637  -66.936349  -70.250008    0.000000    0.000000    0.000000    0.000000
  0.035050100  -36.276918  -24.498886  -67.203592  -73.234398    0.000000    0.000000    0.000000    0.000000
  0.035250501  -36.467840  -23.986832  -67.421764  -69.081451    0.000000    0.000000    0.000000    0.000000
  0.035450902  -36.636849  -26.948212  -66.996202  -64.946396    0.000000    0.000000    0.000000    0.000000
  0.035651303  -36.558824  -23.542187  -67.452602  -60.507069    0.000000    0.000000    0.000000    0.000000
  0.035851703  -36.653449  -23.455002  -67.284469  -61.208309    0.000000    0.000000    0.000000    0.000000
  0.036052104  -36.178241  -20.474926  -67.272024  -61.163223    0.000000    0.000000    0.000000    0.000000
  0.036252505  -36.548491  -18.292122  -67.290652  -58.389320    0.000000    0.000000    0.000000    0.000000
  0.036452906  -36.095971  -20.426090  -67.238794  -53.872807    0.000000    0.000000    0.000000    0.000000
  0.036653307  -36.522958  -16.580019  -68.005552  -52.184647    0.000000    0.000000    0.000000    0.000000
  0.036853707  -36.453292  -11.643155  -67.299469  -50.309376    0.000000    0.000000    0.000000    0.000000
  0.037054108  -36.506137  -13.347630  -67.986073  -47.381371    0.000000    0.000000    0.000000    0.000000
  0.037254509  -36.642614  -13.708781  -67.511431  -43.253872    0.000000    0.000000    0.000000    0.000000
  0.037454910  -36.484284  -11.788543  -67.766680  -40.149693    0.000000    0.000000    0.000000    0.000000
  0.037655311  -36.371776  -11.604264  -67.990360  -45.144753    0.000000    0.000000    0.000000    0.000000
  0.037855711  -37.153408   -8.735500  -67.120192  -39.857376    0.000000    0.000000    0.000000    0.000000
  0.038056112  -36.550056   -4.356269  -68.017620  -38.891109    0.000000    0.000000    0.000000    0.000000
  0.038256513  -36.753192   -6.908146  -67.828893  -38.732975    0.000000    0.000000    0.000000    0.000000
  0.038456914  -36.933065   -0.898115  -68.270011  -34.356983    0.000000    0.000000    0.000000    0.000000
  0.038657315  -37.264374   -0.446410  -68.163650  -33.628849    0.000000    0.000000    0.000000    0.000000
  0.038857715  -37.419749    1.377914  -67.826657  -31.159876    0.000000    0.000000    0.000000    0.000000
  0.039058116  -37.106970   -1.546492  -67.298993  -28.246965    0.000000    0.000000    0.000000    0.000000
  0.039258517  -36.473673    4.397274  -67.855822  -22.904623    0.000000    0.000000    0.000000    0.000000
  0.039458918  -37.771733    0.546833  -67.176643  -24.262196    0.000000    0.000000    0.000000    0.000000
  0.039659319  -37.076784    5.734088  -68.354353  -13.575340    0.000000    0.000000    0.000000    0.000000
  0.039859719  -37.540816    6.226520  -68.473917  -13.064075    0.000000    0.000000    0.000000    0.000000
  0.040060120  -36.883441    7.364752  -67.486149  -20.411407    0.000000    0.000000    0.000000    0.000000
  0.040260521  -37.124708    5.085847  -68.313783  -23.328217    0.000000    0.000000    0.000000    0.000000
  0.040460922  -37.122270    8.884948  -67.002570  -15.227132    0.000000    0.000000    0.000000    0.000000
  0.040661323  -37.860130   12.795786  -67.296580  -11.941511    0.000000    0.000000    0.000000    0.000000
  0.040861723  -37.412269   13.164177  -68.276148   -5.829495    0.000000    0.000000    0.000000    0.000000
  0.041062124  -37.189020   13.135004  -67.801743   -3.848660    0.000000    0.000000    0.000000    0.000000
  0.041262525  -37.288428    8.019460  -67.715395   -7.090237    0.000000    0.000000    0.000000    0.000000
  0.041462926  -38.126645    4.433700  -67.277972   -9.090662    0.000000    0.000000    0.000000    0.000000
  0.041663327  -39.636545   11.444473  -68.089671   -6.933351    0.000000    0.000000    0.000000    0.000000
  0.041863727  -39.322520   22.420355  -67.655649   -0.535702    0.000000    0.000000    0.000000    0.000000
  0.042064128  -38.513561   15.633180  -67.509185    1.354811    0.000000    0.000000    0.000000    0.000000
  0.042264529  -39.262529   20.692047  -67.527004    1.337410    0.000000    0.000000    0.000000    0.000000
  0.042464930  -39.336787   24.244135  -67.376946    4.732571    0.000000    0.000000    0.000000    0.000000
  0.042665331  -38.855378   19.484776  -67.466340    9.567887    0.000000    0.000000    0.000000    0.000000
  0.042865731  -40.069709   26.247986  -67.116402    4.257798    0.000000    0.000000    0.000000    0.000000
