! Anritsu VNA Master:                 Model: MS2034B/10/19/501
! SN:                                  1337062
! /bd0/ovro-jan-2016/ljg-vna-s21-40db-pads.s2p
! Existing Calibration Information:
! TYPE:                         Current Settings,       Active Cal Settings
! TIME:             	   01/08/2016 05:46:18 PM,    01/08/2016 05:30:02 PM
! INTERNAL TEMP:    	                   44.3 C,                    46.5 C
! # POINTS:         	                      500,                       500
! START FREQ:       	               10.000 MHz,                10.000 MHz
! STOP FREQ:        	              110.000 MHz,               110.000 MHz
! SOURCE POWER:     	                      Low,                       Low
! IFBW:             	                   100 Hz,                    100 Hz
! AVG FACTOR:       	                       3 ,                        3 
! REF PLANE 1:      	                 1.2232 m,                  1.2232 m
! REF PLANE 2:      	                     0 mm,                      0 mm
! CAL TYPE:         	             1P2P S11,S21,              1P2P S11,S21
! CAL METHOD:       	                     SOLT,                      SOLT
! CAL LINE TYPE:    	                     Coax,                      Coax
! DUT PORT 1:       	                K-Conn(M),                 K-Conn(M)
! DUT PORT 2:       	                N-Conn(M),                 N-Conn(M)
! CAL STATUS:       	        OK: Accuracy High,                        --
# GHZ S DB R 50.0
! FREQ.GHZ       S11DB        S11A       S21DB        S21A       S12DB        S12A       S22DB        S22A
  0.010000000  -39.427642 -141.535843  -64.603164   87.937866    0.000000    0.000000    0.000000    0.000000
  0.010200401  -41.030959 -144.526596  -65.970057   94.380280    0.000000    0.000000    0.000000    0.000000
  0.010400802  -40.078006 -143.601105  -64.380642   87.940811    0.000000    0.000000    0.000000    0.000000
  0.010601202  -40.450380 -144.287643  -66.126893   91.821396    0.000000    0.000000    0.000000    0.000000
  0.010801603  -40.296384 -145.900162  -64.412492   87.738579    0.000000    0.000000    0.000000    0.000000
  0.011002004  -40.538447 -141.981735  -64.703520   98.785721    0.000000    0.000000    0.000000    0.000000
  0.011202405  -40.756085 -137.002533  -64.861392   88.801048    0.000000    0.000000    0.000000    0.000000
  0.011402806  -39.957267 -143.142868  -64.777460   89.886787    0.000000    0.000000    0.000000    0.000000
  0.011603206  -40.675813 -139.461868  -64.528096   86.821320    0.000000    0.000000    0.000000    0.000000
  0.011803607  -39.685914 -138.541473  -64.535663   89.410233    0.000000    0.000000    0.000000    0.000000
  0.012004008  -40.180972 -136.340500  -65.447839   92.231888    0.000000    0.000000    0.000000    0.000000
  0.012204409  -39.446509 -140.645477  -65.362630  101.467857    0.000000    0.000000    0.000000    0.000000
  0.012404810  -39.645208 -134.303452  -65.927816   93.239799    0.000000    0.000000    0.000000    0.000000
  0.012605210  -39.756434 -134.342667  -64.149254   99.610275    0.000000    0.000000    0.000000    0.000000
  0.012805611  -40.135128 -129.477142  -66.233588   98.448578    0.000000    0.000000    0.000000    0.000000
  0.013006012  -40.717416 -131.334549  -65.479174  103.431252    0.000000    0.000000    0.000000    0.000000
  0.013206413  -39.733835 -136.245636  -65.362564  103.125885    0.000000    0.000000    0.000000    0.000000
  0.013406814  -40.566527 -138.168091  -65.677864   97.905342    0.000000    0.000000    0.000000    0.000000
  0.013607214  -41.480044 -134.326401  -66.101889  109.008354    0.000000    0.000000    0.000000    0.000000
  0.013807615  -39.941619 -132.810974  -65.175291  107.065903    0.000000    0.000000    0.000000    0.000000
  0.014008016  -40.306957 -131.280518  -64.600995  114.101677    0.000000    0.000000    0.000000    0.000000
  0.014208417  -39.348150 -133.707199  -64.198455  106.748642    0.000000    0.000000    0.000000    0.000000
  0.014408818  -40.051517 -131.110794  -64.809147  113.204414    0.000000    0.000000    0.000000    0.000000
  0.014609218  -41.621598 -130.155701  -64.665859  117.201317    0.000000    0.000000    0.000000    0.000000
  0.014809619  -40.391154 -120.378601  -64.289419  113.697067    0.000000    0.000000    0.000000    0.000000
  0.015010020  -40.626341 -122.257637  -63.362393  113.985786    0.000000    0.000000    0.000000    0.000000
  0.015210421  -38.973068 -131.387070  -64.223298  116.985947    0.000000    0.000000    0.000000    0.000000
  0.015410822  -40.517902 -122.054665  -62.194046  123.544655    0.000000    0.000000    0.000000    0.000000
  0.015611222  -40.093553 -126.296906  -63.010748  123.049957    0.000000    0.000000    0.000000    0.000000
  0.015811623  -40.170432 -124.493706  -61.751485  125.440018    0.000000    0.000000    0.000000    0.000000
  0.016012024  -39.773714 -125.994644  -63.096486  124.546860    0.000000    0.000000    0.000000    0.000000
  0.016212425  -40.346885 -122.685753  -61.811141  121.906212    0.000000    0.000000    0.000000    0.000000
  0.016412826  -40.538922 -120.216339  -60.588149  124.182358    0.000000    0.000000    0.000000    0.000000
  0.016613226  -38.704679 -119.873634  -60.772865  123.941948    0.000000    0.000000    0.000000    0.000000
  0.016813627  -39.370814 -116.013451  -60.752149  129.629440    0.000000    0.000000    0.000000    0.000000
  0.017014028  -40.510084 -113.730400  -60.050646  122.689156    0.000000    0.000000    0.000000    0.000000
  0.017214429  -39.548348 -123.814705  -59.903538  121.593582    0.000000    0.000000    0.000000    0.000000
  0.017414830  -40.579727 -119.861717  -59.331827  119.132187    0.000000    0.000000    0.000000    0.000000
  0.017615230  -40.034177 -122.728119  -59.855934  118.899101    0.000000    0.000000    0.000000    0.000000
  0.017815631  -40.304768 -122.007065  -59.429541  117.710182    0.000000    0.000000    0.000000    0.000000
  0.018016032  -40.307918 -117.119835  -59.211217  119.285988    0.000000    0.000000    0.000000    0.000000
  0.018216433  -41.125890 -121.480362  -59.045911  119.847488    0.000000    0.000000    0.000000    0.000000
  0.018416834  -40.771121 -118.140991  -58.781717  115.909897    0.000000    0.000000    0.000000    0.000000
  0.018617234  -40.493510 -106.950920  -59.144419  116.070557    0.000000    0.000000    0.000000    0.000000
  0.018817635  -40.226745 -111.340134  -60.004683  119.093552    0.000000    0.000000    0.000000    0.000000
  0.019018036  -40.999669 -117.226212  -60.027840  116.648209    0.000000    0.000000    0.000000    0.000000
  0.019218437  -39.812300 -109.171043  -60.859634  117.370186    0.000000    0.000000    0.000000    0.000000
  0.019418838  -40.484034 -110.485878  -60.073246  114.462357    0.000000    0.000000    0.000000    0.000000
  0.019619238  -40.086340 -110.465691  -60.991180  122.444870    0.000000    0.000000    0.000000    0.000000
  0.019819639  -40.151977 -110.272331  -62.792665  132.205048    0.000000    0.000000    0.000000    0.000000
  0.020020040  -39.257867 -109.633957  -64.414029  139.053070    0.000000    0.000000    0.000000    0.000000
  0.020220441  -39.787481 -106.255058  -64.756455  161.861862    0.000000    0.000000    0.000000    0.000000
  0.020420842  -40.944076 -108.033066  -63.843314 -169.874725    0.000000    0.000000    0.000000    0.000000
  0.020621242  -40.378954 -108.354607  -61.881253 -149.871094    0.000000    0.000000    0.000000    0.000000
  0.020821643  -39.879896 -108.397263  -59.037838 -136.223618    0.000000    0.000000    0.000000    0.000000
  0.021022044  -40.601808 -111.057785  -55.564079 -131.172470    0.000000    0.000000    0.000000    0.000000
  0.021222445  -39.867657 -104.006035  -53.367913 -128.633575    0.000000    0.000000    0.000000    0.000000
  0.021422846  -40.216446 -100.303719  -50.956220 -127.024673    0.000000    0.000000    0.000000    0.000000
  0.021623246  -40.111016  -98.836708  -48.319427 -128.569077    0.000000    0.000000    0.000000    0.000000
  0.021823647  -39.762255 -100.834221  -46.350580 -130.558411    0.000000    0.000000    0.000000    0.000000
  0.022024048  -39.930564 -104.811172  -44.291913 -133.362488    0.000000    0.000000    0.000000    0.000000
  0.022224449  -39.804241  -99.007591  -42.613721 -136.619705    0.000000    0.000000    0.000000    0.000000
  0.022424850  -39.655839  -99.930679  -41.309722 -136.726151    0.000000    0.000000    0.000000    0.000000
  0.022625251  -40.243803  -99.288307  -39.970626 -138.791183    0.000000    0.000000    0.000000    0.000000
  0.022825651  -39.743778 -100.436172  -38.256506 -142.901169    0.000000    0.000000    0.000000    0.000000
  0.023026052  -40.209431  -99.015533  -36.859331 -145.389832    0.000000    0.000000    0.000000    0.000000
  0.023226453  -39.733424 -104.529358  -35.498840 -148.889008    0.000000    0.000000    0.000000    0.000000
  0.023426854  -40.354918  -97.649246  -34.064097 -151.717880    0.000000    0.000000    0.000000    0.000000
  0.023627255  -39.915851  -94.428879  -32.751132 -154.885178    0.000000    0.000000    0.000000    0.000000
  0.023827655  -40.408042  -92.963287  -31.607230 -157.921387    0.000000    0.000000    0.000000    0.000000
  0.024028056  -39.925788  -96.603241  -30.214885 -161.881790    0.000000    0.000000    0.000000    0.000000
  0.024228457  -39.741718 -100.735977  -28.910517 -165.626968    0.000000    0.000000    0.000000    0.000000
  0.024428858  -40.055931  -93.710197  -27.648211 -169.517380    0.000000    0.000000    0.000000    0.000000
  0.024629259  -40.404653  -97.228546  -26.462437 -174.159332    0.000000    0.000000    0.000000    0.000000
  0.024829659  -40.820625  -86.424843  -25.219808 -176.980713    0.000000    0.000000    0.000000    0.000000
  0.025030060  -40.433301  -91.439278  -24.193013  178.218781    0.000000    0.000000    0.000000    0.000000
  0.025230461  -38.844131  -89.708221  -22.844276  173.328476    0.000000    0.000000    0.000000    0.000000
  0.025430862  -39.864390  -91.001678  -21.805307  167.909897    0.000000    0.000000    0.000000    0.000000
  0.025631263  -40.415618  -90.974899  -20.755686  163.323395    0.000000    0.000000    0.000000    0.000000
  0.025831663  -40.662020  -96.843231  -19.698998  157.318756    0.000000    0.000000    0.000000    0.000000
  0.026032064  -39.719073  -96.793404  -18.696798  150.946091    0.000000    0.000000    0.000000    0.000000
  0.026232465  -40.444529  -89.434258  -17.732302  144.490112    0.000000    0.000000    0.000000    0.000000
  0.026432866  -39.598664  -89.569229  -16.730825  138.818115    0.000000    0.000000    0.000000    0.000000
  0.026633267  -40.831731  -96.777657  -15.876815  131.617096    0.000000    0.000000    0.000000    0.000000
  0.026833667  -38.972315  -87.454735  -15.007758  125.209770    0.000000    0.000000    0.000000    0.000000
  0.027034068  -38.542884  -83.237137  -14.213671  117.264076    0.000000    0.000000    0.000000    0.000000
  0.027234469  -40.432181  -85.338684  -13.521804  110.913773    0.000000    0.000000    0.000000    0.000000
  0.027434870  -40.293747  -94.329437  -12.825692  103.023407    0.000000    0.000000    0.000000    0.000000
  0.027635271  -40.813332  -87.697548  -12.225746   95.686417    0.000000    0.000000    0.000000    0.000000
  0.027835671  -39.957134  -78.793739  -11.733838   88.076347    0.000000    0.000000    0.000000    0.000000
  0.028036072  -39.842376  -79.963669  -11.338588   81.136131    0.000000    0.000000    0.000000    0.000000
  0.028236473  -39.760412  -79.891304  -10.918445   73.355675    0.000000    0.000000    0.000000    0.000000
  0.028436874  -41.189629  -80.377342  -10.637843   66.583237    0.000000    0.000000    0.000000    0.000000
  0.028637275  -40.920553  -81.165298  -10.296751   59.060551    0.000000    0.000000    0.000000    0.000000
  0.028837675  -38.967491  -74.245888  -10.157556   52.864422    0.000000    0.000000    0.000000    0.000000
  0.029038076  -40.435814  -74.622597   -9.911498   46.503990    0.000000    0.000000    0.000000    0.000000
  0.029238477  -40.366593  -74.880051   -9.832784   40.173676    0.000000    0.000000    0.000000    0.000000
  0.029438878  -40.260139  -68.899803   -9.622568   34.791626    0.000000    0.000000    0.000000    0.000000
  0.029639279  -39.810149  -79.437767   -9.618818   28.911190    0.000000    0.000000    0.000000    0.000000
  0.029839679  -39.151289  -67.223160   -9.524452   23.006804    0.000000    0.000000    0.000000    0.000000
  0.030040080  -39.748726  -71.549477   -9.529915   18.200415    0.000000    0.000000    0.000000    0.000000
  0.030240481  -39.820094  -67.405167   -9.461444   13.349136    0.000000    0.000000    0.000000    0.000000
  0.030440882  -39.980067  -66.333107   -9.413565    8.511747    0.000000    0.000000    0.000000    0.000000
  0.030641283  -40.019179  -69.162384   -9.251040    3.594933    0.000000    0.000000    0.000000    0.000000
  0.030841683  -39.766228  -64.635818   -9.300461   -0.881899    0.000000    0.000000    0.000000    0.000000
  0.031042084  -41.183215  -67.313400   -9.276248   -5.572654    0.000000    0.000000    0.000000    0.000000
  0.031242485  -39.619366  -64.371277   -9.303761   -9.221990    0.000000    0.000000    0.000000    0.000000
  0.031442886  -40.011044  -71.385963   -9.204097  -13.727229    0.000000    0.000000    0.000000    0.000000
  0.031643287  -39.399920  -65.195526   -9.223704  -17.876596    0.000000    0.000000    0.000000    0.000000
  0.031843687  -39.876598  -64.820450   -9.180984  -21.849173    0.000000    0.000000    0.000000    0.000000
  0.032044088  -39.414902  -66.392891   -9.198358  -25.413034    0.000000    0.000000    0.000000    0.000000
  0.032244489  -39.368360  -69.294838   -9.224734  -28.847710    0.000000    0.000000    0.000000    0.000000
  0.032444890  -39.614595  -61.820808   -9.155273  -32.487644    0.000000    0.000000    0.000000    0.000000
  0.032645291  -39.396018  -66.241287   -9.112787  -36.374271    0.000000    0.000000    0.000000    0.000000
  0.032845691  -39.758427  -66.905144   -9.146223  -39.265327    0.000000    0.000000    0.000000    0.000000
  0.033046092  -37.761189  -60.907501   -9.247103  -42.967056    0.000000    0.000000    0.000000    0.000000
  0.033246493  -39.633322  -62.939457   -9.195717  -46.568409    0.000000    0.000000    0.000000    0.000000
  0.033446894  -39.448217  -62.792011   -9.166384  -49.359749    0.000000    0.000000    0.000000    0.000000
  0.033647295  -39.380207  -60.807247   -9.130556  -52.431656    0.000000    0.000000    0.000000    0.000000
  0.033847695  -39.104535  -59.742981   -9.141939  -55.579056    0.000000    0.000000    0.000000    0.000000
  0.034048096  -40.158676  -60.580788   -9.162144  -58.388371    0.000000    0.000000    0.000000    0.000000
  0.034248497  -39.576491  -62.826347   -9.147758  -61.474693    0.000000    0.000000    0.000000    0.000000
  0.034448898  -39.362671  -58.528820   -9.137086  -64.453682    0.000000    0.000000    0.000000    0.000000
  0.034649299  -38.793648  -56.727600   -9.079493  -67.365204    0.000000    0.000000    0.000000    0.000000
  0.034849699  -39.515486  -55.253212   -9.100083  -70.058929    0.000000    0.000000    0.000000    0.000000
  0.035050100  -39.244216  -57.052429   -9.115777  -73.211189    0.000000    0.000000    0.000000    0.000000
  0.035250501  -39.708663  -57.660942   -9.131978  -75.854103    0.000000    0.000000    0.000000    0.000000
  0.035450902  -39.807036  -57.630840   -9.171908  -78.610657    0.000000    0.000000    0.000000    0.000000
  0.035651303  -39.484222  -56.729832   -9.163834  -81.152863    0.000000    0.000000    0.000000    0.000000
  0.035851703  -40.243805  -57.363567   -9.152497  -83.286865    0.000000    0.000000    0.000000    0.000000
  0.036052104  -39.164956  -57.126381   -9.216701  -85.953270    0.000000    0.000000    0.000000    0.000000
  0.036252505  -39.130982  -53.958992   -9.179336  -89.021263    0.000000    0.000000    0.000000    0.000000
  0.036452906  -40.078296  -56.355949   -9.152563  -91.120735    0.000000    0.000000    0.000000    0.000000
  0.036653307  -39.420043  -53.887333   -9.199472  -93.682465    0.000000    0.000000    0.000000    0.000000
  0.036853707  -39.009714  -51.101616   -9.181855  -96.494751    0.000000    0.000000    0.000000    0.000000
  0.037054108  -40.061564  -54.433315   -9.191015  -98.755486    0.000000    0.000000    0.000000    0.000000
  0.037254509  -40.161924  -49.487183   -9.157549 -101.554855    0.000000    0.000000    0.000000    0.000000
  0.037454910  -39.375644  -50.512295   -9.161112 -103.055481    0.000000    0.000000    0.000000    0.000000
  0.037655311  -39.569208  -55.431725   -9.148406 -105.987213    0.000000    0.000000    0.000000    0.000000
  0.037855711  -39.895258  -46.921173   -9.146559 -108.188522    0.000000    0.000000    0.000000    0.000000
  0.038056112  -38.822363  -53.049370   -9.160805 -110.417488    0.000000    0.000000    0.000000    0.000000
  0.038256513  -39.612588  -51.965786   -9.158667 -112.410065    0.000000    0.000000    0.000000    0.000000
  0.038456914  -38.736596  -47.848850   -9.194732 -115.150009    0.000000    0.000000    0.000000    0.000000
  0.038657315  -39.344960  -46.828003   -9.196937 -116.680885    0.000000    0.000000    0.000000    0.000000
  0.038857715  -39.383213  -42.391842   -9.243778 -119.427139    0.000000    0.000000    0.000000    0.000000
  0.039058116  -39.505869  -49.457115   -9.182795 -121.312630    0.000000    0.000000    0.000000    0.000000
  0.039258517  -38.645735  -47.404362   -9.229527 -123.866150    0.000000    0.000000    0.000000    0.000000
  0.039458918  -40.156049  -43.331669   -9.170613 -125.650742    0.000000    0.000000    0.000000    0.000000
  0.039659319  -39.387546  -42.983868   -9.211868 -127.653915    0.000000    0.000000    0.000000    0.000000
  0.039859719  -39.722179  -38.709347   -9.224241 -129.953720    0.000000    0.000000    0.000000    0.000000
  0.040060120  -39.054898  -45.044113   -9.194831 -132.247971    0.000000    0.000000    0.000000    0.000000
  0.040260521  -39.566456  -45.040585   -9.188637 -134.191879    0.000000    0.000000    0.000000    0.000000
  0.040460922  -39.194885  -44.383816   -9.157598 -136.309250    0.000000    0.000000    0.000000    0.000000
  0.040661323  -39.226578  -37.572090   -9.190208 -137.998428    0.000000    0.000000    0.000000    0.000000
  0.040861723  -39.420140  -40.668854   -9.222344 -140.240173    0.000000    0.000000    0.000000    0.000000
  0.041062124  -38.889170  -38.026989   -9.213755 -142.361145    0.000000    0.000000    0.000000    0.000000
  0.041262525  -40.257939  -40.734249   -9.197422 -144.163239    0.000000    0.000000    0.000000    0.000000
  0.041462926  -39.743223  -45.169022   -9.157512 -145.769714    0.000000    0.000000    0.000000    0.000000
  0.041663327  -40.833613  -36.320816   -9.198532 -147.955673    0.000000    0.000000    0.000000    0.000000
  0.041863727  -39.642274  -36.934887   -9.169264 -149.632736    0.000000    0.000000    0.000000    0.000000
  0.042064128  -39.918088  -40.743130   -9.163215 -151.795731    0.000000    0.000000    0.000000    0.000000
  0.042264529  -40.020624  -32.513599   -9.127484 -153.698196    0.000000    0.000000    0.000000    0.000000
  0.042464930  -39.541013  -34.353554   -9.207325 -155.632278    0.000000    0.000000    0.000000    0.000000
  0.042665331  -40.459901  -38.130951   -9.264200 -157.414444    0.000000    0.000000    0.000000    0.000000
  0.042865731  -40.107748  -28.695820   -9.200965 -159.435104    0.000000    0.000000    0.000000    0.000000
