! Anritsu VNA Master:                 Model: MS2034B/10/19/501
! SN:                                  1337062
! /bd0/ovro-jan-2016/ljg-vna-s11-z1.s2p
! Existing Calibration Information:
! TYPE:                         Current Settings,       Active Cal Settings
! TIME:             	   01/08/2016 05:59:00 PM,    01/08/2016 05:30:02 PM
! INTERNAL TEMP:    	                   45.0 C,                    46.5 C
! # POINTS:         	                      500,                       500
! START FREQ:       	               10.000 MHz,                10.000 MHz
! STOP FREQ:        	              110.000 MHz,               110.000 MHz
! SOURCE POWER:     	                      Low,                       Low
! IFBW:             	                   100 Hz,                    100 Hz
! AVG FACTOR:       	                       3 ,                        3 
! REF PLANE 1:      	                 1.2232 m,                  1.2232 m
! REF PLANE 2:      	                     0 mm,                      0 mm
! CAL TYPE:         	             1P2P S11,S21,              1P2P S11,S21
! CAL METHOD:       	                     SOLT,                      SOLT
! CAL LINE TYPE:    	                     Coax,                      Coax
! DUT PORT 1:       	                K-Conn(M),                 K-Conn(M)
! DUT PORT 2:       	                N-Conn(M),                 N-Conn(M)
! CAL STATUS:       	        OK: Accuracy High,                        --
# GHZ S DB R 50.0
! FREQ.GHZ       S11DB        S11A       S21DB        S21A       S12DB        S12A       S22DB        S22A
  0.010000000  -24.231778  166.331665  -41.504012 -155.352478    0.000000    0.000000    0.000000    0.000000
  0.010200401  -24.387235  161.835098  -42.849533 -156.725540    0.000000    0.000000    0.000000    0.000000
  0.010400802  -24.491387  159.530289  -44.368884 -158.597153    0.000000    0.000000    0.000000    0.000000
  0.010601202  -24.545297  156.765579  -46.333888 -160.613220    0.000000    0.000000    0.000000    0.000000
  0.010801603  -24.596563  153.970596  -48.675493 -160.559845    0.000000    0.000000    0.000000    0.000000
  0.011002004  -24.815332  151.236343  -52.225835 -161.569122    0.000000    0.000000    0.000000    0.000000
  0.011202405  -24.890239  150.208923  -55.399444 -164.659332    0.000000    0.000000    0.000000    0.000000
  0.011402806  -24.821474  147.130005  -63.930404 -157.300980    0.000000    0.000000    0.000000    0.000000
  0.011603206  -24.981739  144.980957  -72.664630  -27.468079    0.000000    0.000000    0.000000    0.000000
  0.011803607  -25.099828  143.220001  -62.915720    9.927888    0.000000    0.000000    0.000000    0.000000
  0.012004008  -25.205205  139.785507  -58.138993    4.965798    0.000000    0.000000    0.000000    0.000000
  0.012204409  -25.012882  138.117447  -55.675603   -0.240622    0.000000    0.000000    0.000000    0.000000
  0.012404810  -25.342082  135.506073  -54.115287   -0.805282    0.000000    0.000000    0.000000    0.000000
  0.012605210  -25.379173  132.399689  -54.690041    3.205681    0.000000    0.000000    0.000000    0.000000
  0.012805611  -25.451777  129.926514  -55.116543    5.445580    0.000000    0.000000    0.000000    0.000000
  0.013006012  -25.385610  126.199615  -56.570892    5.516556    0.000000    0.000000    0.000000    0.000000
  0.013206413  -25.348889  124.719032  -62.169433   37.926647    0.000000    0.000000    0.000000    0.000000
  0.013406814  -25.269224  121.688400  -64.249105   95.842621    0.000000    0.000000    0.000000    0.000000
  0.013607214  -25.360904  118.049507  -57.145069  135.462753    0.000000    0.000000    0.000000    0.000000
  0.013807615  -25.416916  116.921692  -51.685387  145.035217    0.000000    0.000000    0.000000    0.000000
  0.014008016  -25.506986  113.362686  -47.542538  150.349258    0.000000    0.000000    0.000000    0.000000
  0.014208417  -25.479046  112.194153  -44.181388  150.302841    0.000000    0.000000    0.000000    0.000000
  0.014408818  -25.440886  108.616638  -41.690092  148.401016    0.000000    0.000000    0.000000    0.000000
  0.014609218  -25.251731  104.609123  -39.354800  147.697433    0.000000    0.000000    0.000000    0.000000
  0.014809619  -25.394602  102.597633  -37.394001  145.672455    0.000000    0.000000    0.000000    0.000000
  0.015010020  -25.400156   99.849953  -35.594138  144.465698    0.000000    0.000000    0.000000    0.000000
  0.015210421  -25.242644   99.476936  -34.052758  142.989059    0.000000    0.000000    0.000000    0.000000
  0.015410822  -25.250690   94.596542  -32.577663  141.740829    0.000000    0.000000    0.000000    0.000000
  0.015611222  -25.274814   93.579430  -31.370792  139.843140    0.000000    0.000000    0.000000    0.000000
  0.015811623  -25.259148   90.430267  -30.225749  137.831894    0.000000    0.000000    0.000000    0.000000
  0.016012024  -25.167684   87.687416  -29.039247  136.017105    0.000000    0.000000    0.000000    0.000000
  0.016212425  -25.104074   84.400322  -28.054005  133.741577    0.000000    0.000000    0.000000    0.000000
  0.016412826  -24.976656   82.187393  -27.163274  131.433945    0.000000    0.000000    0.000000    0.000000
  0.016613226  -25.209287   79.827316  -26.260182  129.820938    0.000000    0.000000    0.000000    0.000000
  0.016813627  -25.081038   77.077835  -25.527835  127.488678    0.000000    0.000000    0.000000    0.000000
  0.017014028  -24.702873   73.544624  -24.798539  125.422165    0.000000    0.000000    0.000000    0.000000
  0.017214429  -24.723760   72.637344  -24.203513  123.276665    0.000000    0.000000    0.000000    0.000000
  0.017414830  -24.532733   69.081299  -23.682808  121.371536    0.000000    0.000000    0.000000    0.000000
  0.017615230  -24.512942   67.190453  -23.239833  119.299156    0.000000    0.000000    0.000000    0.000000
  0.017815631  -24.324138   65.145370  -22.818182  116.717102    0.000000    0.000000    0.000000    0.000000
  0.018016032  -24.205148   61.846596  -22.530157  114.759514    0.000000    0.000000    0.000000    0.000000
  0.018216433  -23.966320   59.869278  -22.390071  112.375435    0.000000    0.000000    0.000000    0.000000
  0.018416834  -23.997935   56.388393  -22.281571  110.580009    0.000000    0.000000    0.000000    0.000000
  0.018617234  -23.781372   53.139648  -22.395239  108.414993    0.000000    0.000000    0.000000    0.000000
  0.018817635  -23.771248   51.083668  -22.625896  106.511177    0.000000    0.000000    0.000000    0.000000
  0.019018036  -23.641914   49.164936  -23.063502  105.009102    0.000000    0.000000    0.000000    0.000000
  0.019218437  -23.620287   45.649570  -23.900681  103.571571    0.000000    0.000000    0.000000    0.000000
  0.019418838  -23.399581   44.464050  -25.043851  102.793228    0.000000    0.000000    0.000000    0.000000
  0.019619238  -23.326858   41.372272  -26.978085  104.329956    0.000000    0.000000    0.000000    0.000000
  0.019819639  -23.142393   38.939739  -30.077021  109.489502    0.000000    0.000000    0.000000    0.000000
  0.020020040  -23.112876   35.936539  -35.695199  134.292358    0.000000    0.000000    0.000000    0.000000
  0.020220441  -22.913427   33.845036  -34.962747 -146.658691    0.000000    0.000000    0.000000    0.000000
  0.020420842  -22.714881   31.556021  -27.544339 -120.377342    0.000000    0.000000    0.000000    0.000000
  0.020621242  -22.700876   28.793373  -22.471744 -115.491844    0.000000    0.000000    0.000000    0.000000
  0.020821643  -22.578729   26.071491  -18.840701 -114.620735    0.000000    0.000000    0.000000    0.000000
  0.021022044  -22.449061   24.200502  -15.774913 -115.816948    0.000000    0.000000    0.000000    0.000000
  0.021222445  -22.279653   21.131575  -13.303502 -117.147881    0.000000    0.000000    0.000000    0.000000
  0.021422846  -22.098917   18.002962  -10.990809 -118.456787    0.000000    0.000000    0.000000    0.000000
  0.021623246  -21.984461   15.807546   -8.918279 -121.295174    0.000000    0.000000    0.000000    0.000000
  0.021823647  -21.837412   12.430936   -7.008888 -123.464424    0.000000    0.000000    0.000000    0.000000
  0.022024048  -21.744126   10.361664   -5.148241 -126.486839    0.000000    0.000000    0.000000    0.000000
  0.022224449  -21.580923    7.306436   -3.474362 -129.129822    0.000000    0.000000    0.000000    0.000000
  0.022424850  -21.477502    4.574551   -1.886362 -132.083527    0.000000    0.000000    0.000000    0.000000
  0.022625251  -21.346425    2.014214   -0.304069 -135.084976    0.000000    0.000000    0.000000    0.000000
  0.022825651  -21.272010   -0.938136    1.110492 -138.235550    0.000000    0.000000    0.000000    0.000000
  0.023026052  -21.165537   -4.105720    2.575878 -141.685684    0.000000    0.000000    0.000000    0.000000
  0.023226453  -21.099954   -7.202144    3.981752 -145.452011    0.000000    0.000000    0.000000    0.000000
  0.023426854  -20.859428   -9.686692    5.326740 -148.729660    0.000000    0.000000    0.000000    0.000000
  0.023627255  -20.831851  -13.129794    6.571802 -152.453506    0.000000    0.000000    0.000000    0.000000
  0.023827655  -20.246542  -14.294421    7.734644 -154.154984    0.000000    0.000000    0.000000    0.000000
  0.024028056  -20.171242  -17.963667    9.053786 -157.733978    0.000000    0.000000    0.000000    0.000000
  0.024228457  -20.167998  -21.230427   10.247613 -161.871368    0.000000    0.000000    0.000000    0.000000
  0.024428858  -19.954464  -24.352829   11.472091 -166.208511    0.000000    0.000000    0.000000    0.000000
  0.024629259  -19.859226  -27.729979   12.639155 -171.187210    0.000000    0.000000    0.000000    0.000000
  0.024829659  -19.637985  -30.598988   13.754442 -175.524506    0.000000    0.000000    0.000000    0.000000
  0.025030060  -19.651882  -35.027462   14.902823  178.980743    0.000000    0.000000    0.000000    0.000000
  0.025230461  -19.486563  -39.117264   16.141881  174.032486    0.000000    0.000000    0.000000    0.000000
  0.025430862  -19.447828  -42.779213   17.243904  168.882416    0.000000    0.000000    0.000000    0.000000
  0.025631263  -19.437468  -46.544800   18.368524  163.612900    0.000000    0.000000    0.000000    0.000000
  0.025831663  -19.507512  -51.523232   19.445059  157.821869    0.000000    0.000000    0.000000    0.000000
  0.026032064  -19.405001  -56.749020   20.528478  151.545639    0.000000    0.000000    0.000000    0.000000
  0.026232465  -19.444228  -60.608093   21.559035  145.882477    0.000000    0.000000    0.000000    0.000000
  0.026432866  -19.537931  -65.589005   22.565596  139.874741    0.000000    0.000000    0.000000    0.000000
  0.026633267  -19.788229  -71.180534   23.455178  132.443146    0.000000    0.000000    0.000000    0.000000
  0.026833667  -19.731376  -75.860069   24.386327  126.338203    0.000000    0.000000    0.000000    0.000000
  0.027034068  -19.987197  -80.240959   25.176774  118.871193    0.000000    0.000000    0.000000    0.000000
  0.027234469  -20.521245  -85.746834   25.947043  112.063942    0.000000    0.000000    0.000000    0.000000
  0.027434870  -20.918954  -91.923447   26.590492  104.530869    0.000000    0.000000    0.000000    0.000000
  0.027635271  -21.433986  -96.566147   27.158658   97.280037    0.000000    0.000000    0.000000    0.000000
  0.027835671  -22.012130 -100.682037   27.652176   89.791595    0.000000    0.000000    0.000000    0.000000
  0.028036072  -22.539696 -105.409241   28.074671   82.465691    0.000000    0.000000    0.000000    0.000000
  0.028236473  -23.285517 -109.943230   28.422499   74.774704    0.000000    0.000000    0.000000    0.000000
  0.028436874  -24.211894 -114.404648   28.747133   67.706268    0.000000    0.000000    0.000000    0.000000
  0.028637275  -25.103983 -117.035004   29.033443   60.411358    0.000000    0.000000    0.000000    0.000000
  0.028837675  -25.869689 -117.494720   29.221587   53.744331    0.000000    0.000000    0.000000    0.000000
  0.029038076  -27.013432 -120.734566   29.383313   47.621544    0.000000    0.000000    0.000000    0.000000
  0.029238477  -27.919508 -121.392693   29.441300   41.247131    0.000000    0.000000    0.000000    0.000000
  0.029438878  -29.311225 -122.868858   29.640016   35.294674    0.000000    0.000000    0.000000    0.000000
  0.029639279  -29.624462 -121.924065   29.692877   29.451876    0.000000    0.000000    0.000000    0.000000
  0.029839679  -30.791611 -117.340927   29.780029   23.944281    0.000000    0.000000    0.000000    0.000000
  0.030040080  -31.614656 -117.506271   29.753179   18.978432    0.000000    0.000000    0.000000    0.000000
  0.030240481  -32.551362 -113.253807   29.795688   14.391232    0.000000    0.000000    0.000000    0.000000
  0.030440882  -33.190471 -109.532768   29.837758    9.748671    0.000000    0.000000    0.000000    0.000000
  0.030641283  -33.364622 -108.633705   29.906611    4.903485    0.000000    0.000000    0.000000    0.000000
  0.030841683  -34.077661 -103.117813   29.864617    0.582565    0.000000    0.000000    0.000000    0.000000
  0.031042084  -34.912954 -101.605270   29.921000   -3.815741    0.000000    0.000000    0.000000    0.000000
  0.031242485  -34.611548  -95.503838   29.899074   -8.101639    0.000000    0.000000    0.000000    0.000000
  0.031442886  -34.428872  -97.808113   29.995184  -12.317593    0.000000    0.000000    0.000000    0.000000
  0.031643287  -34.387609  -93.640633   29.981418  -16.805681    0.000000    0.000000    0.000000    0.000000
  0.031843687  -35.310067  -90.826294   30.019268  -20.788965    0.000000    0.000000    0.000000    0.000000
  0.032044088  -34.563832  -90.519585   30.021584  -24.585276    0.000000    0.000000    0.000000    0.000000
  0.032244489  -34.267763  -87.764671   30.054112  -28.163118    0.000000    0.000000    0.000000    0.000000
  0.032444890  -34.847130  -88.379570   30.078536  -31.879557    0.000000    0.000000    0.000000    0.000000
  0.032645291  -34.807323  -89.376732   30.107235  -35.395088    0.000000    0.000000    0.000000    0.000000
  0.032845691  -35.167994  -88.579491   30.128103  -38.324272    0.000000    0.000000    0.000000    0.000000
  0.033046092  -34.108938  -81.169731   30.078656  -41.725510    0.000000    0.000000    0.000000    0.000000
  0.033246493  -35.048178  -85.741180   30.106389  -45.006454    0.000000    0.000000    0.000000    0.000000
  0.033446894  -35.201073  -83.654282   30.132737  -47.756329    0.000000    0.000000    0.000000    0.000000
  0.033647295  -35.835179  -85.033356   30.189689  -50.957443    0.000000    0.000000    0.000000    0.000000
  0.033847695  -35.224199  -83.660744   30.213636  -53.611698    0.000000    0.000000    0.000000    0.000000
  0.034048096  -36.242103  -83.267914   30.163851  -56.734764    0.000000    0.000000    0.000000    0.000000
  0.034248497  -36.105917  -86.870911   30.208622  -59.408253    0.000000    0.000000    0.000000    0.000000
  0.034448898  -36.436881  -82.280594   30.243639  -62.623177    0.000000    0.000000    0.000000    0.000000
  0.034649299  -36.196428  -79.283470   30.277208  -65.584877    0.000000    0.000000    0.000000    0.000000
  0.034849699  -37.389111  -75.599701   30.295373  -68.389259    0.000000    0.000000    0.000000    0.000000
  0.035050100  -36.765240  -76.689354   30.287246  -71.605576    0.000000    0.000000    0.000000    0.000000
  0.035250501  -37.415108  -76.893616   30.294136  -74.215080    0.000000    0.000000    0.000000    0.000000
  0.035450902  -37.781115  -76.979538   30.275625  -76.673813    0.000000    0.000000    0.000000    0.000000
  0.035651303  -37.939156  -72.876877   30.227793  -79.289238    0.000000    0.000000    0.000000    0.000000
  0.035851703  -38.020546  -71.798775   30.215204  -81.626526    0.000000    0.000000    0.000000    0.000000
  0.036052104  -38.032340  -73.300667   30.160991  -84.508293    0.000000    0.000000    0.000000    0.000000
  0.036252505  -38.332803  -69.476570   30.140969  -87.261986    0.000000    0.000000    0.000000    0.000000
  0.036452906  -38.667004  -68.858856   30.150770  -89.687263    0.000000    0.000000    0.000000    0.000000
  0.036653307  -38.477148  -64.098579   30.095555  -92.319016    0.000000    0.000000    0.000000    0.000000
  0.036853707  -37.869093  -60.369926   30.111405  -95.265800    0.000000    0.000000    0.000000    0.000000
  0.037054108  -38.744352  -59.626255   30.052938  -97.783112    0.000000    0.000000    0.000000    0.000000
  0.037254509  -39.234609  -58.709709   30.074413 -100.257454    0.000000    0.000000    0.000000    0.000000
  0.037454910  -38.374471  -55.953022   30.082161 -102.663223    0.000000    0.000000    0.000000    0.000000
  0.037655311  -38.561291  -55.562222   30.109066 -105.111732    0.000000    0.000000    0.000000    0.000000
  0.037855711  -38.836103  -48.834808   30.147809 -107.405525    0.000000    0.000000    0.000000    0.000000
  0.038056112  -37.175695  -52.199738   30.168765 -109.557877    0.000000    0.000000    0.000000    0.000000
  0.038256513  -37.731852  -49.751400   30.201140 -111.390434    0.000000    0.000000    0.000000    0.000000
  0.038456914  -37.440902  -42.951744   30.209317 -113.445976    0.000000    0.000000    0.000000    0.000000
  0.038657315  -37.264277  -43.720306   30.287814 -114.988159    0.000000    0.000000    0.000000    0.000000
  0.038857715  -37.485910  -41.638153   30.278806 -117.537636    0.000000    0.000000    0.000000    0.000000
  0.039058116  -37.511031  -44.959724   30.301579 -119.138199    0.000000    0.000000    0.000000    0.000000
  0.039258517  -36.456939  -44.290558   30.262572 -121.475334    0.000000    0.000000    0.000000    0.000000
  0.039458918  -37.698164  -40.406998   30.286208 -123.242050    0.000000    0.000000    0.000000    0.000000
  0.039659319  -36.520925  -42.001396   30.238172 -125.342430    0.000000    0.000000    0.000000    0.000000
  0.039859719  -36.398627  -37.505516   30.199733 -127.987183    0.000000    0.000000    0.000000    0.000000
  0.040060120  -36.283092  -42.247059   30.181850 -130.215561    0.000000    0.000000    0.000000    0.000000
  0.040260521  -36.306808  -41.167606   30.177619 -132.705688    0.000000    0.000000    0.000000    0.000000
  0.040460922  -35.889423  -41.704445   30.184534 -134.923492    0.000000    0.000000    0.000000    0.000000
  0.040661323  -35.715339  -36.550697   30.189944 -136.902725    0.000000    0.000000    0.000000    0.000000
  0.040861723  -35.521921  -38.322899   30.173796 -139.065399    0.000000    0.000000    0.000000    0.000000
  0.041062124  -35.439369  -39.329758   30.195691 -140.946899    0.000000    0.000000    0.000000    0.000000
  0.041262525  -36.079723  -40.815899   30.268769 -142.541656    0.000000    0.000000    0.000000    0.000000
  0.041462926  -35.594754  -43.239689   30.277055 -143.879395    0.000000    0.000000    0.000000    0.000000
  0.041663327  -35.965451  -38.570732   30.331641 -145.661194    0.000000    0.000000    0.000000    0.000000
  0.041863727  -35.134836  -37.984474   30.335868 -147.085220    0.000000    0.000000    0.000000    0.000000
  0.042064128  -35.562531  -43.236477   30.373870 -148.985794    0.000000    0.000000    0.000000    0.000000
  0.042264529  -35.398099  -41.184311   30.438296 -151.032867    0.000000    0.000000    0.000000    0.000000
  0.042464930  -35.099817  -40.647003   30.381295 -153.109314    0.000000    0.000000    0.000000    0.000000
  0.042665331  -35.685898  -43.549892   30.339914 -155.277740    0.000000    0.000000    0.000000    0.000000
  0.042865731  -35.468403  -39.772785   30.377052 -157.663284    0.000000    0.000000    0.000000    0.000000
