! Anritsu VNA Master:                 Model: MS2034B/10/19/501
! SN:                                  1337062
! /bd0/ovro-jan-2016/spec3-vna-coax-load.s2p
! Existing Calibration Information:
! TYPE:                         Current Settings,       Active Cal Settings
! TIME:             	   01/10/2016 07:45:57 PM,    01/10/2016 03:13:30 PM
! INTERNAL TEMP:    	                   41.8 C,                    45.8 C
! # POINTS:         	                      500,                       500
! START FREQ:       	               10.000 MHz,                10.000 MHz
! STOP FREQ:        	              110.000 MHz,               110.000 MHz
! SOURCE POWER:     	                      Low,                       Low
! IFBW:             	                   100 Hz,                    100 Hz
! AVG FACTOR:       	                       1 ,                        3 
! REF PLANE 1:      	                 2.2245 m,                  2.2245 m
! REF PLANE 2:      	                     0 mm,                      0 mm
! CAL TYPE:         	             1P2P S11,S21,              1P2P S11,S21
! CAL METHOD:       	                     SOLT,                      SOLT
! CAL LINE TYPE:    	                     Coax,                      Coax
! DUT PORT 1:       	                K-Conn(M),                 K-Conn(M)
! DUT PORT 2:       	                N-Conn(M),                 N-Conn(M)
! CAL STATUS:       	        OK: Accuracy High,                        --
# GHZ S DB R 50.0
! FREQ.GHZ       S11DB        S11A       S21DB        S21A       S12DB        S12A       S22DB        S22A
  0.010000000  -30.183099  -47.677441  -65.659463   95.208199    0.000000    0.000000    0.000000    0.000000
  0.010200401  -30.631098  -51.487923  -65.680095   80.454056    0.000000    0.000000    0.000000    0.000000
  0.010400802  -30.549815  -51.262989  -65.976084   93.356514    0.000000    0.000000    0.000000    0.000000
  0.010601202  -30.773508  -56.076084  -67.370999   93.156136    0.000000    0.000000    0.000000    0.000000
  0.010801603  -31.420527  -53.455849  -66.461024  110.457886    0.000000    0.000000    0.000000    0.000000
  0.011002004  -31.109191  -54.343765  -64.058602   95.687088    0.000000    0.000000    0.000000    0.000000
  0.011202405  -31.401519  -56.315662  -68.416383   98.842300    0.000000    0.000000    0.000000    0.000000
  0.011402806  -31.269114  -59.211376  -66.664819   93.758667    0.000000    0.000000    0.000000    0.000000
  0.011603206  -31.668190  -60.118061  -66.837062  104.146675    0.000000    0.000000    0.000000    0.000000
  0.011803607  -31.589909  -60.793846  -65.695798   91.958138    0.000000    0.000000    0.000000    0.000000
  0.012004008  -32.645134  -66.279984  -66.613370  113.519524    0.000000    0.000000    0.000000    0.000000
  0.012204409  -32.761109  -64.336098  -68.719495   98.694153    0.000000    0.000000    0.000000    0.000000
  0.012404810  -32.725727  -68.509628  -67.089769  112.259933    0.000000    0.000000    0.000000    0.000000
  0.012605210  -33.341034  -66.445641  -67.865916   99.875343    0.000000    0.000000    0.000000    0.000000
  0.012805611  -33.210529  -71.619987  -66.124992  114.346062    0.000000    0.000000    0.000000    0.000000
  0.013006012  -33.911888  -71.174278  -67.284635  117.069130    0.000000    0.000000    0.000000    0.000000
  0.013206413  -34.076621  -71.719772  -65.613028  110.359283    0.000000    0.000000    0.000000    0.000000
  0.013406814  -34.849882  -72.813217  -65.833331  114.607323    0.000000    0.000000    0.000000    0.000000
  0.013607214  -34.344615  -75.645340  -64.504534  126.610878    0.000000    0.000000    0.000000    0.000000
  0.013807615  -34.809628  -76.116203  -66.317244  110.418694    0.000000    0.000000    0.000000    0.000000
  0.014008016  -35.725648  -82.962738  -66.101545   98.350784    0.000000    0.000000    0.000000    0.000000
  0.014208417  -36.052818  -84.305115  -67.589251  127.913254    0.000000    0.000000    0.000000    0.000000
  0.014408818  -36.408193  -82.000481  -65.483917  111.903671    0.000000    0.000000    0.000000    0.000000
  0.014609218  -37.250551  -87.195351  -65.593654  115.451477    0.000000    0.000000    0.000000    0.000000
  0.014809619  -36.943773  -89.933273  -67.111221  124.704979    0.000000    0.000000    0.000000    0.000000
  0.015010020  -37.193971  -89.605614  -66.049789  119.678795    0.000000    0.000000    0.000000    0.000000
  0.015210421  -37.259337  -82.526459  -68.272984  121.723808    0.000000    0.000000    0.000000    0.000000
  0.015410822  -38.291188  -94.617020  -66.354018  116.933083    0.000000    0.000000    0.000000    0.000000
  0.015611222  -39.941410  -92.589790  -67.220054  131.907379    0.000000    0.000000    0.000000    0.000000
  0.015811623  -40.412860  -99.419899  -67.764814  152.936859    0.000000    0.000000    0.000000    0.000000
  0.016012024  -39.852881 -100.013016  -69.109192  129.499863    0.000000    0.000000    0.000000    0.000000
  0.016212425  -40.564947  -98.615784  -67.578125  123.514671    0.000000    0.000000    0.000000    0.000000
  0.016412826  -42.425546 -104.903343  -65.722011  135.301956    0.000000    0.000000    0.000000    0.000000
  0.016613226  -43.028604 -112.385399  -65.647362  118.374321    0.000000    0.000000    0.000000    0.000000
  0.016813627  -42.534483 -109.897934  -67.116379  138.989578    0.000000    0.000000    0.000000    0.000000
  0.017014028  -43.709217 -114.680252  -67.683188  137.316116    0.000000    0.000000    0.000000    0.000000
  0.017214429  -42.695117 -115.085106  -69.348722  132.164093    0.000000    0.000000    0.000000    0.000000
  0.017414830  -44.443199 -117.087418  -66.379061  137.352631    0.000000    0.000000    0.000000    0.000000
  0.017615230  -45.942051 -137.427521  -68.073624  144.116959    0.000000    0.000000    0.000000    0.000000
  0.017815631  -45.916758 -139.087357  -66.058872  144.660446    0.000000    0.000000    0.000000    0.000000
  0.018016032  -47.498500 -157.202240  -66.731980  148.123123    0.000000    0.000000    0.000000    0.000000
  0.018216433  -49.242972  178.934265  -67.054976  134.945419    0.000000    0.000000    0.000000    0.000000
  0.018416834  -46.296504  174.613037  -65.923082  144.780060    0.000000    0.000000    0.000000    0.000000
  0.018617234  -47.779639  166.194458  -67.524042  155.578033    0.000000    0.000000    0.000000    0.000000
  0.018817635  -48.103149  143.755341  -66.080755  138.421295    0.000000    0.000000    0.000000    0.000000
  0.019018036  -45.792607  134.562729  -65.486557  157.504242    0.000000    0.000000    0.000000    0.000000
  0.019218437  -47.452748  135.002289  -68.304779  168.513718    0.000000    0.000000    0.000000    0.000000
  0.019418838  -45.394254  135.233109  -67.328593  168.200150    0.000000    0.000000    0.000000    0.000000
  0.019619238  -44.873851  119.527328  -66.741458  162.553986    0.000000    0.000000    0.000000    0.000000
  0.019819639  -43.675523  127.220268  -66.772442  164.020142    0.000000    0.000000    0.000000    0.000000
  0.020020040  -43.710695  108.855713  -67.926128  162.020203    0.000000    0.000000    0.000000    0.000000
  0.020220441  -46.385046  106.544441  -67.826637  172.265457    0.000000    0.000000    0.000000    0.000000
  0.020420842  -42.688863  108.380646  -66.689661 -179.741302    0.000000    0.000000    0.000000    0.000000
  0.020621242  -41.237227   89.092567  -68.102127  162.405594    0.000000    0.000000    0.000000    0.000000
  0.020821643  -42.986436  100.510643  -68.598365  165.683624    0.000000    0.000000    0.000000    0.000000
  0.021022044  -42.038173  100.718468  -67.359913  171.853241    0.000000    0.000000    0.000000    0.000000
  0.021222445  -41.834245   93.165237  -65.618205 -177.055115    0.000000    0.000000    0.000000    0.000000
  0.021422846  -39.732306   93.559242  -67.176350 -175.081161    0.000000    0.000000    0.000000    0.000000
  0.021623246  -40.108121   95.246239  -66.734555 -178.319046    0.000000    0.000000    0.000000    0.000000
  0.021823647  -38.828431   84.037224  -67.405210  175.070801    0.000000    0.000000    0.000000    0.000000
  0.022024048  -39.483060   84.184822  -67.646051  172.029266    0.000000    0.000000    0.000000    0.000000
  0.022224449  -38.923952   84.707626  -66.035564 -171.931992    0.000000    0.000000    0.000000    0.000000
  0.022424850  -39.005883   80.188843  -68.267534 -164.752365    0.000000    0.000000    0.000000    0.000000
  0.022625251  -38.349099   80.341881  -68.530906 -172.526337    0.000000    0.000000    0.000000    0.000000
  0.022825651  -38.244172   75.650322  -67.002707 -175.909729    0.000000    0.000000    0.000000    0.000000
  0.023026052  -37.821253   70.576302  -65.564278 -174.323425    0.000000    0.000000    0.000000    0.000000
  0.023226453  -37.200516   73.767967  -65.214959 -168.857498    0.000000    0.000000    0.000000    0.000000
  0.023426854  -37.791562   72.553322  -65.185467 -158.973083    0.000000    0.000000    0.000000    0.000000
  0.023627255  -36.954680   70.393654  -64.816524 -157.348297    0.000000    0.000000    0.000000    0.000000
  0.023827655  -36.986266   74.600609  -65.910337 -162.345078    0.000000    0.000000    0.000000    0.000000
  0.024028056  -35.946392   67.076088  -65.266802 -174.019867    0.000000    0.000000    0.000000    0.000000
  0.024228457  -35.928795   68.995514  -63.180266  175.959320    0.000000    0.000000    0.000000    0.000000
  0.024428858  -36.318404   66.183456  -63.215701  178.423157    0.000000    0.000000    0.000000    0.000000
  0.024629259  -35.331322   57.169819  -63.946151 -165.544876    0.000000    0.000000    0.000000    0.000000
  0.024829659  -36.101309   60.186935  -65.799068 -159.043762    0.000000    0.000000    0.000000    0.000000
  0.025030060  -35.596600   58.606197  -64.042185 -160.986420    0.000000    0.000000    0.000000    0.000000
  0.025230461  -35.216176   58.431675  -62.309055 -149.069595    0.000000    0.000000    0.000000    0.000000
  0.025430862  -35.577673   60.011463  -66.689527 -147.330917    0.000000    0.000000    0.000000    0.000000
  0.025631263  -35.046416   60.018959  -65.081069 -134.852234    0.000000    0.000000    0.000000    0.000000
  0.025831663  -34.824464   57.909344  -66.937000 -147.410873    0.000000    0.000000    0.000000    0.000000
  0.026032064  -35.173648   52.556767  -66.796190 -125.152626    0.000000    0.000000    0.000000    0.000000
  0.026232465  -34.634450   54.314583  -65.077815 -135.202316    0.000000    0.000000    0.000000    0.000000
  0.026432866  -35.564680   48.771507  -65.081598 -130.659439    0.000000    0.000000    0.000000    0.000000
  0.026633267  -34.717562   47.507008  -65.718461 -133.091080    0.000000    0.000000    0.000000    0.000000
  0.026833667  -36.064445   43.670246  -65.660177 -128.880737    0.000000    0.000000    0.000000    0.000000
  0.027034068  -34.661479   46.725391  -66.023372 -116.604210    0.000000    0.000000    0.000000    0.000000
  0.027234469  -35.236766   45.635658  -65.315735 -124.091316    0.000000    0.000000    0.000000    0.000000
  0.027434870  -34.943906   38.379135  -65.178150 -125.862244    0.000000    0.000000    0.000000    0.000000
  0.027635271  -34.653778   41.634052  -63.901183 -113.928009    0.000000    0.000000    0.000000    0.000000
  0.027835671  -34.200911   42.373062  -68.981260 -118.256416    0.000000    0.000000    0.000000    0.000000
  0.028036072  -34.703561   39.891132  -64.453871 -133.773102    0.000000    0.000000    0.000000    0.000000
  0.028236473  -35.646813   35.608242  -64.195393 -125.975586    0.000000    0.000000    0.000000    0.000000
  0.028436874  -34.173658   39.201435  -66.867677 -101.240883    0.000000    0.000000    0.000000    0.000000
  0.028637275  -33.984866   39.040257  -67.829695 -117.918083    0.000000    0.000000    0.000000    0.000000
  0.028837675  -34.353668   33.887913  -68.213591  -97.375504    0.000000    0.000000    0.000000    0.000000
  0.029038076  -34.478724   35.036442  -65.974718 -102.648911    0.000000    0.000000    0.000000    0.000000
  0.029238477  -34.646788   33.738373  -66.629224 -116.845604    0.000000    0.000000    0.000000    0.000000
  0.029438878  -34.599762   30.929060  -64.838640 -101.653442    0.000000    0.000000    0.000000    0.000000
  0.029639279  -35.189324   33.529213  -65.792238 -108.369545    0.000000    0.000000    0.000000    0.000000
  0.029839679  -34.877636   33.075138  -68.133843 -112.925827    0.000000    0.000000    0.000000    0.000000
  0.030040080  -35.015648   32.150261  -65.321874 -111.993805    0.000000    0.000000    0.000000    0.000000
  0.030240481  -35.018086   32.985073  -65.162018 -110.025658    0.000000    0.000000    0.000000    0.000000
  0.030440882  -34.920993   26.174355  -65.649430 -100.995903    0.000000    0.000000    0.000000    0.000000
  0.030641283  -34.563660   27.030882  -65.483341  -95.234962    0.000000    0.000000    0.000000    0.000000
  0.030841683  -35.518066   25.590059  -65.041118  -78.437668    0.000000    0.000000    0.000000    0.000000
  0.031042084  -35.873603   30.105104  -65.337980  -94.589211    0.000000    0.000000    0.000000    0.000000
  0.031242485  -35.936785   22.622162  -67.173749 -107.965591    0.000000    0.000000    0.000000    0.000000
  0.031442886  -35.956332   19.286160  -65.916543 -106.583015    0.000000    0.000000    0.000000    0.000000
  0.031643287  -35.358378   21.849606  -65.185754  -99.156425    0.000000    0.000000    0.000000    0.000000
  0.031843687  -35.745932   18.400654  -66.754864  -82.468719    0.000000    0.000000    0.000000    0.000000
  0.032044088  -36.602044   18.727419  -65.614594 -112.377899    0.000000    0.000000    0.000000    0.000000
  0.032244489  -36.285120   23.909489  -65.670650  -84.816185    0.000000    0.000000    0.000000    0.000000
  0.032444890  -36.697185   16.340469  -66.090817  -83.723152    0.000000    0.000000    0.000000    0.000000
  0.032645291  -36.422463   17.491241  -66.252379  -88.390015    0.000000    0.000000    0.000000    0.000000
  0.032845691  -37.520818   12.457170  -64.057091  -90.431000    0.000000    0.000000    0.000000    0.000000
  0.033046092  -36.227973   10.203623  -65.274549  -95.889015    0.000000    0.000000    0.000000    0.000000
  0.033246493  -37.622741   16.975977  -65.542849  -81.996979    0.000000    0.000000    0.000000    0.000000
  0.033446894  -38.547450   18.668001  -65.864239  -80.881554    0.000000    0.000000    0.000000    0.000000
  0.033647295  -38.378008   12.919502  -66.854588  -76.451294    0.000000    0.000000    0.000000    0.000000
  0.033847695  -38.438768    8.998254  -65.049361  -81.515381    0.000000    0.000000    0.000000    0.000000
  0.034048096  -39.590050    7.343505  -64.020210  -89.898575    0.000000    0.000000    0.000000    0.000000
  0.034248497  -38.478033   12.207429  -65.866832  -72.294289    0.000000    0.000000    0.000000    0.000000
  0.034448898  -40.154552   13.324000  -67.129124  -76.948723    0.000000    0.000000    0.000000    0.000000
  0.034649299  -39.856876    0.896072  -65.758040  -86.996452    0.000000    0.000000    0.000000    0.000000
  0.034849699  -40.866204    9.177863  -65.859180  -80.964417    0.000000    0.000000    0.000000    0.000000
  0.035050100  -40.660568    7.782028  -69.485334  -83.169518    0.000000    0.000000    0.000000    0.000000
  0.035250501  -42.721335    5.843547  -67.345321  -79.127068    0.000000    0.000000    0.000000    0.000000
  0.035450902  -42.580313    0.597563  -71.068642  -68.677841    0.000000    0.000000    0.000000    0.000000
  0.035651303  -43.826912   -9.940001  -66.280660  -56.974369    0.000000    0.000000    0.000000    0.000000
  0.035851703  -44.360659   -0.231097  -68.482397  -68.231308    0.000000    0.000000    0.000000    0.000000
  0.036052104  -46.996510   -7.530478  -69.765065  -34.328316    0.000000    0.000000    0.000000    0.000000
  0.036252505  -45.245582    8.124371  -65.451893  -52.278736    0.000000    0.000000    0.000000    0.000000
  0.036452906  -45.222761   -4.249291  -68.984940  -61.011875    0.000000    0.000000    0.000000    0.000000
  0.036653307  -46.858393   -1.369233  -70.454082  -44.896057    0.000000    0.000000    0.000000    0.000000
  0.036853707  -55.931232  -22.608381  -66.240898  -55.335487    0.000000    0.000000    0.000000    0.000000
  0.037054108  -52.863271  -22.979977  -66.340675  -59.783695    0.000000    0.000000    0.000000    0.000000
  0.037254509  -57.658870  -31.937483  -68.088624  -43.370846    0.000000    0.000000    0.000000    0.000000
  0.037454910  -57.288677   10.931473  -67.140654  -53.288181    0.000000    0.000000    0.000000    0.000000
  0.037655311  -64.359045   82.755852  -64.862950  -61.170975    0.000000    0.000000    0.000000    0.000000
  0.037855711  -70.922121   -2.788293  -66.620715  -32.166447    0.000000    0.000000    0.000000    0.000000
  0.038056112  -56.254328 -144.677734  -66.878399  -31.579998    0.000000    0.000000    0.000000    0.000000
  0.038256513  -55.260545  158.698441  -70.172472  -26.639275    0.000000    0.000000    0.000000    0.000000
  0.038456914  -51.383182  176.383148  -66.371453  -22.862112    0.000000    0.000000    0.000000    0.000000
  0.038657315  -51.730287  163.519791  -66.308348  -20.274960    0.000000    0.000000    0.000000    0.000000
  0.038857715  -48.499477  155.767853  -66.548696  -31.783972    0.000000    0.000000    0.000000    0.000000
  0.039058116  -50.524755  161.215683  -68.893160  -31.343752    0.000000    0.000000    0.000000    0.000000
  0.039258517  -45.648367  160.066803  -68.541774  -25.640459    0.000000    0.000000    0.000000    0.000000
  0.039458918  -45.242004  166.772324  -68.415591  -29.166725    0.000000    0.000000    0.000000    0.000000
  0.039659319  -42.391235  170.662064  -67.297664  -19.428371    0.000000    0.000000    0.000000    0.000000
  0.039859719  -42.770874  165.164185  -67.033702  -18.277201    0.000000    0.000000    0.000000    0.000000
  0.040060120  -42.373513  156.295044  -66.734961  -33.216984    0.000000    0.000000    0.000000    0.000000
  0.040260521  -42.349592  165.034439  -68.686756  -23.851387    0.000000    0.000000    0.000000    0.000000
  0.040460922  -41.722692  154.069000  -66.931725  -20.487587    0.000000    0.000000    0.000000    0.000000
  0.040661323  -39.607360  163.959900  -67.729469  -19.331511    0.000000    0.000000    0.000000    0.000000
  0.040861723  -40.377453  159.774643  -66.771558   -9.561222    0.000000    0.000000    0.000000    0.000000
  0.041062124  -38.804112  158.976837  -70.417529   -9.613358    0.000000    0.000000    0.000000    0.000000
  0.041262525  -39.153401  161.413452  -68.724929  -10.747094    0.000000    0.000000    0.000000    0.000000
  0.041462926  -37.883294  157.453278  -68.837273   -8.253389    0.000000    0.000000    0.000000    0.000000
  0.041663327  -37.314892  157.800766  -67.412643   -3.948399    0.000000    0.000000    0.000000    0.000000
  0.041863727  -37.741017  155.932358  -66.607478   -3.000307    0.000000    0.000000    0.000000    0.000000
  0.042064128  -36.787755  147.510223  -69.071535    2.885618    0.000000    0.000000    0.000000    0.000000
  0.042264529  -36.922566  150.916672  -67.504740    1.520616    0.000000    0.000000    0.000000    0.000000
  0.042464930  -36.333316  154.757172  -67.228616    8.618629    0.000000    0.000000    0.000000    0.000000
  0.042665331  -36.683417  157.512573  -69.210198   -2.946937    0.000000    0.000000    0.000000    0.000000
  0.042865731  -35.338854  158.410767  -66.424581   -1.012284    0.000000    0.000000    0.000000    0.000000
