! Anritsu VNA Master:                 Model: MS2034B/10/19/501
! SN:                                  1337062
! /bd0/ovro-jan-2016/vna-s21-40db-pads.s2p
! Existing Calibration Information:
! TYPE:                         Current Settings,       Active Cal Settings
! TIME:             	   01/08/2016 03:32:58 PM,    01/08/2016 03:31:26 PM
! INTERNAL TEMP:    	                   41.3 C,                    41.3 C
! # POINTS:         	                      401,                       401
! START FREQ:       	               10.000 MHz,                10.000 MHz
! STOP FREQ:        	              110.000 MHz,               110.000 MHz
! SOURCE POWER:     	                     High,                      High
! IFBW:             	                   100 Hz,                    100 Hz
! AVG FACTOR:       	                       1 ,                        1 
! REF PLANE 1:      	                     0 mm,                      0 mm
! REF PLANE 2:      	                     0 mm,                      0 mm
! CAL TYPE:         	             1P2P S11,S21,              1P2P S11,S21
! CAL METHOD:       	                     SOLT,                      SOLT
! CAL LINE TYPE:    	                     Coax,                      Coax
! DUT PORT 1:       	                K-Conn(M),                 K-Conn(M)
! DUT PORT 2:       	                N-Conn(M),                 N-Conn(M)
! CAL STATUS:       	        OK: Accuracy High,                        --
# GHZ S DB R 50.0
! FREQ.GHZ       S11DB        S11A       S21DB        S21A       S12DB        S12A       S22DB        S22A
  0.010000000  -66.418593 -136.964066  -40.056872   -1.232105    0.000000    0.000000    0.000000    0.000000
  0.010250000  -66.603762 -125.753212  -39.972577   -1.091954    0.000000    0.000000    0.000000    0.000000
  0.010500000  -66.129779 -131.247238  -39.947575   -0.969210    0.000000    0.000000    0.000000    0.000000
  0.010750000  -65.163707 -129.688278  -39.938603   -0.781069    0.000000    0.000000    0.000000    0.000000
  0.011000000  -66.094977 -136.097717  -39.956351   -0.666474    0.000000    0.000000    0.000000    0.000000
  0.011250000  -65.392970 -129.292130  -39.933569   -1.044739    0.000000    0.000000    0.000000    0.000000
  0.011500000  -66.220920 -129.973312  -39.958944   -1.592132    0.000000    0.000000    0.000000    0.000000
  0.011750000  -65.972654 -138.370377  -40.014696   -1.751534    0.000000    0.000000    0.000000    0.000000
  0.012000000  -65.316771 -141.623566  -40.028674   -2.306039    0.000000    0.000000    0.000000    0.000000
  0.012250000  -65.613683 -125.913742  -39.946411   -1.633050    0.000000    0.000000    0.000000    0.000000
  0.012500000  -64.707984 -123.284409  -39.945959   -1.491820    0.000000    0.000000    0.000000    0.000000
  0.012750000  -65.496669 -130.240417  -39.909768   -1.255270    0.000000    0.000000    0.000000    0.000000
  0.013000000  -64.959591 -131.785507  -39.923651   -1.108047    0.000000    0.000000    0.000000    0.000000
  0.013250000  -65.784420 -129.718628  -39.915659   -1.189060    0.000000    0.000000    0.000000    0.000000
  0.013500000  -64.794770 -127.593422  -39.887642   -1.505858    0.000000    0.000000    0.000000    0.000000
  0.013750000  -66.173512 -128.244034  -39.938338   -1.918193    0.000000    0.000000    0.000000    0.000000
  0.014000000  -64.383888 -124.269279  -39.937491   -2.229689    0.000000    0.000000    0.000000    0.000000
  0.014250000  -64.335352 -117.060715  -39.904417   -2.580421    0.000000    0.000000    0.000000    0.000000
  0.014500000  -64.326847 -120.325653  -39.939624   -2.067016    0.000000    0.000000    0.000000    0.000000
  0.014750000  -65.336218 -114.006454  -39.924836   -2.120992    0.000000    0.000000    0.000000    0.000000
  0.015000000  -64.820624 -131.650391  -39.907909   -1.416185    0.000000    0.000000    0.000000    0.000000
  0.015250000  -64.159056 -121.942169  -39.914361   -1.106613    0.000000    0.000000    0.000000    0.000000
  0.015500000  -64.289429 -127.209869  -39.912100   -1.277863    0.000000    0.000000    0.000000    0.000000
  0.015750000  -65.137680 -126.544540  -39.879624   -1.359182    0.000000    0.000000    0.000000    0.000000
  0.016000000  -63.404561 -121.383430  -39.876048   -1.353154    0.000000    0.000000    0.000000    0.000000
  0.016250000  -64.065227 -124.005714  -39.928496   -2.508540    0.000000    0.000000    0.000000    0.000000
  0.016500000  -63.999768 -127.824654  -39.822576   -2.519501    0.000000    0.000000    0.000000    0.000000
  0.016750000  -64.661336 -119.424126  -39.842232   -2.722886    0.000000    0.000000    0.000000    0.000000
  0.017000000  -63.062214 -121.147354  -39.844061   -2.375947    0.000000    0.000000    0.000000    0.000000
  0.017250000  -63.400105 -118.462883  -39.866621   -1.992963    0.000000    0.000000    0.000000    0.000000
  0.017500000  -63.553977 -119.138741  -39.856248   -1.828652    0.000000    0.000000    0.000000    0.000000
  0.017750000  -62.310612 -121.522644  -39.857113   -1.496164    0.000000    0.000000    0.000000    0.000000
  0.018000000  -64.548602 -120.115311  -39.912635   -1.506277    0.000000    0.000000    0.000000    0.000000
  0.018250000  -62.925725 -122.851524  -39.868776   -1.990216    0.000000    0.000000    0.000000    0.000000
  0.018500000  -62.708979 -119.353592  -39.885495   -1.972021    0.000000    0.000000    0.000000    0.000000
  0.018750000  -63.622480 -111.478600  -39.800048   -2.874334    0.000000    0.000000    0.000000    0.000000
  0.019000000  -62.769260 -118.346008  -39.776933   -2.418796    0.000000    0.000000    0.000000    0.000000
  0.019250000  -62.625708 -114.296577  -39.750152   -2.793014    0.000000    0.000000    0.000000    0.000000
  0.019500000  -62.677413 -115.907585  -39.771967   -2.291430    0.000000    0.000000    0.000000    0.000000
  0.019750000  -62.940199 -111.043327  -39.731370   -2.065997    0.000000    0.000000    0.000000    0.000000
  0.020000000  -62.524346 -111.272408  -39.765225   -1.766263    0.000000    0.000000    0.000000    0.000000
  0.020250000  -62.264922 -107.272079  -39.755001   -2.002441    0.000000    0.000000    0.000000    0.000000
  0.020500000  -62.986455 -104.783791  -39.722504   -1.582442    0.000000    0.000000    0.000000    0.000000
  0.020750000  -62.293798 -110.709595  -39.685155   -2.048737    0.000000    0.000000    0.000000    0.000000
  0.021000000  -62.639012 -105.307632  -39.678456   -2.063378    0.000000    0.000000    0.000000    0.000000
  0.021250000  -62.003432 -104.494011  -39.656708   -2.441501    0.000000    0.000000    0.000000    0.000000
  0.021500000  -62.426667 -102.241486  -39.651126   -2.878143    0.000000    0.000000    0.000000    0.000000
  0.021750000  -61.796460 -109.512260  -39.605706   -2.900908    0.000000    0.000000    0.000000    0.000000
  0.022000000  -61.478811 -104.924835  -39.683565   -2.816376    0.000000    0.000000    0.000000    0.000000
  0.022250000  -61.393515 -109.157623  -39.667092   -2.889920    0.000000    0.000000    0.000000    0.000000
  0.022500000  -61.469635 -102.385201  -39.696751   -2.361492    0.000000    0.000000    0.000000    0.000000
  0.022750000  -60.959700 -107.642860  -39.750782   -1.835006    0.000000    0.000000    0.000000    0.000000
  0.023000000  -61.903508 -102.786018  -39.737504   -2.022895    0.000000    0.000000    0.000000    0.000000
  0.023250000  -60.805160 -108.031235  -39.753275   -2.220657    0.000000    0.000000    0.000000    0.000000
  0.023500000  -61.089146 -105.916252  -39.765253   -2.167010    0.000000    0.000000    0.000000    0.000000
  0.023750000  -60.677293 -106.532928  -39.719613   -2.251575    0.000000    0.000000    0.000000    0.000000
  0.024000000  -60.231727 -107.550140  -39.661406   -2.502772    0.000000    0.000000    0.000000    0.000000
  0.024250000  -61.214430 -106.397804  -39.568187   -2.784369    0.000000    0.000000    0.000000    0.000000
  0.024500000  -59.736727 -109.213516  -39.569141   -2.755924    0.000000    0.000000    0.000000    0.000000
  0.024750000  -61.032874 -105.922813  -39.541624   -2.867225    0.000000    0.000000    0.000000    0.000000
  0.025000000  -61.337019 -104.277580  -39.525844   -1.647694    0.000000    0.000000    0.000000    0.000000
  0.025250000  -61.441860 -104.751152  -39.545084   -2.027658    0.000000    0.000000    0.000000    0.000000
  0.025500000  -60.303659 -106.276566  -39.544614   -2.214353    0.000000    0.000000    0.000000    0.000000
  0.025750000  -60.677441 -105.478874  -39.529165   -2.276229    0.000000    0.000000    0.000000    0.000000
  0.026000000  -60.984306 -107.672539  -39.571334   -2.549677    0.000000    0.000000    0.000000    0.000000
  0.026250000  -61.279250 -106.221489  -39.605905   -2.359135    0.000000    0.000000    0.000000    0.000000
  0.026500000  -60.436894 -107.036652  -39.592231   -2.381898    0.000000    0.000000    0.000000    0.000000
  0.026750000  -60.201037 -104.933693  -39.559871   -2.160053    0.000000    0.000000    0.000000    0.000000
  0.027000000  -60.504507 -106.401062  -39.587764   -1.863695    0.000000    0.000000    0.000000    0.000000
  0.027250000  -60.862671 -101.767624  -39.599051   -1.895395    0.000000    0.000000    0.000000    0.000000
  0.027500000  -59.768698 -106.761536  -39.669740   -1.922451    0.000000    0.000000    0.000000    0.000000
  0.027750000  -60.568517 -102.154129  -39.619770   -1.855582    0.000000    0.000000    0.000000    0.000000
  0.028000000  -60.035814 -102.109291  -39.657873   -1.656676    0.000000    0.000000    0.000000    0.000000
  0.028250000  -59.694552 -104.638344  -39.613579   -2.407520    0.000000    0.000000    0.000000    0.000000
  0.028500000  -59.482735 -102.131187  -39.653247   -1.927594    0.000000    0.000000    0.000000    0.000000
  0.028750000  -59.248648 -104.492409  -39.624529   -1.783281    0.000000    0.000000    0.000000    0.000000
  0.029000000  -58.995884 -103.454910  -39.626642   -1.685354    0.000000    0.000000    0.000000    0.000000
  0.029250000  -59.084718 -106.358055  -39.631239   -1.585174    0.000000    0.000000    0.000000    0.000000
  0.029500000  -59.110632 -104.252403  -39.580964   -1.779201    0.000000    0.000000    0.000000    0.000000
  0.029750000  -59.776799 -104.506783  -39.564274   -1.990405    0.000000    0.000000    0.000000    0.000000
  0.030000000  -59.069749 -101.357079  -39.562818   -1.714334    0.000000    0.000000    0.000000    0.000000
  0.030250000  -59.224612 -101.377350  -39.537788   -1.957522    0.000000    0.000000    0.000000    0.000000
  0.030500000  -58.930812 -102.089035  -39.550707   -1.881915    0.000000    0.000000    0.000000    0.000000
  0.030750000  -58.971823 -102.140129  -39.515694   -1.980291    0.000000    0.000000    0.000000    0.000000
  0.031000000  -58.746374 -101.577316  -39.580335   -1.662987    0.000000    0.000000    0.000000    0.000000
  0.031250000  -58.526174 -101.214767  -39.553520   -1.471134    0.000000    0.000000    0.000000    0.000000
  0.031500000  -58.405949 -102.199501  -39.527265   -1.524858    0.000000    0.000000    0.000000    0.000000
  0.031750000  -58.476235 -102.430733  -39.513019   -1.403229    0.000000    0.000000    0.000000    0.000000
  0.032000000  -58.420618 -102.898323  -39.539991   -1.339094    0.000000    0.000000    0.000000    0.000000
  0.032250000  -58.381665 -102.523308  -39.542358   -1.560071    0.000000    0.000000    0.000000    0.000000
  0.032500000  -58.410239 -103.609627  -39.530844   -1.386554    0.000000    0.000000    0.000000    0.000000
  0.032750000  -58.751815 -103.233932  -39.516821   -1.698391    0.000000    0.000000    0.000000    0.000000
  0.033000000  -58.312103 -104.601051  -39.545932   -1.314093    0.000000    0.000000    0.000000    0.000000
  0.033250000  -58.657438 -101.309547  -39.545883   -1.440315    0.000000    0.000000    0.000000    0.000000
  0.033500000  -58.555391 -104.457535  -39.570500   -1.371490    0.000000    0.000000    0.000000    0.000000
  0.033750000  -58.402688 -104.023819  -39.560949   -1.613319    0.000000    0.000000    0.000000    0.000000
  0.034000000  -58.165918 -102.337936  -39.546647   -1.297730    0.000000    0.000000    0.000000    0.000000
  0.034250000  -57.518533 -103.344627  -39.569322   -1.258436    0.000000    0.000000    0.000000    0.000000
  0.034500000  -57.554295 -100.046860  -39.543921   -1.369371    0.000000    0.000000    0.000000    0.000000
  0.034750000  -57.397240 -100.346474  -39.490810   -1.503320    0.000000    0.000000    0.000000    0.000000
  0.035000000  -57.665326 -100.602974  -39.490840   -1.576626    0.000000    0.000000    0.000000    0.000000
  0.035250000  -57.420644 -100.346001  -39.492248   -1.406736    0.000000    0.000000    0.000000    0.000000
  0.035500000  -57.752812  -99.506287  -39.459158   -1.374358    0.000000    0.000000    0.000000    0.000000
  0.035750000  -58.223901 -103.431648  -39.393235   -1.408885    0.000000    0.000000    0.000000    0.000000
  0.036000000  -57.583432 -104.679779  -39.352407   -1.122284    0.000000    0.000000    0.000000    0.000000
  0.036250000  -57.785970 -102.833328  -39.329234   -1.030805    0.000000    0.000000    0.000000    0.000000
  0.036500000  -57.243383 -100.790680  -39.328846   -0.964901    0.000000    0.000000    0.000000    0.000000
  0.036750000  -57.314678 -101.349442  -39.313583   -0.619414    0.000000    0.000000    0.000000    0.000000
  0.037000000  -57.011145  -98.237862  -39.335888   -1.123761    0.000000    0.000000    0.000000    0.000000
  0.037250000  -56.926094  -96.805542  -39.335377   -0.858550    0.000000    0.000000    0.000000    0.000000
  0.037500000  -57.129798  -98.836250  -39.403210   -1.000926    0.000000    0.000000    0.000000    0.000000
  0.037750000  -57.102820 -100.361763  -39.393950   -1.576538    0.000000    0.000000    0.000000    0.000000
  0.038000000  -57.716484 -106.710091  -39.463569   -1.206488    0.000000    0.000000    0.000000    0.000000
  0.038250000  -57.478777 -103.924599  -39.515339   -1.353169    0.000000    0.000000    0.000000    0.000000
  0.038500000  -57.300702 -102.768661  -39.543662   -1.278540    0.000000    0.000000    0.000000    0.000000
  0.038750000  -57.002583 -101.393440  -39.493114   -1.348991    0.000000    0.000000    0.000000    0.000000
  0.039000000  -56.863525  -99.792633  -39.490510   -1.089322    0.000000    0.000000    0.000000    0.000000
  0.039250000  -56.624473  -98.498901  -39.453404   -0.828978    0.000000    0.000000    0.000000    0.000000
  0.039500000  -56.744099  -97.309486  -39.457695   -0.529267    0.000000    0.000000    0.000000    0.000000
  0.039750000  -56.593443  -99.179207  -39.425134   -0.715476    0.000000    0.000000    0.000000    0.000000
  0.040000000  -57.030288 -100.432724  -39.386094   -0.470207    0.000000    0.000000    0.000000    0.000000
  0.040250000  -56.112640 -100.428513  -39.373235   -0.314651    0.000000    0.000000    0.000000    0.000000
  0.040500000  -56.303341 -100.801872  -39.390089   -0.126350    0.000000    0.000000    0.000000    0.000000
  0.040750000  -55.877609  -98.316650  -39.459261   -0.837328    0.000000    0.000000    0.000000    0.000000
  0.041000000  -55.923332  -96.396690  -39.469223   -1.413822    0.000000    0.000000    0.000000    0.000000
  0.041250000  -55.596232  -97.423691  -39.458565   -1.445954    0.000000    0.000000    0.000000    0.000000
  0.041500000  -55.923558  -98.990326  -39.477501   -1.245649    0.000000    0.000000    0.000000    0.000000
  0.041750000  -55.847914 -102.158371  -39.454951   -1.221094    0.000000    0.000000    0.000000    0.000000
  0.042000000  -55.603775 -100.756180  -39.478937   -0.807517    0.000000    0.000000    0.000000    0.000000
  0.042250000  -55.964496  -98.669983  -39.425896   -0.492206    0.000000    0.000000    0.000000    0.000000
  0.042500000  -55.788208  -99.149643  -39.470727   -0.243458    0.000000    0.000000    0.000000    0.000000
  0.042750000  -55.911508  -99.544182  -39.418072   -0.118679    0.000000    0.000000    0.000000    0.000000
  0.043000000  -55.713413  -97.401390  -39.462831   -0.316681    0.000000    0.000000    0.000000    0.000000
  0.043250000  -55.636658  -96.296005  -39.506684   -0.653749    0.000000    0.000000    0.000000    0.000000
  0.043500000  -55.692617  -97.307060  -39.548238   -0.890878    0.000000    0.000000    0.000000    0.000000
  0.043750000  -56.160358  -98.326645  -39.605309   -0.997911    0.000000    0.000000    0.000000    0.000000
  0.044000000  -55.984556  -97.137581  -39.623849   -1.085613    0.000000    0.000000    0.000000    0.000000
  0.044250000  -56.213294  -98.796043  -39.578131   -0.895434    0.000000    0.000000    0.000000    0.000000
  0.044500000  -56.010146  -96.998016  -39.602302   -0.618944    0.000000    0.000000    0.000000    0.000000
  0.044750000  -56.132581  -99.299629  -39.583245   -0.055462    0.000000    0.000000    0.000000    0.000000
  0.045000000  -56.209094  -97.213509  -39.572538    0.164861    0.000000    0.000000    0.000000    0.000000
  0.045250000  -55.866288  -96.472939  -39.541054    0.552005    0.000000    0.000000    0.000000    0.000000
  0.045500000  -55.585108  -94.875404  -39.570350   -0.238335    0.000000    0.000000    0.000000    0.000000
  0.045750000  -55.431502  -96.942261  -39.561406   -0.368023    0.000000    0.000000    0.000000    0.000000
  0.046000000  -55.524473  -95.867516  -39.641296   -0.801196    0.000000    0.000000    0.000000    0.000000
  0.046250000  -55.543085 -100.235947  -39.627775   -1.108751    0.000000    0.000000    0.000000    0.000000
  0.046500000  -55.269682  -96.503990  -39.609568   -0.956446    0.000000    0.000000    0.000000    0.000000
  0.046750000  -55.252216  -96.831825  -39.641327   -0.745930    0.000000    0.000000    0.000000    0.000000
  0.047000000  -55.219237  -97.810577  -39.645109   -0.168824    0.000000    0.000000    0.000000    0.000000
  0.047250000  -55.028767  -95.359909  -39.625373    0.389115    0.000000    0.000000    0.000000    0.000000
  0.047500000  -55.064446  -94.455467  -39.625965    0.455065    0.000000    0.000000    0.000000    0.000000
  0.047750000  -54.713424  -94.684387  -39.613700    0.897552    0.000000    0.000000    0.000000    0.000000
  0.048000000  -54.719573  -96.604591  -39.666752    0.276361    0.000000    0.000000    0.000000    0.000000
  0.048250000  -54.511792  -95.709984  -39.601168   -0.219963    0.000000    0.000000    0.000000    0.000000
  0.048500000  -54.525973  -95.899017  -39.639183   -0.186153    0.000000    0.000000    0.000000    0.000000
  0.048750000  -54.666838  -94.623627  -39.614237   -0.579740    0.000000    0.000000    0.000000    0.000000
  0.049000000  -54.564841  -96.263260  -39.636998   -0.603012    0.000000    0.000000    0.000000    0.000000
  0.049250000  -54.720610  -97.897942  -39.665329   -0.278365    0.000000    0.000000    0.000000    0.000000
  0.049500000  -54.555870  -96.382965  -39.663226    0.160907    0.000000    0.000000    0.000000    0.000000
  0.049750000  -54.635234  -98.112541  -39.691821    0.487051    0.000000    0.000000    0.000000    0.000000
  0.050000000  -54.593025  -97.761604  -39.730317    0.184956    0.000000    0.000000    0.000000    0.000000
  0.050250000  -54.238739  -96.585373  -39.668045    0.214954    0.000000    0.000000    0.000000    0.000000
  0.050500000  -54.079382  -95.048622  -39.669755    0.135094    0.000000    0.000000    0.000000    0.000000
  0.050750000  -54.865945  -95.612572  -39.632727   -0.258901    0.000000    0.000000    0.000000    0.000000
  0.051000000  -54.465202  -95.903702  -39.580434   -0.010761    0.000000    0.000000    0.000000    0.000000
