! Anritsu VNA Master:                 Model: MS2034B/10/19/501
! SN:                                  1337062
! /bd0/ovro-jan-2016/y1-s22.s2p
! Existing Calibration Information:
! TYPE:                         Current Settings,       Active Cal Settings
! TIME:             	   01/08/2016 01:45:44 PM,    01/08/2016 01:28:30 PM
! INTERNAL TEMP:    	                   47.3 C,                    48.5 C
! # POINTS:         	                      401,                       401
! START FREQ:       	               10.000 MHz,                10.000 MHz
! STOP FREQ:        	              110.000 MHz,               110.000 MHz
! SOURCE POWER:     	                      Low,                       Low
! IFBW:             	                   100 Hz,                    100 Hz
! AVG FACTOR:       	                       1 ,                        1 
! REF PLANE 1:      	                     0 mm,                      0 mm
! REF PLANE 2:      	                     0 mm,                      0 mm
! CAL TYPE:         	                 Full S11,                  Full S11
! CAL METHOD:       	                     SOLT,                      SOLT
! CAL LINE TYPE:    	                     Coax,                      Coax
! DUT PORT 1:       	                K-Conn(M),                 K-Conn(M)
! DUT PORT 2:       	                N-Conn(M),                 N-Conn(M)
! CAL STATUS:       	        OK: Accuracy High,                        --
# GHZ S DB R 50.0
! FREQ.GHZ       S11DB        S11A       S21DB        S21A       S12DB        S12A       S22DB        S22A
  0.010000000  -22.447507  105.971657  -65.969159  170.084503    0.000000    0.000000    0.000000    0.000000
  0.010250000  -22.587850  106.311958  -66.414142  174.587646    0.000000    0.000000    0.000000    0.000000
  0.010500000  -22.985829  108.368126  -67.989562  174.848648    0.000000    0.000000    0.000000    0.000000
  0.010750000  -23.223273  110.028374  -68.273598  165.974991    0.000000    0.000000    0.000000    0.000000
  0.011000000  -23.191945  111.729515  -66.481300  167.380951    0.000000    0.000000    0.000000    0.000000
  0.011250000  -23.649153  112.360954  -67.113107 -176.096848    0.000000    0.000000    0.000000    0.000000
  0.011500000  -23.762711  113.735344  -67.858211  170.644699    0.000000    0.000000    0.000000    0.000000
  0.011750000  -23.710227  115.275139  -65.612163 -178.365921    0.000000    0.000000    0.000000    0.000000
  0.012000000  -23.866750  116.460022  -66.286753  158.456512    0.000000    0.000000    0.000000    0.000000
  0.012250000  -23.915750  117.680374  -64.055085  168.722183    0.000000    0.000000    0.000000    0.000000
  0.012500000  -23.848030  118.952652  -68.235441  157.583496    0.000000    0.000000    0.000000    0.000000
  0.012750000  -23.815038  119.655731  -65.261514  163.940796    0.000000    0.000000    0.000000    0.000000
  0.013000000  -24.030088  119.769852  -66.296337  162.590637    0.000000    0.000000    0.000000    0.000000
  0.013250000  -23.833185  119.843864  -64.761904  146.195801    0.000000    0.000000    0.000000    0.000000
  0.013500000  -23.861145  119.246185  -64.255013  171.136932    0.000000    0.000000    0.000000    0.000000
  0.013750000  -24.115401  122.896866  -63.714155  163.082306    0.000000    0.000000    0.000000    0.000000
  0.014000000  -23.906645  124.088524  -64.355314 -179.564072    0.000000    0.000000    0.000000    0.000000
  0.014250000  -23.864400  123.164650  -63.740618  162.861343    0.000000    0.000000    0.000000    0.000000
  0.014500000  -23.906098  124.805153  -65.530985  153.203949    0.000000    0.000000    0.000000    0.000000
  0.014750000  -23.696027  125.376305  -62.714094  156.686996    0.000000    0.000000    0.000000    0.000000
  0.015000000  -23.759718  125.074699  -64.458932  148.672379    0.000000    0.000000    0.000000    0.000000
  0.015250000  -23.715092  125.453011  -67.440200  164.035690    0.000000    0.000000    0.000000    0.000000
  0.015500000  -23.809270  125.055542  -67.662369  152.631897    0.000000    0.000000    0.000000    0.000000
  0.015750000  -23.815209  124.344727  -67.631806  153.471832    0.000000    0.000000    0.000000    0.000000
  0.016000000  -23.558289  124.247139  -63.788197  142.787964    0.000000    0.000000    0.000000    0.000000
  0.016250000  -23.614509  124.219124  -65.381093  157.730377    0.000000    0.000000    0.000000    0.000000
  0.016500000  -23.376667  124.547638  -66.447400 -178.033859    0.000000    0.000000    0.000000    0.000000
  0.016750000  -23.536350  125.272812  -64.122901  152.805191    0.000000    0.000000    0.000000    0.000000
  0.017000000  -23.494132  125.534042  -64.146848  150.818329    0.000000    0.000000    0.000000    0.000000
  0.017250000  -23.485425  124.074280  -63.676041  156.229340    0.000000    0.000000    0.000000    0.000000
  0.017500000  -23.380899  123.820564  -67.036815  157.855988    0.000000    0.000000    0.000000    0.000000
  0.017750000  -23.295490  122.055290  -63.295935  146.659897    0.000000    0.000000    0.000000    0.000000
  0.018000000  -23.265506  121.765228  -63.993415  154.869507    0.000000    0.000000    0.000000    0.000000
  0.018250000  -23.371509  122.437057  -65.939803  138.397034    0.000000    0.000000    0.000000    0.000000
  0.018500000  -23.227430  121.379265  -63.327368  149.132996    0.000000    0.000000    0.000000    0.000000
  0.018750000  -23.417178  121.192734  -65.741485  153.597229    0.000000    0.000000    0.000000    0.000000
  0.019000000  -23.312820  118.826714  -64.101331  148.896835    0.000000    0.000000    0.000000    0.000000
  0.019250000  -23.432532  117.910034  -65.689446  146.238892    0.000000    0.000000    0.000000    0.000000
  0.019500000  -23.335948  118.252884  -64.253357  161.787476    0.000000    0.000000    0.000000    0.000000
  0.019750000  -23.348801  115.559845  -64.991089  139.452911    0.000000    0.000000    0.000000    0.000000
  0.020000000  -23.388454  115.007271  -63.382037  149.332153    0.000000    0.000000    0.000000    0.000000
  0.020250000  -23.554325  115.252472  -64.117508  161.645477    0.000000    0.000000    0.000000    0.000000
  0.020500000  -23.571302  113.173752  -64.337532  157.241730    0.000000    0.000000    0.000000    0.000000
  0.020750000  -23.529326  111.981155  -63.939442  156.308502    0.000000    0.000000    0.000000    0.000000
  0.021000000  -23.564522  110.928558  -65.972263  146.415726    0.000000    0.000000    0.000000    0.000000
  0.021250000  -23.752157  110.942177  -64.572568  162.076401    0.000000    0.000000    0.000000    0.000000
  0.021500000  -23.525811  109.493912  -65.228718  146.814255    0.000000    0.000000    0.000000    0.000000
  0.021750000  -23.852448  108.197998  -63.289938  148.519150    0.000000    0.000000    0.000000    0.000000
  0.022000000  -23.923084  106.779236  -63.667577  141.184372    0.000000    0.000000    0.000000    0.000000
  0.022250000  -24.022474  105.035179  -63.699146  155.399948    0.000000    0.000000    0.000000    0.000000
  0.022500000  -24.061688  104.849411  -64.407954  139.856888    0.000000    0.000000    0.000000    0.000000
  0.022750000  -24.333162  103.483757  -63.394914  159.611542    0.000000    0.000000    0.000000    0.000000
  0.023000000  -24.566630  101.600471  -66.779314  149.794586    0.000000    0.000000    0.000000    0.000000
  0.023250000  -24.496448  100.544380  -63.630008  150.819839    0.000000    0.000000    0.000000    0.000000
  0.023500000  -24.851702   98.880943  -63.419038  159.847794    0.000000    0.000000    0.000000    0.000000
  0.023750000  -24.994638   97.314178  -65.495544  168.628510    0.000000    0.000000    0.000000    0.000000
  0.024000000  -25.135580   94.465714  -64.349239  140.308685    0.000000    0.000000    0.000000    0.000000
  0.024250000  -25.450206   93.497749  -65.276205  162.634338    0.000000    0.000000    0.000000    0.000000
  0.024500000  -25.639957   92.750435  -63.838126  160.475494    0.000000    0.000000    0.000000    0.000000
  0.024750000  -26.123713   90.615082  -62.890819  147.367569    0.000000    0.000000    0.000000    0.000000
  0.025000000  -26.482632   88.709152  -66.911323  169.636230    0.000000    0.000000    0.000000    0.000000
  0.025250000  -27.042938   87.162689  -64.289865  158.153244    0.000000    0.000000    0.000000    0.000000
  0.025500000  -27.168415   88.375633  -65.849282 -171.637741    0.000000    0.000000    0.000000    0.000000
  0.025750000  -27.858514   84.999451  -64.897788  167.712860    0.000000    0.000000    0.000000    0.000000
  0.026000000  -27.613550   83.159790  -67.828854  164.521606    0.000000    0.000000    0.000000    0.000000
  0.026250000  -28.924955   81.851524  -69.693582 -158.506851    0.000000    0.000000    0.000000    0.000000
  0.026500000  -29.330809   86.538528  -67.383898 -179.071991    0.000000    0.000000    0.000000    0.000000
  0.026750000  -30.093119   83.314011  -63.785608  166.640442    0.000000    0.000000    0.000000    0.000000
  0.027000000  -31.076629   85.165787  -64.373154  175.677994    0.000000    0.000000    0.000000    0.000000
  0.027250000  -32.161619   92.826546  -67.250923  159.593628    0.000000    0.000000    0.000000    0.000000
  0.027500000  -32.063192   95.427101  -64.979735  159.301834    0.000000    0.000000    0.000000    0.000000
  0.027750000  -32.928821  101.052063  -66.797246  157.659897    0.000000    0.000000    0.000000    0.000000
  0.028000000  -33.111677  104.264534  -66.217006 -179.697449    0.000000    0.000000    0.000000    0.000000
  0.028250000  -33.067533  107.319847  -64.998252  163.742584    0.000000    0.000000    0.000000    0.000000
  0.028500000  -33.342889  118.287933  -65.605230  157.907135    0.000000    0.000000    0.000000    0.000000
  0.028750000  -31.496716  118.435646  -64.646073  154.113525    0.000000    0.000000    0.000000    0.000000
  0.029000000  -31.703465  119.079185  -64.046150  161.891251    0.000000    0.000000    0.000000    0.000000
  0.029250000  -30.693153  122.698273  -65.659604  179.025116    0.000000    0.000000    0.000000    0.000000
  0.029500000  -31.228565  120.144150  -67.791479  146.937836    0.000000    0.000000    0.000000    0.000000
  0.029750000  -30.515078  116.366440  -66.740865  158.518311    0.000000    0.000000    0.000000    0.000000
  0.030000000  -30.593294  120.648064  -64.854130  157.686539    0.000000    0.000000    0.000000    0.000000
  0.030250000  -30.167001  120.896667  -67.299950  162.938309    0.000000    0.000000    0.000000    0.000000
  0.030500000  -30.305220  117.378235  -66.183841  170.899323    0.000000    0.000000    0.000000    0.000000
  0.030750000  -29.971984  116.202324  -64.045765  156.612198    0.000000    0.000000    0.000000    0.000000
  0.031000000  -30.062297  112.795959  -66.848845  156.926727    0.000000    0.000000    0.000000    0.000000
  0.031250000  -30.445326  115.468391  -67.152240  135.403091    0.000000    0.000000    0.000000    0.000000
  0.031500000  -30.715115  114.704613  -66.339287  164.068710    0.000000    0.000000    0.000000    0.000000
  0.031750000  -30.790275  114.038773  -64.674889  166.983856    0.000000    0.000000    0.000000    0.000000
  0.032000000  -30.801118  112.392532  -64.279480  149.382507    0.000000    0.000000    0.000000    0.000000
  0.032250000  -30.915853  107.139969  -65.299794  157.961212    0.000000    0.000000    0.000000    0.000000
  0.032500000  -30.465513  113.092384  -64.068242  162.197723    0.000000    0.000000    0.000000    0.000000
  0.032750000  -30.642299  111.505722  -63.578761  166.289185    0.000000    0.000000    0.000000    0.000000
  0.033000000  -31.042678  113.502464  -62.956791  160.000702    0.000000    0.000000    0.000000    0.000000
  0.033250000  -30.960717  111.364273  -64.084927  156.722961    0.000000    0.000000    0.000000    0.000000
  0.033500000  -31.805101  111.550301  -65.756584  156.453903    0.000000    0.000000    0.000000    0.000000
  0.033750000  -31.557014  108.010101  -65.353484  161.046616    0.000000    0.000000    0.000000    0.000000
  0.034000000  -32.079332  112.481422  -65.831837  149.102982    0.000000    0.000000    0.000000    0.000000
  0.034250000  -31.551095  109.133896  -66.007178  165.463318    0.000000    0.000000    0.000000    0.000000
  0.034500000  -31.808318  113.011826  -63.146373  165.430573    0.000000    0.000000    0.000000    0.000000
  0.034750000  -32.595265  110.961082  -62.839725  140.565887    0.000000    0.000000    0.000000    0.000000
  0.035000000  -32.195838  112.380341  -64.597534  152.551636    0.000000    0.000000    0.000000    0.000000
  0.035250000  -32.527590  115.863487  -64.681222  170.037186    0.000000    0.000000    0.000000    0.000000
  0.035500000  -32.314636  110.325142  -64.030421  168.831497    0.000000    0.000000    0.000000    0.000000
  0.035750000  -33.237764  115.931313  -64.904377  139.149918    0.000000    0.000000    0.000000    0.000000
  0.036000000  -33.269762  115.308319  -65.332942  153.937057    0.000000    0.000000    0.000000    0.000000
  0.036250000  -33.242532  117.234306  -63.205900  147.706329    0.000000    0.000000    0.000000    0.000000
  0.036500000  -33.278645  117.834480  -66.297196  150.545380    0.000000    0.000000    0.000000    0.000000
  0.036750000  -33.099259  118.886665  -65.220608  146.221848    0.000000    0.000000    0.000000    0.000000
  0.037000000  -33.201680  117.704826  -64.961307  143.696198    0.000000    0.000000    0.000000    0.000000
  0.037250000  -33.448572  117.364304  -65.852864  156.111526    0.000000    0.000000    0.000000    0.000000
  0.037500000  -33.255048  121.468155  -64.406772  149.870026    0.000000    0.000000    0.000000    0.000000
  0.037750000  -33.705958  121.289963  -63.243073  152.561890    0.000000    0.000000    0.000000    0.000000
  0.038000000  -33.842560  124.294579  -62.662608  147.123428    0.000000    0.000000    0.000000    0.000000
  0.038250000  -34.039719  126.087585  -65.418712  157.530197    0.000000    0.000000    0.000000    0.000000
  0.038500000  -33.388480  123.639511  -64.190644  149.145447    0.000000    0.000000    0.000000    0.000000
  0.038750000  -33.590372  122.235909  -63.708606  155.860336    0.000000    0.000000    0.000000    0.000000
  0.039000000  -33.588568  127.154610  -64.004852  155.052048    0.000000    0.000000    0.000000    0.000000
  0.039250000  -33.674865  126.553513  -64.875424  152.789078    0.000000    0.000000    0.000000    0.000000
  0.039500000  -33.925995  128.111832  -64.823889  146.710739    0.000000    0.000000    0.000000    0.000000
  0.039750000  -33.839954  128.051163  -64.227606  147.620285    0.000000    0.000000    0.000000    0.000000
  0.040000000  -33.660920  128.167053  -64.875025  146.703186    0.000000    0.000000    0.000000    0.000000
  0.040250000  -33.776069  123.476860  -65.455054  159.695114    0.000000    0.000000    0.000000    0.000000
  0.040500000  -33.457578  124.269730  -65.276000  163.972687    0.000000    0.000000    0.000000    0.000000
  0.040750000  -33.271379  126.357887  -63.519777  158.852142    0.000000    0.000000    0.000000    0.000000
  0.041000000  -33.773316  129.910873  -65.091118  162.090759    0.000000    0.000000    0.000000    0.000000
  0.041250000  -33.072221  130.074600  -64.145937  165.526138    0.000000    0.000000    0.000000    0.000000
  0.041500000  -34.261178  127.426956  -65.163354  148.221985    0.000000    0.000000    0.000000    0.000000
  0.041750000  -33.838919  128.996628  -66.349448  155.575867    0.000000    0.000000    0.000000    0.000000
  0.042000000  -33.450324  127.137672  -65.675472  176.386948    0.000000    0.000000    0.000000    0.000000
  0.042250000  -33.944119  128.469131  -65.144523  160.080933    0.000000    0.000000    0.000000    0.000000
  0.042500000  -33.283788  129.653748  -64.946608  157.325455    0.000000    0.000000    0.000000    0.000000
  0.042750000  -33.574469  128.178375  -62.012772  154.040649    0.000000    0.000000    0.000000    0.000000
  0.043000000  -33.728924  129.970673  -64.051876  157.657730    0.000000    0.000000    0.000000    0.000000
  0.043250000  -33.557089  127.362129  -62.501764  146.790604    0.000000    0.000000    0.000000    0.000000
  0.043500000  -33.953501  130.689774  -64.603043  155.067413    0.000000    0.000000    0.000000    0.000000
  0.043750000  -33.508471  128.005661  -64.428775  155.358795    0.000000    0.000000    0.000000    0.000000
  0.044000000  -33.141527  128.421173  -66.124007  154.874069    0.000000    0.000000    0.000000    0.000000
  0.044250000  -33.641073  127.281776  -64.312353  155.050400    0.000000    0.000000    0.000000    0.000000
  0.044500000  -33.123097  129.816177  -65.999916  150.315643    0.000000    0.000000    0.000000    0.000000
  0.044750000  -33.482184  127.570885  -65.401588  154.509079    0.000000    0.000000    0.000000    0.000000
  0.045000000  -34.195756  128.327942  -66.492296  160.758713    0.000000    0.000000    0.000000    0.000000
  0.045250000  -33.341239  125.228798  -62.489374  151.045181    0.000000    0.000000    0.000000    0.000000
  0.045500000  -34.442462  130.703247  -64.429794  154.142822    0.000000    0.000000    0.000000    0.000000
  0.045750000  -33.906064  127.760544  -65.276864  161.875244    0.000000    0.000000    0.000000    0.000000
  0.046000000  -34.132490  123.881325  -64.723659  149.401215    0.000000    0.000000    0.000000    0.000000
  0.046250000  -34.214506  125.214127  -64.053665  152.824951    0.000000    0.000000    0.000000    0.000000
  0.046500000  -34.082913  124.442947  -65.937040  166.505493    0.000000    0.000000    0.000000    0.000000
  0.046750000  -34.195877  125.427231  -65.465403  144.443542    0.000000    0.000000    0.000000    0.000000
  0.047000000  -34.006231  123.230270  -63.181974  172.376114    0.000000    0.000000    0.000000    0.000000
  0.047250000  -33.875489  124.732658  -67.055107  167.637711    0.000000    0.000000    0.000000    0.000000
  0.047500000  -34.233439  123.167191  -65.316413  172.687729    0.000000    0.000000    0.000000    0.000000
  0.047750000  -34.703489  124.666183  -62.747593  155.704391    0.000000    0.000000    0.000000    0.000000
  0.048000000  -34.520502  124.018761  -63.432819  145.878723    0.000000    0.000000    0.000000    0.000000
  0.048250000  -35.170572  120.635788  -64.782507  154.480911    0.000000    0.000000    0.000000    0.000000
  0.048500000  -34.634252  122.595177  -64.378619  153.996597    0.000000    0.000000    0.000000    0.000000
  0.048750000  -35.474831  127.986435  -64.547155  150.043060    0.000000    0.000000    0.000000    0.000000
  0.049000000  -34.841345  128.021301  -65.669925  158.729095    0.000000    0.000000    0.000000    0.000000
  0.049250000  -34.875247  122.632874  -66.085525  145.414398    0.000000    0.000000    0.000000    0.000000
  0.049500000  -35.422528  123.345444  -63.436473  149.297241    0.000000    0.000000    0.000000    0.000000
  0.049750000  -35.473880  123.706406  -63.626804  155.297928    0.000000    0.000000    0.000000    0.000000
  0.050000000  -35.625453  127.122757  -66.431707  170.520477    0.000000    0.000000    0.000000    0.000000
  0.050250000  -37.481397  126.201172  -64.738247  179.461121    0.000000    0.000000    0.000000    0.000000
  0.050500000  -36.572626  121.256592  -68.056091  172.815506    0.000000    0.000000    0.000000    0.000000
  0.050750000  -35.449671  119.235527  -65.752787  167.428574    0.000000    0.000000    0.000000    0.000000
  0.051000000  -36.618099  123.971802  -65.288499  173.203033    0.000000    0.000000    0.000000    0.000000
