! Anritsu VNA Master:                 Model: MS2034B/10/19/501
! SN:                                  1337062
! /bd0/ovro-jan-2016/y2-s11.s2p
! Existing Calibration Information:
! TYPE:                         Current Settings,       Active Cal Settings
! TIME:             	   01/08/2016 02:18:10 PM,    01/08/2016 02:08:01 PM
! INTERNAL TEMP:    	                   46.5 C,                    46.8 C
! # POINTS:         	                      401,                       401
! START FREQ:       	               10.000 MHz,                10.000 MHz
! STOP FREQ:        	              110.000 MHz,               110.000 MHz
! SOURCE POWER:     	                      Low,                       Low
! IFBW:             	                   100 Hz,                    100 Hz
! AVG FACTOR:       	                       1 ,                        1 
! REF PLANE 1:      	                     0 mm,                      0 mm
! REF PLANE 2:      	                     0 mm,                      0 mm
! CAL TYPE:         	                 Full S11,                  Full S11
! CAL METHOD:       	                     SOLT,                      SOLT
! CAL LINE TYPE:    	                     Coax,                      Coax
! DUT PORT 1:       	                K-Conn(M),                 K-Conn(M)
! DUT PORT 2:       	                N-Conn(M),                 N-Conn(M)
! CAL STATUS:       	        OK: Accuracy High,                        --
# GHZ S DB R 50.0
! FREQ.GHZ       S11DB        S11A       S21DB        S21A       S12DB        S12A       S22DB        S22A
  0.010000000  -18.909636  148.612793  -64.742828   42.907585    0.000000    0.000000    0.000000    0.000000
  0.010250000  -19.061009  145.834488  -50.769101   95.343819    0.000000    0.000000    0.000000    0.000000
  0.010500000  -18.932729  143.070053  -44.037801   98.239944    0.000000    0.000000    0.000000    0.000000
  0.010750000  -18.871317  139.692047  -41.016185   96.973984    0.000000    0.000000    0.000000    0.000000
  0.011000000  -19.022565  136.829468  -38.661190   90.669754    0.000000    0.000000    0.000000    0.000000
  0.011250000  -19.100074  134.237808  -36.662591   88.392319    0.000000    0.000000    0.000000    0.000000
  0.011500000  -19.023924  131.360077  -35.263033   83.823257    0.000000    0.000000    0.000000    0.000000
  0.011750000  -19.014525  128.842728  -33.868257   80.388550    0.000000    0.000000    0.000000    0.000000
  0.012000000  -18.899229  125.323509  -32.898567   76.895180    0.000000    0.000000    0.000000    0.000000
  0.012250000  -18.782734  123.102707  -32.188432   72.838242    0.000000    0.000000    0.000000    0.000000
  0.012500000  -18.824757  120.443939  -31.279932   68.976563    0.000000    0.000000    0.000000    0.000000
  0.012750000  -18.844835  117.259087  -30.935577   64.502411    0.000000    0.000000    0.000000    0.000000
  0.013000000  -18.829233  114.916252  -30.729360   60.653206    0.000000    0.000000    0.000000    0.000000
  0.013250000  -18.769291  112.079491  -30.383234   56.009789    0.000000    0.000000    0.000000    0.000000
  0.013500000  -18.773687  109.507584  -30.370122   51.733776    0.000000    0.000000    0.000000    0.000000
  0.013750000  -18.822094  106.782242  -30.428777   47.115189    0.000000    0.000000    0.000000    0.000000
  0.014000000  -18.566450  104.812256  -30.667722   42.890724    0.000000    0.000000    0.000000    0.000000
  0.014250000  -18.694670  101.542175  -31.104054   38.421387    0.000000    0.000000    0.000000    0.000000
  0.014500000  -18.540795   99.688911  -31.602154   35.599735    0.000000    0.000000    0.000000    0.000000
  0.014750000  -18.596131   96.528000  -32.579902   30.985378    0.000000    0.000000    0.000000    0.000000
  0.015000000  -18.542832   94.065399  -34.076798   27.432787    0.000000    0.000000    0.000000    0.000000
  0.015250000  -18.363403   92.225693  -36.044580   24.865326    0.000000    0.000000    0.000000    0.000000
  0.015500000  -18.444877   89.342323  -38.635271   24.023193    0.000000    0.000000    0.000000    0.000000
  0.015750000  -18.352666   86.454201  -43.523003   25.953644    0.000000    0.000000    0.000000    0.000000
  0.016000000  -18.219686   83.511093  -55.938203   59.433548    0.000000    0.000000    0.000000    0.000000
  0.016250000  -18.101767   81.073158  -44.767165  168.903290    0.000000    0.000000    0.000000    0.000000
  0.016500000  -17.959526   78.627037  -38.449119  168.585632    0.000000    0.000000    0.000000    0.000000
  0.016750000  -18.027650   75.598450  -34.399345  167.677124    0.000000    0.000000    0.000000    0.000000
  0.017000000  -17.937626   73.436180  -31.806202  163.870255    0.000000    0.000000    0.000000    0.000000
  0.017250000  -17.818436   70.618813  -29.809492  160.509750    0.000000    0.000000    0.000000    0.000000
  0.017500000  -17.807141   68.619942  -28.140743  156.097504    0.000000    0.000000    0.000000    0.000000
  0.017750000  -17.608523   65.636093  -26.894108  151.522537    0.000000    0.000000    0.000000    0.000000
  0.018000000  -17.573024   62.212818  -25.932112  147.529404    0.000000    0.000000    0.000000    0.000000
  0.018250000  -17.532296   59.754448  -25.358548  143.217316    0.000000    0.000000    0.000000    0.000000
  0.018500000  -17.484930   57.376984  -25.116985  139.468018    0.000000    0.000000    0.000000    0.000000
  0.018750000  -17.212095   53.718071  -25.311317  136.697388    0.000000    0.000000    0.000000    0.000000
  0.019000000  -17.159689   51.927074  -26.063801  132.986252    0.000000    0.000000    0.000000    0.000000
  0.019250000  -17.156420   49.175354  -27.662002  132.207657    0.000000    0.000000    0.000000    0.000000
  0.019500000  -17.024700   46.114948  -30.834874  136.558853    0.000000    0.000000    0.000000    0.000000
  0.019750000  -16.964357   42.998367  -37.541606  173.512283    0.000000    0.000000    0.000000    0.000000
  0.020000000  -16.803334   40.565857  -31.295454 -106.478241    0.000000    0.000000    0.000000    0.000000
  0.020250000  -16.792447   37.421345  -23.848470  -95.937408    0.000000    0.000000    0.000000    0.000000
  0.020500000  -16.652621   34.275013  -18.834500  -95.882629    0.000000    0.000000    0.000000    0.000000
  0.020750000  -16.454505   32.044075  -14.997730  -98.523148    0.000000    0.000000    0.000000    0.000000
  0.021000000  -16.333361   28.908884  -11.710393 -102.194603    0.000000    0.000000    0.000000    0.000000
  0.021250000  -16.333091   25.975117   -8.811745 -106.435341    0.000000    0.000000    0.000000    0.000000
  0.021500000  -16.173687   23.202930   -6.316570 -111.229515    0.000000    0.000000    0.000000    0.000000
  0.021750000  -16.179831   19.869579   -3.977716 -116.199196    0.000000    0.000000    0.000000    0.000000
  0.022000000  -16.044467   17.029991   -1.672400 -121.322258    0.000000    0.000000    0.000000    0.000000
  0.022250000  -15.861702   13.670646    0.389776 -126.801865    0.000000    0.000000    0.000000    0.000000
  0.022500000  -15.803263   10.471627    2.314109 -132.529831    0.000000    0.000000    0.000000    0.000000
  0.022750000  -15.727987    6.896533    4.175765 -138.274902    0.000000    0.000000    0.000000    0.000000
  0.023000000  -15.671840    3.794056    5.977471 -144.182632    0.000000    0.000000    0.000000    0.000000
  0.023250000  -15.541962    0.226710    7.754458 -150.276947    0.000000    0.000000    0.000000    0.000000
  0.023500000  -15.502206   -4.110722    9.456293 -156.527420    0.000000    0.000000    0.000000    0.000000
  0.023750000  -15.215585   -6.881248    9.281676   17.806692    0.000000    0.000000    0.000000    0.000000
  0.024000000  -15.066632  -10.437459   10.968123   11.129692    0.000000    0.000000    0.000000    0.000000
  0.024250000  -14.920390  -14.432138   12.682922    4.365496    0.000000    0.000000    0.000000    0.000000
  0.024500000  -14.783080  -18.755802   14.276185   -2.740021    0.000000    0.000000    0.000000    0.000000
  0.024750000  -14.694856  -23.225325   15.794885   -9.978610    0.000000    0.000000    0.000000    0.000000
  0.025000000  -14.681876  -28.075336   14.234185  -23.404482    0.000000    0.000000    0.000000    0.000000
  0.025250000  -14.631849  -31.806568   15.735171  -31.238016    0.000000    0.000000    0.000000    0.000000
  0.025500000  -14.448742  -37.730576   17.205855  -39.316311    0.000000    0.000000    0.000000    0.000000
  0.025750000  -14.558226  -43.010769   18.629489  -47.719734    0.000000    0.000000    0.000000    0.000000
  0.026000000  -14.503893  -48.788425   20.087642  -56.561764    0.000000    0.000000    0.000000    0.000000
  0.026250000  -14.619901  -54.466839   21.421705  -65.787071    0.000000    0.000000    0.000000    0.000000
  0.026500000  -14.733752  -60.031727   22.710428  -75.650681    0.000000    0.000000    0.000000    0.000000
  0.026750000  -14.979377  -66.821648   23.959097  -85.839310    0.000000    0.000000    0.000000    0.000000
  0.027000000  -15.320501  -73.501015   25.102917  -96.496559    0.000000    0.000000    0.000000    0.000000
  0.027250000  -15.643602  -81.074211   26.180429 -107.438866    0.000000    0.000000    0.000000    0.000000
  0.027500000  -16.220741  -88.041565   27.149206 -118.608147    0.000000    0.000000    0.000000    0.000000
  0.027750000  -16.862140  -95.243538   27.999202 -129.920792    0.000000    0.000000    0.000000    0.000000
  0.028000000  -17.713282 -101.801781   28.718152 -141.192841    0.000000    0.000000    0.000000    0.000000
  0.028250000  -18.728436 -107.839615   29.321233 -152.447311    0.000000    0.000000    0.000000    0.000000
  0.028500000  -19.924344 -113.950714   29.795206 -163.522125    0.000000    0.000000    0.000000    0.000000
  0.028750000  -21.151413 -117.957466   30.200959 -174.137878    0.000000    0.000000    0.000000    0.000000
  0.029000000  -22.617711 -121.112083   30.516990  175.395248    0.000000    0.000000    0.000000    0.000000
  0.029250000  -24.090957 -123.507713   30.791031  165.539658    0.000000    0.000000    0.000000    0.000000
  0.029500000  -25.558017 -120.434509   30.978368  156.075760    0.000000    0.000000    0.000000    0.000000
  0.029750000  -27.391805 -121.940033   31.169239  147.021408    0.000000    0.000000    0.000000    0.000000
  0.030000000  -28.412289 -115.848396   31.288315  138.391129    0.000000    0.000000    0.000000    0.000000
  0.030250000  -29.673234 -110.265648   31.440932  130.059875    0.000000    0.000000    0.000000    0.000000
  0.030500000  -30.427703 -103.304504   31.560741  121.877785    0.000000    0.000000    0.000000    0.000000
  0.030750000  -31.111852  -95.222954   31.648580  114.108932    0.000000    0.000000    0.000000    0.000000
  0.031000000  -31.219884  -89.838409   31.774891  106.688972    0.000000    0.000000    0.000000    0.000000
  0.031250000  -30.451132  -83.208580   31.840260   99.429840    0.000000    0.000000    0.000000    0.000000
  0.031500000  -30.326060  -80.182877   31.932869   92.483879    0.000000    0.000000    0.000000    0.000000
  0.031750000  -30.286294  -76.279213   31.988837   85.616791    0.000000    0.000000    0.000000    0.000000
  0.032000000  -29.663809  -75.280708   32.103016   79.005020    0.000000    0.000000    0.000000    0.000000
  0.032250000  -29.531425  -74.072647   32.221581   72.487404    0.000000    0.000000    0.000000    0.000000
  0.032500000  -29.635567  -71.141281   32.297300   66.010674    0.000000    0.000000    0.000000    0.000000
  0.032750000  -29.270025  -74.954491   32.383911   59.852333    0.000000    0.000000    0.000000    0.000000
  0.033000000  -29.376087  -72.426483   32.499616   53.825478    0.000000    0.000000    0.000000    0.000000
  0.033250000  -28.763469  -71.745888   32.539694   47.747154    0.000000    0.000000    0.000000    0.000000
  0.033500000  -28.842077  -73.873138   32.546541   41.930931    0.000000    0.000000    0.000000    0.000000
  0.033750000  -29.278540  -74.144844   32.594284   36.084072    0.000000    0.000000    0.000000    0.000000
  0.034000000  -29.239883  -72.967644   32.602918   30.277534    0.000000    0.000000    0.000000    0.000000
  0.034250000  -29.053060  -75.260742   32.623296   24.566889    0.000000    0.000000    0.000000    0.000000
  0.034500000  -29.399110  -75.258347   32.677208   18.955833    0.000000    0.000000    0.000000    0.000000
  0.034750000  -29.245553  -75.915489   32.750976   13.435925    0.000000    0.000000    0.000000    0.000000
  0.035000000  -28.774524  -77.820358   32.788576    8.040070    0.000000    0.000000    0.000000    0.000000
  0.035250000  -29.473331  -77.342583   32.843741    2.731977    0.000000    0.000000    0.000000    0.000000
  0.035500000  -29.204942  -78.981201   32.831371   -2.623630    0.000000    0.000000    0.000000    0.000000
  0.035750000  -29.569906  -77.798248   32.920136   -7.733266    0.000000    0.000000    0.000000    0.000000
  0.036000000  -29.998158  -74.683167   32.960026  -12.777393    0.000000    0.000000    0.000000    0.000000
  0.036250000  -29.658128  -78.777420   33.055500  -17.837837    0.000000    0.000000    0.000000    0.000000
  0.036500000  -29.630362  -76.759499   33.112642  -22.888721    0.000000    0.000000    0.000000    0.000000
  0.036750000  -29.970214  -77.301796   33.209664  -27.777338    0.000000    0.000000    0.000000    0.000000
  0.037000000  -29.697703  -76.384705   33.228604  -32.821083    0.000000    0.000000    0.000000    0.000000
  0.037250000  -29.485104  -78.137894   33.230283  -37.804268    0.000000    0.000000    0.000000    0.000000
  0.037500000  -29.809277  -74.836655   33.227961  -42.791656    0.000000    0.000000    0.000000    0.000000
  0.037750000  -29.972417  -74.784409   33.231134  -47.540337    0.000000    0.000000    0.000000    0.000000
  0.038000000  -29.524090  -78.375206   33.277564  -52.310371    0.000000    0.000000    0.000000    0.000000
  0.038250000  -29.622802  -79.242577   33.270714  -57.037216    0.000000    0.000000    0.000000    0.000000
  0.038500000  -29.719442  -74.903450   33.307674  -61.744724    0.000000    0.000000    0.000000    0.000000
  0.038750000  -30.038898  -74.605133   33.345398  -66.299187    0.000000    0.000000    0.000000    0.000000
  0.039000000  -30.238881  -77.128723   33.350614  -70.915848    0.000000    0.000000    0.000000    0.000000
  0.039250000  -29.984746  -77.301361   33.405408  -75.526100    0.000000    0.000000    0.000000    0.000000
  0.039500000  -29.678296  -75.288109   33.468506  -80.019211    0.000000    0.000000    0.000000    0.000000
  0.039750000  -29.807929  -76.472992   33.476497  -84.649910    0.000000    0.000000    0.000000    0.000000
  0.040000000  -30.094863  -77.370781   33.543957  -89.145645    0.000000    0.000000    0.000000    0.000000
  0.040250000  -29.758453  -77.495941   33.535945  -93.626511    0.000000    0.000000    0.000000    0.000000
  0.040500000  -29.816007  -77.625595   33.571044  -98.036728    0.000000    0.000000    0.000000    0.000000
  0.040750000  -29.574022  -74.895592   33.619397 -102.355911    0.000000    0.000000    0.000000    0.000000
  0.041000000  -29.776776  -77.024223   33.610070 -106.810516    0.000000    0.000000    0.000000    0.000000
  0.041250000  -29.921155  -76.474442   33.641002 -111.044510    0.000000    0.000000    0.000000    0.000000
  0.041500000  -29.687972  -78.264153   33.688014 -115.298103    0.000000    0.000000    0.000000    0.000000
  0.041750000  -29.890312  -80.747627   33.689378 -119.604538    0.000000    0.000000    0.000000    0.000000
  0.042000000  -29.514025  -81.181778   33.679967 -123.909195    0.000000    0.000000    0.000000    0.000000
  0.042250000  -29.641650  -78.439674   33.727098 -128.084076    0.000000    0.000000    0.000000    0.000000
  0.042500000  -29.650608  -81.435066   33.730626 -132.375443    0.000000    0.000000    0.000000    0.000000
  0.042750000  -29.194786  -81.474174   33.785389 -136.629547    0.000000    0.000000    0.000000    0.000000
  0.043000000  -29.994891  -83.954308   33.793772 -140.867599    0.000000    0.000000    0.000000    0.000000
  0.043250000  -30.045559  -82.627785   33.794073 -145.102249    0.000000    0.000000    0.000000    0.000000
  0.043500000  -29.791349  -82.658890   33.853176 -149.287109    0.000000    0.000000    0.000000    0.000000
  0.043750000  -29.826751  -84.999947   33.852177 -153.482071    0.000000    0.000000    0.000000    0.000000
  0.044000000  -30.168357  -84.363869   33.897910 -157.527786    0.000000    0.000000    0.000000    0.000000
  0.044250000  -29.823436  -81.281853   33.890821 -161.728317    0.000000    0.000000    0.000000    0.000000
  0.044500000  -30.150261  -86.244881   33.916665 -165.665421    0.000000    0.000000    0.000000    0.000000
  0.044750000  -29.797960  -84.240982   33.900469 -169.737991    0.000000    0.000000    0.000000    0.000000
  0.045000000  -29.891868  -85.833618   33.888154 -173.852768    0.000000    0.000000    0.000000    0.000000
  0.045250000  -29.990176  -86.505516   33.927657 -177.827530    0.000000    0.000000    0.000000    0.000000
  0.045500000  -29.889243  -85.967529   33.922721  178.125290    0.000000    0.000000    0.000000    0.000000
  0.045750000  -29.839468  -87.419662   33.974137  174.134521    0.000000    0.000000    0.000000    0.000000
  0.046000000  -30.718173  -88.362289   33.968791  170.098358    0.000000    0.000000    0.000000    0.000000
  0.046250000  -30.489118  -86.928108   34.017357  166.084366    0.000000    0.000000    0.000000    0.000000
  0.046500000  -30.267201  -89.173698   34.019696  162.088242    0.000000    0.000000    0.000000    0.000000
  0.046750000  -30.216127  -90.079071   34.021172  158.045166    0.000000    0.000000    0.000000    0.000000
  0.047000000  -30.472743  -90.718719   34.022924  154.043839    0.000000    0.000000    0.000000    0.000000
  0.047250000  -30.692882  -88.940773   34.018300  150.007919    0.000000    0.000000    0.000000    0.000000
  0.047500000  -30.942088  -96.228340   34.068727  146.032928    0.000000    0.000000    0.000000    0.000000
  0.047750000  -30.787137  -88.174683   34.067986  142.045654    0.000000    0.000000    0.000000    0.000000
  0.048000000  -30.623537  -90.861847   34.065984  138.069580    0.000000    0.000000    0.000000    0.000000
  0.048250000  -31.097449  -92.754356   34.108519  134.162216    0.000000    0.000000    0.000000    0.000000
  0.048500000  -31.059721  -93.271423   34.098644  130.288712    0.000000    0.000000    0.000000    0.000000
  0.048750000  -31.411974  -92.424889   34.151575  126.406609    0.000000    0.000000    0.000000    0.000000
  0.049000000  -31.284530  -91.884300   34.136596  122.579285    0.000000    0.000000    0.000000    0.000000
  0.049250000  -32.063656  -93.748558   34.130410  118.690536    0.000000    0.000000    0.000000    0.000000
  0.049500000  -31.355327  -92.243385   34.110085  114.836151    0.000000    0.000000    0.000000    0.000000
  0.049750000  -32.033604  -92.964035   34.097756  111.002632    0.000000    0.000000    0.000000    0.000000
  0.050000000  -32.775638  -90.346893   30.259514   99.724380    0.000000    0.000000    0.000000    0.000000
  0.050250000  -32.311867  -86.667755   30.298353   95.920364    0.000000    0.000000    0.000000    0.000000
  0.050500000  -33.046800  -95.317062   30.291097   91.913513    0.000000    0.000000    0.000000    0.000000
  0.050750000  -33.076555  -89.466080   30.320829   88.218330    0.000000    0.000000    0.000000    0.000000
  0.051000000  -33.203811  -96.161362   30.348242   84.391350    0.000000    0.000000    0.000000    0.000000
