! Anritsu VNA Master:                 Model: MS2034B/10/19/501
! SN:                                  1337062
! /bd0/ovro-jan-2016/y2-s22.s2p
! Existing Calibration Information:
! TYPE:                         Current Settings,       Active Cal Settings
! TIME:             	   01/08/2016 01:47:04 PM,    01/08/2016 01:28:30 PM
! INTERNAL TEMP:    	                   47.3 C,                    48.5 C
! # POINTS:         	                      401,                       401
! START FREQ:       	               10.000 MHz,                10.000 MHz
! STOP FREQ:        	              110.000 MHz,               110.000 MHz
! SOURCE POWER:     	                      Low,                       Low
! IFBW:             	                   100 Hz,                    100 Hz
! AVG FACTOR:       	                       1 ,                        1 
! REF PLANE 1:      	                     0 mm,                      0 mm
! REF PLANE 2:      	                     0 mm,                      0 mm
! CAL TYPE:         	                 Full S11,                  Full S11
! CAL METHOD:       	                     SOLT,                      SOLT
! CAL LINE TYPE:    	                     Coax,                      Coax
! DUT PORT 1:       	                K-Conn(M),                 K-Conn(M)
! DUT PORT 2:       	                N-Conn(M),                 N-Conn(M)
! CAL STATUS:       	        OK: Accuracy High,                        --
# GHZ S DB R 50.0
! FREQ.GHZ       S11DB        S11A       S21DB        S21A       S12DB        S12A       S22DB        S22A
  0.010000000  -21.783856  111.946121  -64.845829  169.792007    0.000000    0.000000    0.000000    0.000000
  0.010250000  -22.175846  112.816574  -66.726559  151.937897    0.000000    0.000000    0.000000    0.000000
  0.010500000  -22.345962  113.255913  -64.942562  168.267166    0.000000    0.000000    0.000000    0.000000
  0.010750000  -22.292930  115.842560  -63.486396  163.768295    0.000000    0.000000    0.000000    0.000000
  0.011000000  -22.362112  116.629799  -64.950050  171.640900    0.000000    0.000000    0.000000    0.000000
  0.011250000  -22.804357  117.728477  -63.858843  162.632431    0.000000    0.000000    0.000000    0.000000
  0.011500000  -22.578230  119.178192  -65.208829  157.361389    0.000000    0.000000    0.000000    0.000000
  0.011750000  -22.678914  120.615158  -63.537897  177.132385    0.000000    0.000000    0.000000    0.000000
  0.012000000  -22.693261  121.444588  -66.489243  161.828110    0.000000    0.000000    0.000000    0.000000
  0.012250000  -22.865332  122.373528  -64.762135  163.996780    0.000000    0.000000    0.000000    0.000000
  0.012500000  -22.957877  123.849754  -64.344217  157.845139    0.000000    0.000000    0.000000    0.000000
  0.012750000  -22.976167  123.888023  -64.019966  140.046234    0.000000    0.000000    0.000000    0.000000
  0.013000000  -23.165904  124.222237  -63.692235  141.026489    0.000000    0.000000    0.000000    0.000000
  0.013250000  -23.135994  124.746696  -63.861676  157.855530    0.000000    0.000000    0.000000    0.000000
  0.013500000  -23.068671  124.077789  -65.168182  174.809586    0.000000    0.000000    0.000000    0.000000
  0.013750000  -23.316142  126.632622  -64.751950  147.998169    0.000000    0.000000    0.000000    0.000000
  0.014000000  -23.010652  127.293976  -64.955258  156.364868    0.000000    0.000000    0.000000    0.000000
  0.014250000  -22.941931  127.144051  -65.599418  159.808167    0.000000    0.000000    0.000000    0.000000
  0.014500000  -23.023886  128.083466  -65.684592  158.734116    0.000000    0.000000    0.000000    0.000000
  0.014750000  -23.044366  127.912277  -63.621471  154.417969    0.000000    0.000000    0.000000    0.000000
  0.015000000  -23.002047  128.801041  -63.873378  172.466751    0.000000    0.000000    0.000000    0.000000
  0.015250000  -22.862155  128.797684  -64.097048  154.895935    0.000000    0.000000    0.000000    0.000000
  0.015500000  -22.927814  128.597351  -64.860305  167.661423    0.000000    0.000000    0.000000    0.000000
  0.015750000  -22.918902  128.638168  -66.046263  170.087662    0.000000    0.000000    0.000000    0.000000
  0.016000000  -22.676967  127.550255  -66.703522  170.968155    0.000000    0.000000    0.000000    0.000000
  0.016250000  -22.871953  127.593086  -61.943845  152.010818    0.000000    0.000000    0.000000    0.000000
  0.016500000  -22.654005  127.942062  -65.600892  155.242325    0.000000    0.000000    0.000000    0.000000
  0.016750000  -22.748545  129.007690  -64.833282  160.667145    0.000000    0.000000    0.000000    0.000000
  0.017000000  -22.657904  128.480591  -63.756438  147.135330    0.000000    0.000000    0.000000    0.000000
  0.017250000  -22.552459  128.098099  -63.755557  149.036606    0.000000    0.000000    0.000000    0.000000
  0.017500000  -22.626330  127.502525  -65.108863  160.685684    0.000000    0.000000    0.000000    0.000000
  0.017750000  -22.608338  126.258507  -63.803012  152.736694    0.000000    0.000000    0.000000    0.000000
  0.018000000  -22.659892  126.100960  -64.046026  159.871872    0.000000    0.000000    0.000000    0.000000
  0.018250000  -22.397077  126.897484  -64.151693  140.897644    0.000000    0.000000    0.000000    0.000000
  0.018500000  -22.662182  125.573547  -63.841052  162.703079    0.000000    0.000000    0.000000    0.000000
  0.018750000  -22.537496  125.735420  -63.393278  146.450241    0.000000    0.000000    0.000000    0.000000
  0.019000000  -22.510827  124.238945  -63.320429  145.529007    0.000000    0.000000    0.000000    0.000000
  0.019250000  -22.694099  122.323334  -64.537329  166.814743    0.000000    0.000000    0.000000    0.000000
  0.019500000  -22.633627  122.534630  -62.708366  160.833603    0.000000    0.000000    0.000000    0.000000
  0.019750000  -22.633165  120.440361  -66.280015  161.526154    0.000000    0.000000    0.000000    0.000000
  0.020000000  -22.675829  121.667610  -64.156519  153.247009    0.000000    0.000000    0.000000    0.000000
  0.020250000  -22.623963  120.031425  -63.071280  150.775452    0.000000    0.000000    0.000000    0.000000
  0.020500000  -22.650433  119.435242  -65.806167  158.852463    0.000000    0.000000    0.000000    0.000000
  0.020750000  -22.656836  117.488472  -63.760743  144.940948    0.000000    0.000000    0.000000    0.000000
  0.021000000  -22.779997  117.959770  -62.903911  155.936508    0.000000    0.000000    0.000000    0.000000
  0.021250000  -23.006589  116.525307  -64.319799  150.247681    0.000000    0.000000    0.000000    0.000000
  0.021500000  -22.934510  114.643494  -61.887259  159.407593    0.000000    0.000000    0.000000    0.000000
  0.021750000  -23.030791  114.023155  -64.886634  148.744370    0.000000    0.000000    0.000000    0.000000
  0.022000000  -23.213332  111.552780  -63.074891  156.262390    0.000000    0.000000    0.000000    0.000000
  0.022250000  -23.302903  111.265038  -62.124938  155.885681    0.000000    0.000000    0.000000    0.000000
  0.022500000  -23.181771  111.575645  -63.855607  154.414032    0.000000    0.000000    0.000000    0.000000
  0.022750000  -23.541626  109.554817  -62.703771  139.984482    0.000000    0.000000    0.000000    0.000000
  0.023000000  -23.699152  108.057449  -63.733649  149.119476    0.000000    0.000000    0.000000    0.000000
  0.023250000  -23.581415  107.070793  -66.662768  148.949875    0.000000    0.000000    0.000000    0.000000
  0.023500000  -23.910860  105.632828  -62.940873  135.854279    0.000000    0.000000    0.000000    0.000000
  0.023750000  -24.248564  104.210419  -63.730362  160.374664    0.000000    0.000000    0.000000    0.000000
  0.024000000  -24.484537  101.643631  -63.082940  149.251892    0.000000    0.000000    0.000000    0.000000
  0.024250000  -24.682298  101.539856  -62.465415  150.102661    0.000000    0.000000    0.000000    0.000000
  0.024500000  -24.923320   99.368256  -66.565107  173.497711    0.000000    0.000000    0.000000    0.000000
  0.024750000  -25.148155   99.256470  -65.104247  139.422836    0.000000    0.000000    0.000000    0.000000
  0.025000000  -25.266525   98.865265  -64.318437  163.895401    0.000000    0.000000    0.000000    0.000000
  0.025250000  -25.917092   96.078758  -64.861893  158.828583    0.000000    0.000000    0.000000    0.000000
  0.025500000  -26.306294   97.210938  -64.731304  155.090927    0.000000    0.000000    0.000000    0.000000
  0.025750000  -26.923347   94.358070  -65.969006 -178.034988    0.000000    0.000000    0.000000    0.000000
  0.026000000  -26.791023   93.434639  -65.565559  165.181274    0.000000    0.000000    0.000000    0.000000
  0.026250000  -27.854097   93.972969  -67.244590  154.999695    0.000000    0.000000    0.000000    0.000000
  0.026500000  -28.108579   96.624008  -66.579939  169.307068    0.000000    0.000000    0.000000    0.000000
  0.026750000  -28.444762   93.692505  -63.040451  158.972687    0.000000    0.000000    0.000000    0.000000
  0.027000000  -29.678041   96.934074  -63.886046  159.331787    0.000000    0.000000    0.000000    0.000000
  0.027250000  -30.272215  104.452194  -65.386545  160.728088    0.000000    0.000000    0.000000    0.000000
  0.027500000  -30.039193  106.271210  -64.726117  156.541901    0.000000    0.000000    0.000000    0.000000
  0.027750000  -30.864348  108.203690  -64.439584  153.967224    0.000000    0.000000    0.000000    0.000000
  0.028000000  -30.891807  113.388084  -68.016626  160.011383    0.000000    0.000000    0.000000    0.000000
  0.028250000  -31.270534  121.176323  -65.309456  174.895401    0.000000    0.000000    0.000000    0.000000
  0.028500000  -30.751572  126.494370  -65.930348  167.724335    0.000000    0.000000    0.000000    0.000000
  0.028750000  -30.048561  123.590569  -67.020001  172.735596    0.000000    0.000000    0.000000    0.000000
  0.029000000  -29.746793  128.534515  -63.392874  153.897583    0.000000    0.000000    0.000000    0.000000
  0.029250000  -29.767248  128.637436  -64.285118  164.387497    0.000000    0.000000    0.000000    0.000000
  0.029500000  -29.204938  127.317238  -64.265823  153.926834    0.000000    0.000000    0.000000    0.000000
  0.029750000  -29.328826  124.802032  -65.077168  156.227081    0.000000    0.000000    0.000000    0.000000
  0.030000000  -29.216428  129.880585  -64.542764  162.483612    0.000000    0.000000    0.000000    0.000000
  0.030250000  -28.626872  128.729126  -66.972859  157.771759    0.000000    0.000000    0.000000    0.000000
  0.030500000  -28.626757  124.448654  -65.795533  143.706772    0.000000    0.000000    0.000000    0.000000
  0.030750000  -28.070635  125.810966  -66.825392  163.708496    0.000000    0.000000    0.000000    0.000000
  0.031000000  -28.661452  123.197067  -68.033968  150.229584    0.000000    0.000000    0.000000    0.000000
  0.031250000  -28.735853  126.365273  -64.444961  142.328018    0.000000    0.000000    0.000000    0.000000
  0.031500000  -28.816573  124.564362  -64.376652  162.611313    0.000000    0.000000    0.000000    0.000000
  0.031750000  -28.759789  123.566124  -63.729390  155.111496    0.000000    0.000000    0.000000    0.000000
  0.032000000  -28.827998  123.069092  -63.875477  159.430374    0.000000    0.000000    0.000000    0.000000
  0.032250000  -29.291076  120.405540  -63.877637  168.962997    0.000000    0.000000    0.000000    0.000000
  0.032500000  -28.574977  120.366173  -62.917622  159.997955    0.000000    0.000000    0.000000    0.000000
  0.032750000  -28.843280  121.722755  -65.770528  169.650513    0.000000    0.000000    0.000000    0.000000
  0.033000000  -29.404189  120.305519  -66.639933  157.423996    0.000000    0.000000    0.000000    0.000000
  0.033250000  -29.558467  119.979500  -64.370951  159.883774    0.000000    0.000000    0.000000    0.000000
  0.033500000  -29.296688  119.940727  -66.552097  145.679886    0.000000    0.000000    0.000000    0.000000
  0.033750000  -29.367628  120.219734  -63.254635  165.942413    0.000000    0.000000    0.000000    0.000000
  0.034000000  -29.582404  121.346741  -65.570113  154.305786    0.000000    0.000000    0.000000    0.000000
  0.034250000  -29.832329  118.348465  -63.613600  160.954819    0.000000    0.000000    0.000000    0.000000
  0.034500000  -29.785179  122.393654  -64.099753  146.523911    0.000000    0.000000    0.000000    0.000000
  0.034750000  -30.090704  120.076912  -66.014196  152.281952    0.000000    0.000000    0.000000    0.000000
  0.035000000  -30.186241  120.121117  -65.425645  141.173645    0.000000    0.000000    0.000000    0.000000
  0.035250000  -30.240571  122.990845  -65.245256  159.118332    0.000000    0.000000    0.000000    0.000000
  0.035500000  -30.268552  119.586105  -64.414418  159.118896    0.000000    0.000000    0.000000    0.000000
  0.035750000  -30.592895  123.779266  -64.878558  134.688110    0.000000    0.000000    0.000000    0.000000
  0.036000000  -30.712506  121.293365  -65.464918  163.150635    0.000000    0.000000    0.000000    0.000000
  0.036250000  -30.928201  124.074905  -65.144000  141.165924    0.000000    0.000000    0.000000    0.000000
  0.036500000  -30.893721  125.745026  -63.417878  152.694321    0.000000    0.000000    0.000000    0.000000
  0.036750000  -31.159043  127.328400  -62.859344  146.644028    0.000000    0.000000    0.000000    0.000000
  0.037000000  -30.964358  127.599915  -63.660364  164.416229    0.000000    0.000000    0.000000    0.000000
  0.037250000  -31.143396  124.367401  -64.799242  146.274094    0.000000    0.000000    0.000000    0.000000
  0.037500000  -30.987529  127.858894  -63.752254  159.711502    0.000000    0.000000    0.000000    0.000000
  0.037750000  -31.073019  129.578842  -63.118474  164.517731    0.000000    0.000000    0.000000    0.000000
  0.038000000  -31.151697  132.190247  -65.509464  159.174164    0.000000    0.000000    0.000000    0.000000
  0.038250000  -31.246162  128.657837  -64.339375  177.562500    0.000000    0.000000    0.000000    0.000000
  0.038500000  -31.546083  131.850677  -62.886140  142.018051    0.000000    0.000000    0.000000    0.000000
  0.038750000  -31.303674  129.956360  -68.120435  158.893875    0.000000    0.000000    0.000000    0.000000
  0.039000000  -31.437611  130.964157  -66.892976  160.103897    0.000000    0.000000    0.000000    0.000000
  0.039250000  -31.953775  130.877792  -64.990263  156.167038    0.000000    0.000000    0.000000    0.000000
  0.039500000  -31.524250  132.841324  -63.579999  167.628021    0.000000    0.000000    0.000000    0.000000
  0.039750000  -31.355134  133.698425  -64.355619  148.746140    0.000000    0.000000    0.000000    0.000000
  0.040000000  -31.375958  132.303818  -63.325671  147.089294    0.000000    0.000000    0.000000    0.000000
  0.040250000  -31.540602  132.496292  -61.727713  155.867615    0.000000    0.000000    0.000000    0.000000
  0.040500000  -31.411018  131.429337  -64.301622  153.947113    0.000000    0.000000    0.000000    0.000000
  0.040750000  -31.279334  131.814590  -64.316877  152.364807    0.000000    0.000000    0.000000    0.000000
  0.041000000  -31.485521  135.513214  -64.177256  150.152893    0.000000    0.000000    0.000000    0.000000
  0.041250000  -31.095496  133.182220  -64.961601  138.994308    0.000000    0.000000    0.000000    0.000000
  0.041500000  -31.377782  135.356735  -64.014088  151.179596    0.000000    0.000000    0.000000    0.000000
  0.041750000  -31.609572  134.462143  -64.683328  165.931763    0.000000    0.000000    0.000000    0.000000
  0.042000000  -31.035279  134.538269  -65.291524  145.075180    0.000000    0.000000    0.000000    0.000000
  0.042250000  -31.396924  135.330292  -64.340180  162.519241    0.000000    0.000000    0.000000    0.000000
  0.042500000  -31.093648  135.371857  -64.841942  160.368073    0.000000    0.000000    0.000000    0.000000
  0.042750000  -31.318879  135.231293  -63.791898  152.417023    0.000000    0.000000    0.000000    0.000000
  0.043000000  -31.403243  136.086349  -65.868507  150.387894    0.000000    0.000000    0.000000    0.000000
  0.043250000  -31.594081  135.877411  -65.552370  156.657516    0.000000    0.000000    0.000000    0.000000
  0.043500000  -31.429806  137.549683  -63.437116  163.170685    0.000000    0.000000    0.000000    0.000000
  0.043750000  -31.153194  135.300812  -63.953416  146.735428    0.000000    0.000000    0.000000    0.000000
  0.044000000  -31.300508  136.186844  -64.600171  163.800812    0.000000    0.000000    0.000000    0.000000
  0.044250000  -31.345445  134.228134  -64.785002  155.855972    0.000000    0.000000    0.000000    0.000000
  0.044500000  -31.151853  137.118988  -63.817941  148.973480    0.000000    0.000000    0.000000    0.000000
  0.044750000  -31.429320  134.588272  -65.442861  151.237610    0.000000    0.000000    0.000000    0.000000
  0.045000000  -31.267803  135.370636  -64.580644  158.647827    0.000000    0.000000    0.000000    0.000000
  0.045250000  -31.105058  136.005890  -62.023776  156.928436    0.000000    0.000000    0.000000    0.000000
  0.045500000  -31.725832  137.112274  -63.267298  166.995285    0.000000    0.000000    0.000000    0.000000
  0.045750000  -31.285667  136.849991  -65.430274  155.850662    0.000000    0.000000    0.000000    0.000000
  0.046000000  -31.264520  136.806503  -66.862462  174.013428    0.000000    0.000000    0.000000    0.000000
  0.046250000  -31.654332  134.902039  -63.490062  161.475479    0.000000    0.000000    0.000000    0.000000
  0.046500000  -31.575006  134.999664  -64.360312  154.910446    0.000000    0.000000    0.000000    0.000000
  0.046750000  -31.546012  134.060837  -65.188857  147.737000    0.000000    0.000000    0.000000    0.000000
  0.047000000  -31.959019  135.209015  -64.472615  150.026184    0.000000    0.000000    0.000000    0.000000
  0.047250000  -31.686766  134.048447  -63.237487  154.420837    0.000000    0.000000    0.000000    0.000000
  0.047500000  -32.101993  133.350525  -63.332181  146.367813    0.000000    0.000000    0.000000    0.000000
  0.047750000  -31.880403  134.903748  -61.961163  153.874817    0.000000    0.000000    0.000000    0.000000
  0.048000000  -31.865379  133.937988  -64.684112  161.043777    0.000000    0.000000    0.000000    0.000000
  0.048250000  -31.800909  134.448578  -64.137206  126.808197    0.000000    0.000000    0.000000    0.000000
  0.048500000  -32.377790  135.795502  -65.127293  165.474869    0.000000    0.000000    0.000000    0.000000
  0.048750000  -32.246077  137.492142  -61.741551  145.311584    0.000000    0.000000    0.000000    0.000000
  0.049000000  -31.825022  133.939102  -65.181675  157.248795    0.000000    0.000000    0.000000    0.000000
  0.049250000  -32.328164  134.173859  -62.297337  152.154495    0.000000    0.000000    0.000000    0.000000
  0.049500000  -32.007697  134.100464  -64.738082  156.230408    0.000000    0.000000    0.000000    0.000000
  0.049750000  -32.168104  131.201569  -63.071459  157.148056    0.000000    0.000000    0.000000    0.000000
  0.050000000  -32.267146  136.524902  -65.909882  174.981659    0.000000    0.000000    0.000000    0.000000
  0.050250000  -32.614518  137.493454  -66.068143  171.937958    0.000000    0.000000    0.000000    0.000000
  0.050500000  -32.627645  135.102295  -65.839399  173.843643    0.000000    0.000000    0.000000    0.000000
  0.050750000  -31.987800  131.184006  -65.903088  150.633118    0.000000    0.000000    0.000000    0.000000
  0.051000000  -33.658646  137.005966  -66.329582  176.804642    0.000000    0.000000    0.000000    0.000000
