! Anritsu VNA Master:                 Model: MS2034B/10/19/501
! SN:                                  1337062
! /bd0/ovro-jan-2016/z2-s22.s2p
! Existing Calibration Information:
! TYPE:                         Current Settings,       Active Cal Settings
! TIME:             	   01/08/2016 01:29:34 PM,    01/08/2016 01:28:30 PM
! INTERNAL TEMP:    	                   48.0 C,                    48.5 C
! # POINTS:         	                      401,                       401
! START FREQ:       	               10.000 MHz,                10.000 MHz
! STOP FREQ:        	              110.000 MHz,               110.000 MHz
! SOURCE POWER:     	                      Low,                       Low
! IFBW:             	                   100 Hz,                    100 Hz
! AVG FACTOR:       	                       1 ,                        1 
! REF PLANE 1:      	                     0 mm,                      0 mm
! REF PLANE 2:      	                     0 mm,                      0 mm
! CAL TYPE:         	                 Full S11,                  Full S11
! CAL METHOD:       	                     SOLT,                      SOLT
! CAL LINE TYPE:    	                     Coax,                      Coax
! DUT PORT 1:       	                K-Conn(M),                 K-Conn(M)
! DUT PORT 2:       	                N-Conn(M),                 N-Conn(M)
! CAL STATUS:       	        OK: Accuracy High,                        --
# GHZ S DB R 50.0
! FREQ.GHZ       S11DB        S11A       S21DB        S21A       S12DB        S12A       S22DB        S22A
  0.010000000  -22.445970  102.319817  -65.714772  160.324310    0.000000    0.000000    0.000000    0.000000
  0.010250000  -22.743281  103.580078  -66.357002  153.097809    0.000000    0.000000    0.000000    0.000000
  0.010500000  -22.873320  105.818443  -64.870331  168.247284    0.000000    0.000000    0.000000    0.000000
  0.010750000  -23.085712  106.226120  -66.418376  176.715454    0.000000    0.000000    0.000000    0.000000
  0.011000000  -23.075122  108.332390  -63.777656  147.266846    0.000000    0.000000    0.000000    0.000000
  0.011250000  -23.422105  109.136856  -68.187271  158.728149    0.000000    0.000000    0.000000    0.000000
  0.011500000  -23.629364  108.713692  -64.908526  175.647644    0.000000    0.000000    0.000000    0.000000
  0.011750000  -23.516923  111.719139  -65.108539  151.646042    0.000000    0.000000    0.000000    0.000000
  0.012000000  -23.684779  112.614204  -65.523455  158.436844    0.000000    0.000000    0.000000    0.000000
  0.012250000  -23.934662  113.547829  -63.563468  167.232285    0.000000    0.000000    0.000000    0.000000
  0.012500000  -23.946218  115.456985  -64.609274  154.280853    0.000000    0.000000    0.000000    0.000000
  0.012750000  -24.006669  116.046707  -64.675218  166.222015    0.000000    0.000000    0.000000    0.000000
  0.013000000  -23.816017  117.653488  -66.704362  145.514893    0.000000    0.000000    0.000000    0.000000
  0.013250000  -23.789946  116.985428  -65.379888  160.714462    0.000000    0.000000    0.000000    0.000000
  0.013500000  -23.873752  116.698212  -62.963072  164.725464    0.000000    0.000000    0.000000    0.000000
  0.013750000  -24.222472  118.950706  -63.294696  153.608871    0.000000    0.000000    0.000000    0.000000
  0.014000000  -23.741417  120.327171  -65.120017  152.218750    0.000000    0.000000    0.000000    0.000000
  0.014250000  -23.772035  119.342628  -66.008143  157.142746    0.000000    0.000000    0.000000    0.000000
  0.014500000  -23.811758  120.021408  -65.034383  173.751419    0.000000    0.000000    0.000000    0.000000
  0.014750000  -23.805735  120.823944  -63.073183  167.935181    0.000000    0.000000    0.000000    0.000000
  0.015000000  -23.636824  121.028893  -66.514593  153.839798    0.000000    0.000000    0.000000    0.000000
  0.015250000  -23.623171  120.811935  -66.447590  158.991547    0.000000    0.000000    0.000000    0.000000
  0.015500000  -23.679828  120.501160  -64.097321  150.112076    0.000000    0.000000    0.000000    0.000000
  0.015750000  -23.593705  120.542213  -63.631594 -178.140671    0.000000    0.000000    0.000000    0.000000
  0.016000000  -23.317395  120.867699  -65.371216  166.487274    0.000000    0.000000    0.000000    0.000000
  0.016250000  -23.374336  119.717865  -63.655655  161.210785    0.000000    0.000000    0.000000    0.000000
  0.016500000  -23.241784  120.068306  -62.756144  156.919922    0.000000    0.000000    0.000000    0.000000
  0.016750000  -23.354271  119.946289  -66.431205  167.132919    0.000000    0.000000    0.000000    0.000000
  0.017000000  -23.305956  121.208344  -64.442142  161.531387    0.000000    0.000000    0.000000    0.000000
  0.017250000  -23.242287  119.271988  -64.738821  160.364594    0.000000    0.000000    0.000000    0.000000
  0.017500000  -23.156549  118.906639  -67.245159  151.191208    0.000000    0.000000    0.000000    0.000000
  0.017750000  -23.107191  118.093300  -66.187664  145.766495    0.000000    0.000000    0.000000    0.000000
  0.018000000  -23.118035  117.308174  -65.174773  152.791077    0.000000    0.000000    0.000000    0.000000
  0.018250000  -23.159123  116.387451  -66.145280  139.745392    0.000000    0.000000    0.000000    0.000000
  0.018500000  -23.188157  116.706306  -67.606395  148.058945    0.000000    0.000000    0.000000    0.000000
  0.018750000  -23.096671  116.696457  -66.617939  164.299637    0.000000    0.000000    0.000000    0.000000
  0.019000000  -23.099898  114.758636  -64.110517  152.130798    0.000000    0.000000    0.000000    0.000000
  0.019250000  -23.132628  113.873482  -67.709747  155.955673    0.000000    0.000000    0.000000    0.000000
  0.019500000  -23.051931  113.904221  -63.076214  152.568207    0.000000    0.000000    0.000000    0.000000
  0.019750000  -23.006949  111.952827  -64.429568  132.567734    0.000000    0.000000    0.000000    0.000000
  0.020000000  -23.166154  110.068321  -64.792220  139.029236    0.000000    0.000000    0.000000    0.000000
  0.020250000  -23.158372  108.723274  -68.825255  169.976410    0.000000    0.000000    0.000000    0.000000
  0.020500000  -23.221998  108.852150  -66.436117  158.433533    0.000000    0.000000    0.000000    0.000000
  0.020750000  -23.165236  107.439827  -63.268161  161.201035    0.000000    0.000000    0.000000    0.000000
  0.021000000  -23.277484  106.294296  -64.186876  157.416763    0.000000    0.000000    0.000000    0.000000
  0.021250000  -23.392848  105.316063  -64.933541  159.597198    0.000000    0.000000    0.000000    0.000000
  0.021500000  -23.329203  104.426987  -61.977855  154.723312    0.000000    0.000000    0.000000    0.000000
  0.021750000  -23.354788  103.791824  -62.458838  146.388077    0.000000    0.000000    0.000000    0.000000
  0.022000000  -23.514977  100.943726  -64.902469  172.407944    0.000000    0.000000    0.000000    0.000000
  0.022250000  -23.557587  100.292397  -63.186151  151.268478    0.000000    0.000000    0.000000    0.000000
  0.022500000  -23.766303   99.137932  -63.190798  159.270737    0.000000    0.000000    0.000000    0.000000
  0.022750000  -23.737824   98.673851  -67.138990  150.127594    0.000000    0.000000    0.000000    0.000000
  0.023000000  -23.957080   95.979462  -62.497984  152.750412    0.000000    0.000000    0.000000    0.000000
  0.023250000  -23.945399   97.048325  -64.656136  150.018326    0.000000    0.000000    0.000000    0.000000
  0.023500000  -24.177616   94.347954  -64.477093  165.351379    0.000000    0.000000    0.000000    0.000000
  0.023750000  -24.391064   92.057243  -62.942759  147.543854    0.000000    0.000000    0.000000    0.000000
  0.024000000  -24.513130   89.366486  -66.077532  160.266846    0.000000    0.000000    0.000000    0.000000
  0.024250000  -24.622864   89.359543  -63.745417  160.563736    0.000000    0.000000    0.000000    0.000000
  0.024500000  -24.907859   87.673378  -62.576738  127.790176    0.000000    0.000000    0.000000    0.000000
  0.024750000  -24.992923   85.715652  -64.314955  141.745270    0.000000    0.000000    0.000000    0.000000
  0.025000000  -25.455220   84.162239  -64.926970  178.217743    0.000000    0.000000    0.000000    0.000000
  0.025250000  -25.682190   83.796730  -66.522345  160.871063    0.000000    0.000000    0.000000    0.000000
  0.025500000  -25.703359   82.197350  -70.453639  171.119400    0.000000    0.000000    0.000000    0.000000
  0.025750000  -26.554974   81.244362  -66.778675  175.826981    0.000000    0.000000    0.000000    0.000000
  0.026000000  -26.714148   79.257263  -65.972515  172.698792    0.000000    0.000000    0.000000    0.000000
  0.026250000  -27.386004   76.944321  -64.524379  149.387985    0.000000    0.000000    0.000000    0.000000
  0.026500000  -27.599176   79.327393  -64.335390  172.011826    0.000000    0.000000    0.000000    0.000000
  0.026750000  -28.166920   74.964531  -65.502724  157.310211    0.000000    0.000000    0.000000    0.000000
  0.027000000  -28.827098   78.088860  -66.704155  168.292374    0.000000    0.000000    0.000000    0.000000
  0.027250000  -29.775168   84.106827  -64.154962  167.146713    0.000000    0.000000    0.000000    0.000000
  0.027500000  -29.737013   83.783325  -63.773722  161.446716    0.000000    0.000000    0.000000    0.000000
  0.027750000  -30.738334   84.913162  -63.835805  168.443909    0.000000    0.000000    0.000000    0.000000
  0.028000000  -30.478528   85.459602  -65.386413  172.491913    0.000000    0.000000    0.000000    0.000000
  0.028250000  -30.773574   88.018745  -65.609688  165.695648    0.000000    0.000000    0.000000    0.000000
  0.028500000  -30.780932   94.614647  -66.130982  166.285156    0.000000    0.000000    0.000000    0.000000
  0.028750000  -30.325425   95.176239  -66.728902  172.119583    0.000000    0.000000    0.000000    0.000000
  0.029000000  -30.555843   95.185646  -65.343805  172.391724    0.000000    0.000000    0.000000    0.000000
  0.029250000  -30.391681   97.733772  -66.158837  171.502304    0.000000    0.000000    0.000000    0.000000
  0.029500000  -30.157718   96.320435  -64.255803  156.898987    0.000000    0.000000    0.000000    0.000000
  0.029750000  -29.847827   97.133171  -65.254869  161.292191    0.000000    0.000000    0.000000    0.000000
  0.030000000  -29.984311  101.564774  -63.556301  167.379120    0.000000    0.000000    0.000000    0.000000
  0.030250000  -29.859089  100.645653  -66.169931  159.148987    0.000000    0.000000    0.000000    0.000000
  0.030500000  -29.422609   95.924751  -67.227151  173.339981    0.000000    0.000000    0.000000    0.000000
  0.030750000  -29.507290   99.465118  -63.646955  163.583221    0.000000    0.000000    0.000000    0.000000
  0.031000000  -29.443564   96.649483  -65.598583  148.620758    0.000000    0.000000    0.000000    0.000000
  0.031250000  -30.268359  100.052536  -67.176789  164.617737    0.000000    0.000000    0.000000    0.000000
  0.031500000  -30.422564   98.337776  -65.456049  159.371521    0.000000    0.000000    0.000000    0.000000
  0.031750000  -30.042405   95.475143  -65.721916  172.230484    0.000000    0.000000    0.000000    0.000000
  0.032000000  -30.358036   96.360115  -65.436758  153.482086    0.000000    0.000000    0.000000    0.000000
  0.032250000  -30.032369   94.135994  -67.616946  165.744858    0.000000    0.000000    0.000000    0.000000
  0.032500000  -30.015725   94.175362  -65.474195  162.929153    0.000000    0.000000    0.000000    0.000000
  0.032750000  -30.255758   97.304863  -64.978192  158.594894    0.000000    0.000000    0.000000    0.000000
  0.033000000  -30.653109   95.885056  -64.657567  161.203888    0.000000    0.000000    0.000000    0.000000
  0.033250000  -30.457806   97.737030  -65.502306  156.850159    0.000000    0.000000    0.000000    0.000000
  0.033500000  -30.732098   94.724411  -64.537717  152.354446    0.000000    0.000000    0.000000    0.000000
  0.033750000  -30.476312   94.217293  -64.312168  157.833084    0.000000    0.000000    0.000000    0.000000
  0.034000000  -30.836247   96.543839  -66.421410  163.523605    0.000000    0.000000    0.000000    0.000000
  0.034250000  -30.876474   94.489250  -67.728682  168.466263    0.000000    0.000000    0.000000    0.000000
  0.034500000  -31.319683   96.648499  -64.784293  168.329544    0.000000    0.000000    0.000000    0.000000
  0.034750000  -31.835813   93.877434  -63.837112  140.070480    0.000000    0.000000    0.000000    0.000000
  0.035000000  -31.425979   97.082588  -63.344579  155.534485    0.000000    0.000000    0.000000    0.000000
  0.035250000  -31.222252   97.057068  -65.638968  147.366180    0.000000    0.000000    0.000000    0.000000
  0.035500000  -31.145046   93.493103  -63.334485  159.401810    0.000000    0.000000    0.000000    0.000000
  0.035750000  -32.157634   96.181328  -62.934108  153.597992    0.000000    0.000000    0.000000    0.000000
  0.036000000  -31.703648   96.382225  -63.942404  149.161835    0.000000    0.000000    0.000000    0.000000
  0.036250000  -32.206413   98.456322  -62.952898  142.262344    0.000000    0.000000    0.000000    0.000000
  0.036500000  -32.013433   99.410858  -66.054657  154.202423    0.000000    0.000000    0.000000    0.000000
  0.036750000  -32.104509   97.250343  -65.008589  157.996872    0.000000    0.000000    0.000000    0.000000
  0.037000000  -32.177583   99.655380  -65.651336  160.884598    0.000000    0.000000    0.000000    0.000000
  0.037250000  -32.212288   96.980339  -64.680017  158.653381    0.000000    0.000000    0.000000    0.000000
  0.037500000  -32.805081   97.752777  -66.476322  148.790573    0.000000    0.000000    0.000000    0.000000
  0.037750000  -33.185789  102.911354  -63.121869  147.539032    0.000000    0.000000    0.000000    0.000000
  0.038000000  -32.627890  100.829292  -63.821789  155.277344    0.000000    0.000000    0.000000    0.000000
  0.038250000  -32.817063  102.365654  -64.837217  154.475418    0.000000    0.000000    0.000000    0.000000
  0.038500000  -32.553421  100.006744  -64.575956  150.194427    0.000000    0.000000    0.000000    0.000000
  0.038750000  -32.783141   98.801430  -68.857075  170.537308    0.000000    0.000000    0.000000    0.000000
  0.039000000  -33.110583   97.614265  -63.921440  159.246399    0.000000    0.000000    0.000000    0.000000
  0.039250000  -32.810516  100.912666  -66.359772  167.328400    0.000000    0.000000    0.000000    0.000000
  0.039500000  -32.737190  100.430885  -67.002873  168.700912    0.000000    0.000000    0.000000    0.000000
  0.039750000  -32.899547   98.767250  -65.115925  171.754517    0.000000    0.000000    0.000000    0.000000
  0.040000000  -32.568425  102.910339  -61.967882  157.627609    0.000000    0.000000    0.000000    0.000000
  0.040250000  -32.905372   95.391861  -65.906154  154.338074    0.000000    0.000000    0.000000    0.000000
  0.040500000  -32.631616   97.070374  -63.286973  156.509338    0.000000    0.000000    0.000000    0.000000
  0.040750000  -32.916202  100.041222  -64.980378  146.605499    0.000000    0.000000    0.000000    0.000000
  0.041000000  -33.546360  100.458992  -62.130764  146.634811    0.000000    0.000000    0.000000    0.000000
  0.041250000  -32.654714  101.402527  -66.158121  141.163025    0.000000    0.000000    0.000000    0.000000
  0.041500000  -33.497280   97.622360  -69.305738  144.500778    0.000000    0.000000    0.000000    0.000000
  0.041750000  -33.360594   98.156128  -63.341369  162.368088    0.000000    0.000000    0.000000    0.000000
  0.042000000  -33.188319  103.481659  -66.025146  147.131821    0.000000    0.000000    0.000000    0.000000
  0.042250000  -33.513756  101.068840  -65.002551  155.139359    0.000000    0.000000    0.000000    0.000000
  0.042500000  -32.886066  101.685265  -65.211496  163.714661    0.000000    0.000000    0.000000    0.000000
  0.042750000  -33.165845  101.153130  -65.769311  162.058258    0.000000    0.000000    0.000000    0.000000
  0.043000000  -33.919552  101.241669  -64.325212  168.551651    0.000000    0.000000    0.000000    0.000000
  0.043250000  -33.782085   98.752144  -64.755129  142.817841    0.000000    0.000000    0.000000    0.000000
  0.043500000  -33.820982  101.967819  -64.360527  158.687363    0.000000    0.000000    0.000000    0.000000
  0.043750000  -33.880403   99.304459  -65.765720  154.009491    0.000000    0.000000    0.000000    0.000000
  0.044000000  -33.654267  101.140320  -64.007919  155.547272    0.000000    0.000000    0.000000    0.000000
  0.044250000  -33.441461   98.087303  -65.686299  163.133575    0.000000    0.000000    0.000000    0.000000
  0.044500000  -33.749204  100.523506  -64.622380  161.270966    0.000000    0.000000    0.000000    0.000000
  0.044750000  -33.747314  101.411842  -64.960343  169.027359    0.000000    0.000000    0.000000    0.000000
  0.045000000  -34.303495   97.437279  -65.234243  151.888580    0.000000    0.000000    0.000000    0.000000
  0.045250000  -33.748953   97.453316  -66.420809  162.952072    0.000000    0.000000    0.000000    0.000000
  0.045500000  -34.036688   99.813576  -64.553102  161.826508    0.000000    0.000000    0.000000    0.000000
  0.045750000  -34.189215  101.549171  -65.492840  148.117020    0.000000    0.000000    0.000000    0.000000
  0.046000000  -33.605759   98.553215  -64.820052  159.018463    0.000000    0.000000    0.000000    0.000000
  0.046250000  -34.384193   95.888168  -64.076484  148.672394    0.000000    0.000000    0.000000    0.000000
  0.046500000  -34.459257   96.356697  -64.942551  157.240295    0.000000    0.000000    0.000000    0.000000
  0.046750000  -34.482473   96.470741  -63.376487  153.393753    0.000000    0.000000    0.000000    0.000000
  0.047000000  -34.345871   95.624870  -65.829139  168.397903    0.000000    0.000000    0.000000    0.000000
  0.047250000  -34.225143   98.329414  -64.658817  155.973724    0.000000    0.000000    0.000000    0.000000
  0.047500000  -34.595225   92.957344  -65.027386  162.165848    0.000000    0.000000    0.000000    0.000000
  0.047750000  -34.393681   97.130463  -62.661322  146.053726    0.000000    0.000000    0.000000    0.000000
  0.048000000  -34.930481   96.195358  -64.469551  157.170990    0.000000    0.000000    0.000000    0.000000
  0.048250000  -34.939702   96.327179  -64.032125  137.945175    0.000000    0.000000    0.000000    0.000000
  0.048500000  -35.177503   98.933952  -64.530271  147.255844    0.000000    0.000000    0.000000    0.000000
  0.048750000  -34.982978   99.000267  -65.563685  163.329376    0.000000    0.000000    0.000000    0.000000
  0.049000000  -34.298541  102.132317  -63.687165  149.910767    0.000000    0.000000    0.000000    0.000000
  0.049250000  -35.328940   93.850044  -64.544301  144.106201    0.000000    0.000000    0.000000    0.000000
  0.049500000  -34.867043   94.464630  -63.267210  146.123337    0.000000    0.000000    0.000000    0.000000
  0.049750000  -34.732726   94.836388  -63.749958  149.126923    0.000000    0.000000    0.000000    0.000000
  0.050000000  -34.676862   93.702362  -65.240687  152.432541    0.000000    0.000000    0.000000    0.000000
  0.050250000  -35.503815   92.885063  -65.575813 -175.520096    0.000000    0.000000    0.000000    0.000000
  0.050500000  -35.168639   96.372643  -66.151804  176.518311    0.000000    0.000000    0.000000    0.000000
  0.050750000  -34.745891   91.788818  -66.024056 -171.614624    0.000000    0.000000    0.000000    0.000000
  0.051000000  -36.551013   86.419189  -67.155048  148.999359    0.000000    0.000000    0.000000    0.000000
