! Anritsu VNA Master:                     Model: MS2036C/10/77
! SN:                                  1601066
! /bd0/18may09/b256.ns.m1.s2p
! Existing Calibration Information:
! TYPE:                         Current Settings,       Active Cal Settings
! TIME:             	   05/09/2018 07:37:57 PM,    05/09/2018 07:34:34 PM
! INTERNAL TEMP:    	                   52.5 C,                    52.0 C
! # POINTS:         	                      494,                       494
! START FREQ:       	               20.000 MHz,                20.000 MHz
! STOP FREQ:        	          118.797 594 MHz,           118.797 594 MHz
! SOURCE POWER:     	                     High,                      High
! IFBW:             	                    50 Hz,                     50 Hz
! AVG FACTOR:       	                       1 ,                        1 
! REF PLANE 1:      	                     0 mm,                      0 mm
! REF PLANE 2:      	                     0 mm,                      0 mm
! CAL TYPE:         	                 Full S22,                  Full S22
! CAL METHOD:       	                     SOLT,                      SOLT
! CAL LINE TYPE:    	                     Coax,                      Coax
! DUT PORT 1:       	                K-Conn(M),                 K-Conn(M)
! DUT PORT 2:       	                K-Conn(M),                 K-Conn(M)
! CAL STATUS:       	        OK: Accuracy High,                        --
# GHZ S DB R 50.0
! FREQ.GHZ       S11DB        S11A       S21DB        S21A       S12DB        S12A       S22DB        S22A
  0.020000000    0.000000    0.000000    0.000000    0.000000  -89.342460   38.664505   -0.620964 -126.944572
  0.020200401    0.000000    0.000000    0.000000    0.000000  -89.616348   36.622379   -0.623106 -128.413605
  0.020400802    0.000000    0.000000    0.000000    0.000000  -90.230272   32.517696   -0.628204 -129.902893
  0.020601202    0.000000    0.000000    0.000000    0.000000  -90.490701   33.971722   -0.633578 -131.405441
  0.020801603    0.000000    0.000000    0.000000    0.000000  -91.242817   33.665482   -0.636603 -132.952957
  0.021002004    0.000000    0.000000    0.000000    0.000000  -90.883803   37.139572   -0.639790 -134.497498
  0.021202405    0.000000    0.000000    0.000000    0.000000  -91.600164   36.835567   -0.644595 -136.046646
  0.021402806    0.000000    0.000000    0.000000    0.000000  -91.907128   38.605183   -0.646483 -137.598312
  0.021603206    0.000000    0.000000    0.000000    0.000000  -92.107996   41.341702   -0.651648 -139.128357
  0.021803607    0.000000    0.000000    0.000000    0.000000  -92.161054   36.847126   -0.655187 -140.671463
  0.022004008    0.000000    0.000000    0.000000    0.000000  -92.134887   42.844841   -0.661378 -142.218964
  0.022204409    0.000000    0.000000    0.000000    0.000000  -91.664012   44.707039   -0.668451 -143.801498
  0.022404810    0.000000    0.000000    0.000000    0.000000  -91.368170   40.686874   -0.676219 -145.400650
  0.022605210    0.000000    0.000000    0.000000    0.000000  -91.827377   44.399303   -0.683648 -146.992325
  0.022805611    0.000000    0.000000    0.000000    0.000000  -91.513133   42.089085   -0.685966 -148.604416
  0.023006012    0.000000    0.000000    0.000000    0.000000  -91.804490   41.598774   -0.690400 -150.206009
  0.023206413    0.000000    0.000000    0.000000    0.000000  -91.559591   39.686893   -0.694445 -151.810837
  0.023406814    0.000000    0.000000    0.000000    0.000000  -91.852328   44.142258   -0.702448 -153.416000
  0.023607214    0.000000    0.000000    0.000000    0.000000  -90.967312   43.362743   -0.712610 -155.017563
  0.023807615    0.000000    0.000000    0.000000    0.000000  -91.216958   39.878452   -0.724926 -156.658112
  0.024008016    0.000000    0.000000    0.000000    0.000000  -91.134504   35.151932   -0.733238 -158.317841
  0.024208417    0.000000    0.000000    0.000000    0.000000  -91.294854   39.425159   -0.741929 -159.982895
  0.024408818    0.000000    0.000000    0.000000    0.000000  -91.460863   37.410034   -0.749554 -161.663055
  0.024609218    0.000000    0.000000    0.000000    0.000000  -90.995198   31.005989   -0.760088 -163.342102
  0.024809619    0.000000    0.000000    0.000000    0.000000  -91.725481   33.282940   -0.771345 -165.019180
  0.025010020    0.000000    0.000000    0.000000    0.000000  -91.591913   30.286924   -0.783196 -166.706696
  0.025210421    0.000000    0.000000    0.000000    0.000000  -91.088720   28.009434   -0.794596 -168.416809
  0.025410822    0.000000    0.000000    0.000000    0.000000  -92.705879   27.455667   -0.808544 -170.117172
  0.025611222    0.000000    0.000000    0.000000    0.000000  -92.113696   29.692509   -0.822012 -171.853638
  0.025811623    0.000000    0.000000    0.000000    0.000000  -92.077402   25.625229   -0.835928 -173.593216
  0.026012024    0.000000    0.000000    0.000000    0.000000  -92.663854   24.245415   -0.848224 -175.338242
  0.026212425    0.000000    0.000000    0.000000    0.000000  -93.411721   26.888029   -0.862537 -177.103165
  0.026412826    0.000000    0.000000    0.000000    0.000000  -92.884169   26.474249   -0.879379 -178.872223
  0.026613226    0.000000    0.000000    0.000000    0.000000  -93.800435   24.488451   -0.896815  179.345352
  0.026813627    0.000000    0.000000    0.000000    0.000000  -94.567308   27.235924   -0.913193  177.559143
  0.027014028    0.000000    0.000000    0.000000    0.000000  -94.293256   29.300053   -0.931329  175.773438
  0.027214429    0.000000    0.000000    0.000000    0.000000  -93.958437   25.682781   -0.950114  173.972580
  0.027414830    0.000000    0.000000    0.000000    0.000000  -94.364759   31.978624   -0.970988  172.163162
  0.027615230    0.000000    0.000000    0.000000    0.000000  -94.218390   33.846222   -0.990033  170.347473
  0.027815631    0.000000    0.000000    0.000000    0.000000  -94.494233   29.934977   -1.012311  168.526230
  0.028016032    0.000000    0.000000    0.000000    0.000000  -94.040431   36.505177   -1.033544  166.673248
  0.028216433    0.000000    0.000000    0.000000    0.000000  -94.708466   34.564331   -1.055255  164.828659
  0.028416834    0.000000    0.000000    0.000000    0.000000  -93.661856   33.008980   -1.080233  162.985870
  0.028617234    0.000000    0.000000    0.000000    0.000000  -93.810275   33.394665   -1.103668  161.126038
  0.028817635    0.000000    0.000000    0.000000    0.000000  -94.266644   34.376743   -1.128554  159.276947
  0.029018036    0.000000    0.000000    0.000000    0.000000  -94.198713   32.780315   -1.155943  157.424484
  0.029218437    0.000000    0.000000    0.000000    0.000000  -94.028713   32.189476   -1.183190  155.565094
  0.029418838    0.000000    0.000000    0.000000    0.000000  -93.797639   34.611137   -1.211799  153.682281
  0.029619238    0.000000    0.000000    0.000000    0.000000  -94.116799   34.171013   -1.239914  151.789078
  0.029819639    0.000000    0.000000    0.000000    0.000000  -94.112505   28.275152   -1.270995  149.906281
  0.030020040    0.000000    0.000000    0.000000    0.000000  -94.061453   28.642626   -1.300393  148.009537
  0.030220441    0.000000    0.000000    0.000000    0.000000  -94.088752   32.495689   -1.328084  146.114304
  0.030420842    0.000000    0.000000    0.000000    0.000000  -94.535180   30.220633   -1.357821  144.229019
  0.030621242    0.000000    0.000000    0.000000    0.000000  -94.304845   24.837406   -1.389811  142.343903
  0.030821643    0.000000    0.000000    0.000000    0.000000  -94.769382   19.227737   -1.422254  140.443741
  0.031022044    0.000000    0.000000    0.000000    0.000000  -94.540216   23.150385   -1.453643  138.505219
  0.031222445    0.000000    0.000000    0.000000    0.000000  -94.185449   18.280008   -1.480968  136.580292
  0.031422846    0.000000    0.000000    0.000000    0.000000  -94.690355   17.013277   -1.514269  134.618744
  0.031623246    0.000000    0.000000    0.000000    0.000000  -95.435504   21.659365   -1.546340  132.643372
  0.031823647    0.000000    0.000000    0.000000    0.000000  -94.695660   20.223873   -1.581667  130.652969
  0.032024048    0.000000    0.000000    0.000000    0.000000  -95.167927   18.478693   -1.617247  128.662903
  0.032224449    0.000000    0.000000    0.000000    0.000000  -95.281171   24.720764   -1.652339  126.681961
  0.032424850    0.000000    0.000000    0.000000    0.000000  -94.718734   22.701097   -1.690756  124.664001
  0.032625250    0.000000    0.000000    0.000000    0.000000  -94.873400   24.540045   -1.725756  122.642426
  0.032825651    0.000000    0.000000    0.000000    0.000000  -95.085160   19.647167   -1.764075  120.595322
  0.033026052    0.000000    0.000000    0.000000    0.000000  -95.757673   24.696259   -1.802599  118.552963
  0.033226453    0.000000    0.000000    0.000000    0.000000  -96.615066   23.154119   -1.842685  116.498085
  0.033426854    0.000000    0.000000    0.000000    0.000000  -98.303431   21.899473   -1.882074  114.446266
  0.033627254    0.000000    0.000000    0.000000    0.000000  -96.267184   22.149111   -1.925712  112.401321
  0.033827655    0.000000    0.000000    0.000000    0.000000  -96.658692   26.431801   -1.967905  110.356178
  0.034028056    0.000000    0.000000    0.000000    0.000000  -96.039330   28.942005   -2.010584  108.286888
  0.034228457    0.000000    0.000000    0.000000    0.000000  -96.354894   23.502201   -2.053929  106.226547
  0.034428858    0.000000    0.000000    0.000000    0.000000  -95.890319   24.615801   -2.102146  104.132294
  0.034629258    0.000000    0.000000    0.000000    0.000000  -96.206612   22.776152   -2.146335  102.047852
  0.034829659    0.000000    0.000000    0.000000    0.000000  -97.104479   29.688745   -2.193141   99.967697
  0.035030060    0.000000    0.000000    0.000000    0.000000  -96.065707   22.568007   -2.243146   97.881783
  0.035230461    0.000000    0.000000    0.000000    0.000000  -96.378980   27.762049   -2.288510   95.805656
  0.035430862    0.000000    0.000000    0.000000    0.000000  -95.672638   27.037430   -2.338638   93.725662
  0.035631262    0.000000    0.000000    0.000000    0.000000  -96.549369   26.857119   -2.390687   91.638046
  0.035831663    0.000000    0.000000    0.000000    0.000000  -96.874979   29.278688   -2.439845   89.546074
  0.036032064    0.000000    0.000000    0.000000    0.000000  -96.455066   18.329357   -2.491319   87.452263
  0.036232465    0.000000    0.000000    0.000000    0.000000  -96.457110   25.434006   -2.540698   85.370895
  0.036432866    0.000000    0.000000    0.000000    0.000000  -95.745071   22.760262   -2.595423   83.258667
  0.036633266    0.000000    0.000000    0.000000    0.000000  -96.035341   25.370914   -2.649257   81.159378
  0.036833667    0.000000    0.000000    0.000000    0.000000  -96.165951   23.269445   -2.701983   79.057404
  0.037034068    0.000000    0.000000    0.000000    0.000000  -96.659116   19.239155   -2.756713   76.935684
  0.037234469    0.000000    0.000000    0.000000    0.000000  -96.105772   16.886520   -2.814502   74.835579
  0.037434870    0.000000    0.000000    0.000000    0.000000  -97.260127   23.304543   -2.874395   72.715775
  0.037635270    0.000000    0.000000    0.000000    0.000000  -96.073489   21.116629   -2.937075   70.591629
  0.037835671    0.000000    0.000000    0.000000    0.000000  -97.539136   23.383005   -3.010180   68.541016
  0.038036072    0.000000    0.000000    0.000000    0.000000  -97.225479   26.284119   -3.069563   66.528015
  0.038236473    0.000000    0.000000    0.000000    0.000000  -97.669019   24.398239   -3.119975   64.479973
  0.038436874    0.000000    0.000000    0.000000    0.000000  -97.952886   22.904793   -3.173208   62.369881
  0.038637274    0.000000    0.000000    0.000000    0.000000  -98.634726   22.585938   -3.225913   60.273849
  0.038837675    0.000000    0.000000    0.000000    0.000000  -97.567764   27.105934   -3.276182   58.147770
  0.039038076    0.000000    0.000000    0.000000    0.000000  -98.772770   29.937389   -3.330016   56.052128
  0.039238477    0.000000    0.000000    0.000000    0.000000  -97.713293   26.662886   -3.385821   53.978962
  0.039438878    0.000000    0.000000    0.000000    0.000000  -98.192703   33.118340   -3.438337   51.880230
  0.039639278    0.000000    0.000000    0.000000    0.000000  -98.823352   37.859604   -3.493394   49.782379
  0.039839679    0.000000    0.000000    0.000000    0.000000  -98.323048   30.409079   -3.548981   47.674870
  0.040040080    0.000000    0.000000    0.000000    0.000000  -98.259307   31.723520   -3.603239   45.564125
  0.040240481    0.000000    0.000000    0.000000    0.000000  -97.686825   34.270237   -3.656577   43.466843
  0.040440882    0.000000    0.000000    0.000000    0.000000  -98.462070   29.108387   -3.709741   41.394863
  0.040641283    0.000000    0.000000    0.000000    0.000000  -99.234925   21.465439   -3.765509   39.312435
  0.040841683    0.000000    0.000000    0.000000    0.000000  -99.886589   21.075933   -3.819602   37.247578
  0.041042084    0.000000    0.000000    0.000000    0.000000  -97.766887   33.655907   -3.874336   35.204666
  0.041242485    0.000000    0.000000    0.000000    0.000000  -97.715165   31.184505   -3.931372   33.113949
  0.041442886    0.000000    0.000000    0.000000    0.000000  -97.897584   34.995518   -3.987093   31.048428
  0.041643287    0.000000    0.000000    0.000000    0.000000  -97.542219   28.281986   -4.038679   28.984146
  0.041843687    0.000000    0.000000    0.000000    0.000000  -97.724763   24.598209   -4.093331   26.913685
  0.042044088    0.000000    0.000000    0.000000    0.000000  -97.617659   28.286020   -4.145699   24.870415
  0.042244489    0.000000    0.000000    0.000000    0.000000  -98.291936   30.966463   -4.201388   22.831257
  0.042444890    0.000000    0.000000    0.000000    0.000000  -97.718339   28.453787   -4.254912   20.810873
  0.042645291    0.000000    0.000000    0.000000    0.000000  -97.665710   32.059414   -4.310235   18.785435
  0.042845691    0.000000    0.000000    0.000000    0.000000  -98.699363   30.041193   -4.364320   16.765701
  0.043046092    0.000000    0.000000    0.000000    0.000000  -99.510958   34.037746   -4.417832   14.757370
  0.043246493    0.000000    0.000000    0.000000    0.000000  -99.351582   29.127155   -4.471947   12.755173
  0.043446894    0.000000    0.000000    0.000000    0.000000  -98.340989   21.064899   -4.522726   10.752750
  0.043647295    0.000000    0.000000    0.000000    0.000000  -98.180743   24.969955   -4.574243    8.767068
  0.043847695    0.000000    0.000000    0.000000    0.000000 -100.284366   28.896317   -4.626654    6.816463
  0.044048096    0.000000    0.000000    0.000000    0.000000  -98.517902   30.717243   -4.677002    4.863635
  0.044248497    0.000000    0.000000    0.000000    0.000000  -97.837660   24.073788   -4.728978    2.926123
  0.044448898    0.000000    0.000000    0.000000    0.000000  -98.586332   38.556782   -4.778412    1.022847
  0.044649299    0.000000    0.000000    0.000000    0.000000  -98.879207   30.471239   -4.825985   -0.894706
  0.044849699    0.000000    0.000000    0.000000    0.000000  -98.568767   30.260067   -4.873714   -2.776922
  0.045050100    0.000000    0.000000    0.000000    0.000000  -98.927972   35.843990   -4.918288   -4.666173
  0.045250501    0.000000    0.000000    0.000000    0.000000  -98.387163   26.888653   -4.959147   -6.535350
  0.045450902    0.000000    0.000000    0.000000    0.000000 -100.450755   36.052822   -4.996443   -8.400354
  0.045651303    0.000000    0.000000    0.000000    0.000000  -99.872089   32.380482   -5.038044  -10.242130
  0.045851703    0.000000    0.000000    0.000000    0.000000  -99.972437   37.152992   -5.075701  -12.070329
  0.046052104    0.000000    0.000000    0.000000    0.000000  -99.631299   29.181740   -5.108721  -13.895666
  0.046252505    0.000000    0.000000    0.000000    0.000000  -98.227486   39.336971   -5.145398  -15.693352
  0.046452906    0.000000    0.000000    0.000000    0.000000 -100.320764   27.770136   -5.177726  -17.504536
  0.046653307    0.000000    0.000000    0.000000    0.000000  -97.945703   32.379005   -5.211175  -19.327585
  0.046853707    0.000000    0.000000    0.000000    0.000000  -98.785469   31.704311   -5.244181  -21.140081
  0.047054108    0.000000    0.000000    0.000000    0.000000  -98.566877   28.404654   -5.274139  -22.960852
  0.047254509    0.000000    0.000000    0.000000    0.000000  -98.526060   35.492210   -5.307805  -24.760838
  0.047454910    0.000000    0.000000    0.000000    0.000000  -98.249053   22.711908   -5.337683  -26.578173
  0.047655311    0.000000    0.000000    0.000000    0.000000  -99.756768   29.524405   -5.368442  -28.349375
  0.047855711    0.000000    0.000000    0.000000    0.000000  -99.710964   33.038361   -5.400622  -30.101610
  0.048056112    0.000000    0.000000    0.000000    0.000000  -98.765970   26.898899   -5.430067  -31.864378
  0.048256513    0.000000    0.000000    0.000000    0.000000  -99.362075   31.919155   -5.461150  -33.614201
  0.048456914    0.000000    0.000000    0.000000    0.000000  -98.694309   36.009941   -5.494015  -35.337006
  0.048657315    0.000000    0.000000    0.000000    0.000000  -99.649032   28.963305   -5.519803  -37.100475
  0.048857715    0.000000    0.000000    0.000000    0.000000  -98.167093   36.591846   -5.545515  -38.841549
  0.049058116    0.000000    0.000000    0.000000    0.000000  -98.549133   27.359800   -5.571927  -40.581970
  0.049258517    0.000000    0.000000    0.000000    0.000000 -101.756622   34.681450   -5.593683  -42.309296
  0.049458918    0.000000    0.000000    0.000000    0.000000  -99.648526   38.923782   -5.617029  -44.002602
  0.049659319    0.000000    0.000000    0.000000    0.000000  -98.761657   40.828339   -5.640323  -45.707497
  0.049859719    0.000000    0.000000    0.000000    0.000000  -99.531482   31.594587   -5.667985  -47.408070
  0.050060120    0.000000    0.000000    0.000000    0.000000 -100.441875   34.739090   -5.688774  -49.088890
  0.050260521    0.000000    0.000000    0.000000    0.000000  -99.863797   38.515121   -5.708086  -50.760292
  0.050460922    0.000000    0.000000    0.000000    0.000000 -101.573168   39.213688   -5.726906  -52.436947
  0.050661323    0.000000    0.000000    0.000000    0.000000 -100.508684   29.088987   -5.743238  -54.099648
  0.050861723    0.000000    0.000000    0.000000    0.000000  -98.659559   35.754494   -5.757760  -55.759956
  0.051062124    0.000000    0.000000    0.000000    0.000000  -99.306300   36.274357   -5.778017  -57.397480
  0.051262525    0.000000    0.000000    0.000000    0.000000  -98.039498   41.231686   -5.795119  -59.021439
  0.051462926    0.000000    0.000000    0.000000    0.000000 -100.231066   37.320480   -5.812084  -60.615093
  0.051663327    0.000000    0.000000    0.000000    0.000000  -99.616052   35.452076   -5.822794  -62.238338
  0.051863727    0.000000    0.000000    0.000000    0.000000  -98.821950   34.934753   -5.837934  -63.817326
  0.052064128    0.000000    0.000000    0.000000    0.000000  -97.399388   26.295420   -5.850958  -65.409081
  0.052264529    0.000000    0.000000    0.000000    0.000000  -98.347889   38.543419   -5.863897  -66.968834
  0.052464930    0.000000    0.000000    0.000000    0.000000  -99.133305   29.287851   -5.873787  -68.512993
  0.052665331    0.000000    0.000000    0.000000    0.000000  -99.493577   35.938541   -5.884401  -70.063820
  0.052865731    0.000000    0.000000    0.000000    0.000000  -98.258328   34.446247   -5.898555  -71.591278
