! Anritsu VNA Master:                     Model: MS2036C/10/77
! SN:                                  1601066
! /bd0/18may10/252.ns.m7.s2p
! Existing Calibration Information:
! TYPE:                         Current Settings,       Active Cal Settings
! TIME:             	   05/10/2018 05:52:59 PM,    05/10/2018 05:49:06 PM
! INTERNAL TEMP:    	                   59.5 C,                    59.5 C
! # POINTS:         	                      490,                       490
! START FREQ:       	               20.000 MHz,                20.000 MHz
! STOP FREQ:        	          117.995 991 MHz,           117.995 991 MHz
! SOURCE POWER:     	                     High,                      High
! IFBW:             	                    50 Hz,                     50 Hz
! AVG FACTOR:       	                       1 ,                        1 
! REF PLANE 1:      	                     0 mm,                      0 mm
! REF PLANE 2:      	                     0 mm,                      0 mm
! CAL TYPE:         	                 Full S22,                  Full S22
! CAL METHOD:       	                     SOLT,                      SOLT
! CAL LINE TYPE:    	                     Coax,                      Coax
! DUT PORT 1:       	                K-Conn(M),                 K-Conn(M)
! DUT PORT 2:       	                K-Conn(M),                 K-Conn(M)
! CAL STATUS:       	        OK: Accuracy High,                        --
# GHZ S DB R 50.0
! FREQ.GHZ       S11DB        S11A       S21DB        S21A       S12DB        S12A       S22DB        S22A
  0.020000000    0.000000    0.000000    0.000000    0.000000  -89.642580   32.958752   -0.628224 -125.408775
  0.020200401    0.000000    0.000000    0.000000    0.000000  -89.933354   33.810795   -0.631657 -126.849998
  0.020400802    0.000000    0.000000    0.000000    0.000000  -89.805503   31.768618   -0.634726 -128.297668
  0.020601202    0.000000    0.000000    0.000000    0.000000  -90.382498   35.242207   -0.639464 -129.768936
  0.020801603    0.000000    0.000000    0.000000    0.000000  -89.980220   37.079380   -0.642618 -131.272781
  0.021002004    0.000000    0.000000    0.000000    0.000000  -90.952185   30.935221   -0.644894 -132.778412
  0.021202405    0.000000    0.000000    0.000000    0.000000  -91.402331   35.573719   -0.648833 -134.297501
  0.021402806    0.000000    0.000000    0.000000    0.000000  -91.743787   35.473133   -0.651176 -135.792694
  0.021603206    0.000000    0.000000    0.000000    0.000000  -91.630795   37.613922   -0.654147 -137.306747
  0.021803607    0.000000    0.000000    0.000000    0.000000  -91.793232   37.186844   -0.658483 -138.815826
  0.022004008    0.000000    0.000000    0.000000    0.000000  -91.534978   41.369526   -0.665630 -140.318375
  0.022204409    0.000000    0.000000    0.000000    0.000000  -92.553465   37.017021   -0.671313 -141.851532
  0.022404810    0.000000    0.000000    0.000000    0.000000  -92.230183   36.156013   -0.678268 -143.387329
  0.022605210    0.000000    0.000000    0.000000    0.000000  -91.345763   38.101715   -0.681657 -144.953140
  0.022805611    0.000000    0.000000    0.000000    0.000000  -91.712520   43.484684   -0.682774 -146.528259
  0.023006012    0.000000    0.000000    0.000000    0.000000  -91.654152   39.946064   -0.686140 -148.081696
  0.023206413    0.000000    0.000000    0.000000    0.000000  -91.652687   43.234169   -0.691676 -149.641785
  0.023406814    0.000000    0.000000    0.000000    0.000000  -91.355563   41.908424   -0.697080 -151.194031
  0.023607214    0.000000    0.000000    0.000000    0.000000  -91.399645   36.918690   -0.704364 -152.769455
  0.023807615    0.000000    0.000000    0.000000    0.000000  -90.964645   37.135414   -0.713570 -154.360870
  0.024008016    0.000000    0.000000    0.000000    0.000000  -91.385644   34.515888   -0.720071 -155.967926
  0.024208417    0.000000    0.000000    0.000000    0.000000  -91.359233   36.404697   -0.727516 -157.607193
  0.024408818    0.000000    0.000000    0.000000    0.000000  -91.697285   37.998363   -0.733643 -159.243668
  0.024609218    0.000000    0.000000    0.000000    0.000000  -91.712734   32.752121   -0.740578 -160.880249
  0.024809619    0.000000    0.000000    0.000000    0.000000  -91.193931   32.194866   -0.748719 -162.529388
  0.025010020    0.000000    0.000000    0.000000    0.000000  -91.729534   31.031595   -0.757782 -164.185532
  0.025210421    0.000000    0.000000    0.000000    0.000000  -92.584114   27.364595   -0.768442 -165.845276
  0.025410822    0.000000    0.000000    0.000000    0.000000  -91.437641   24.568043   -0.778438 -167.527084
  0.025611222    0.000000    0.000000    0.000000    0.000000  -91.513716   27.447552   -0.790582 -169.218613
  0.025811623    0.000000    0.000000    0.000000    0.000000  -92.630275   23.478991   -0.801420 -170.911987
  0.026012024    0.000000    0.000000    0.000000    0.000000  -92.706482   24.710741   -0.811470 -172.630188
  0.026212425    0.000000    0.000000    0.000000    0.000000  -92.906118   20.504034   -0.822483 -174.348053
  0.026412826    0.000000    0.000000    0.000000    0.000000  -93.872281   22.936523   -0.836690 -176.073715
  0.026613226    0.000000    0.000000    0.000000    0.000000  -94.069415   19.184149   -0.849962 -177.820602
  0.026813627    0.000000    0.000000    0.000000    0.000000  -94.060329   22.837095   -0.866012 -179.566360
  0.027014028    0.000000    0.000000    0.000000    0.000000  -94.425342   26.210888   -0.881655  178.675690
  0.027214429    0.000000    0.000000    0.000000    0.000000  -94.455316   29.048269   -0.898085  176.925522
  0.027414830    0.000000    0.000000    0.000000    0.000000  -94.261967   27.388796   -0.916114  175.154526
  0.027615230    0.000000    0.000000    0.000000    0.000000  -95.404398   35.953602   -0.931880  173.371704
  0.027815631    0.000000    0.000000    0.000000    0.000000  -94.522478   30.151630   -0.952098  171.585693
  0.028016032    0.000000    0.000000    0.000000    0.000000  -94.543726   32.926865   -0.970471  169.770599
  0.028216433    0.000000    0.000000    0.000000    0.000000  -94.180110   33.736984   -0.992667  167.959213
  0.028416834    0.000000    0.000000    0.000000    0.000000  -94.341860   26.413843   -1.014078  166.136520
  0.028617234    0.000000    0.000000    0.000000    0.000000  -94.352770   36.851952   -1.035791  164.310333
  0.028817635    0.000000    0.000000    0.000000    0.000000  -94.435670   30.524498   -1.059761  162.484299
  0.029018036    0.000000    0.000000    0.000000    0.000000  -94.359995   27.130602   -1.084419  160.655701
  0.029218437    0.000000    0.000000    0.000000    0.000000  -95.143871   35.059460   -1.112304  158.810608
  0.029418838    0.000000    0.000000    0.000000    0.000000  -94.078404   33.986702   -1.139017  156.936554
  0.029619238    0.000000    0.000000    0.000000    0.000000  -93.738290   29.330843   -1.166300  155.066650
  0.029819639    0.000000    0.000000    0.000000    0.000000  -94.119643   31.098619   -1.195557  153.187683
  0.030020040    0.000000    0.000000    0.000000    0.000000  -94.425815   30.562832   -1.224737  151.304565
  0.030220441    0.000000    0.000000    0.000000    0.000000  -94.492084   29.173084   -1.254537  149.413956
  0.030420842    0.000000    0.000000    0.000000    0.000000  -94.643206   28.290230   -1.284896  147.540146
  0.030621242    0.000000    0.000000    0.000000    0.000000  -94.345826   24.002630   -1.318585  145.665543
  0.030821643    0.000000    0.000000    0.000000    0.000000  -94.323159   24.879791   -1.352156  143.780121
  0.031022044    0.000000    0.000000    0.000000    0.000000  -95.365253   24.738783   -1.384679  141.876938
  0.031222445    0.000000    0.000000    0.000000    0.000000  -94.207795   21.455992   -1.413115  139.985443
  0.031422846    0.000000    0.000000    0.000000    0.000000  -94.995068   26.687546   -1.446675  138.068115
  0.031623246    0.000000    0.000000    0.000000    0.000000  -95.244348   20.860334   -1.483398  136.125473
  0.031823647    0.000000    0.000000    0.000000    0.000000  -94.751111   19.327400   -1.515943  134.191467
  0.032024048    0.000000    0.000000    0.000000    0.000000  -94.871498   17.061037   -1.550351  132.262939
  0.032224449    0.000000    0.000000    0.000000    0.000000  -95.125338   19.864397   -1.584829  130.318054
  0.032424850    0.000000    0.000000    0.000000    0.000000  -95.505972   14.713027   -1.621493  128.356720
  0.032625250    0.000000    0.000000    0.000000    0.000000  -95.723484   15.844002   -1.656505  126.393036
  0.032825651    0.000000    0.000000    0.000000    0.000000  -95.990540   21.193384   -1.691113  124.387550
  0.033026052    0.000000    0.000000    0.000000    0.000000  -95.689062   26.770767   -1.724336  122.382797
  0.033226453    0.000000    0.000000    0.000000    0.000000  -95.386549   19.197603   -1.763309  120.380325
  0.033426854    0.000000    0.000000    0.000000    0.000000  -96.802680   18.011648   -1.796933  118.376259
  0.033627254    0.000000    0.000000    0.000000    0.000000  -96.340420   20.742195   -1.834841  116.364197
  0.033827655    0.000000    0.000000    0.000000    0.000000  -96.132733   23.431824   -1.875726  114.370712
  0.034028056    0.000000    0.000000    0.000000    0.000000  -96.058266   22.535244   -1.915783  112.323051
  0.034228457    0.000000    0.000000    0.000000    0.000000  -97.101004   19.113075   -1.955434  110.300201
  0.034428858    0.000000    0.000000    0.000000    0.000000  -95.690836   16.851387   -2.000161  108.237984
  0.034629258    0.000000    0.000000    0.000000    0.000000  -95.906751   24.339762   -2.039575  106.175018
  0.034829659    0.000000    0.000000    0.000000    0.000000  -96.746353   23.837326   -2.084690  104.098976
  0.035030060    0.000000    0.000000    0.000000    0.000000  -95.737459   24.504980   -2.132688  102.021904
  0.035230461    0.000000    0.000000    0.000000    0.000000  -96.906265   25.704182   -2.180212   99.956978
  0.035430862    0.000000    0.000000    0.000000    0.000000  -96.351779   31.234400   -2.228801   97.869141
  0.035631262    0.000000    0.000000    0.000000    0.000000  -96.257060   29.891977   -2.278652   95.794739
  0.035831663    0.000000    0.000000    0.000000    0.000000  -97.363539   32.236088   -2.327111   93.715759
  0.036032064    0.000000    0.000000    0.000000    0.000000  -97.084852   21.851917   -2.378958   91.616219
  0.036232465    0.000000    0.000000    0.000000    0.000000  -96.128799   25.497070   -2.428886   89.506775
  0.036432866    0.000000    0.000000    0.000000    0.000000  -96.944790   23.352163   -2.479939   87.399323
  0.036633266    0.000000    0.000000    0.000000    0.000000  -95.973483   18.196280   -2.531924   85.285309
  0.036833667    0.000000    0.000000    0.000000    0.000000  -96.372770   20.590565   -2.584824   83.183266
  0.037034068    0.000000    0.000000    0.000000    0.000000  -95.519190   19.495697   -2.640509   81.057449
  0.037234469    0.000000    0.000000    0.000000    0.000000  -96.448403   16.488972   -2.693774   78.932961
  0.037434870    0.000000    0.000000    0.000000    0.000000  -97.469945   16.776426   -2.748893   76.823883
  0.037635270    0.000000    0.000000    0.000000    0.000000  -97.075403   16.046238   -2.806109   74.694969
  0.037835671    0.000000    0.000000    0.000000    0.000000  -98.054358   16.595194   -2.868474   72.553192
  0.038036072    0.000000    0.000000    0.000000    0.000000  -96.914636   20.212719   -2.933572   70.427849
  0.038236473    0.000000    0.000000    0.000000    0.000000  -97.901868   21.221384   -2.998474   68.357178
  0.038436874    0.000000    0.000000    0.000000    0.000000  -98.230629   22.856279   -3.055512   66.277977
  0.038637274    0.000000    0.000000    0.000000    0.000000  -97.443722   27.994831   -3.109898   64.162125
  0.038837675    0.000000    0.000000    0.000000    0.000000  -98.321883   25.254200   -3.163028   62.051491
  0.039038076    0.000000    0.000000    0.000000    0.000000  -96.514800   29.990953   -3.216821   59.941460
  0.039238477    0.000000    0.000000    0.000000    0.000000  -97.870244   28.537279   -3.274996   57.852596
  0.039438878    0.000000    0.000000    0.000000    0.000000  -98.743511   27.781033   -3.329063   55.761803
  0.039639278    0.000000    0.000000    0.000000    0.000000  -98.330397   19.979073   -3.385291   53.680729
  0.039839679    0.000000    0.000000    0.000000    0.000000  -98.348177   27.906918   -3.442811   51.556595
  0.040040080    0.000000    0.000000    0.000000    0.000000  -97.423269   23.364021   -3.497808   49.434849
  0.040240481    0.000000    0.000000    0.000000    0.000000  -98.042570   17.922194   -3.553617   47.355221
  0.040440882    0.000000    0.000000    0.000000    0.000000  -97.747245   30.308336   -3.610449   45.254971
  0.040641283    0.000000    0.000000    0.000000    0.000000  -98.754409   30.452614   -3.665465   43.199421
  0.040841683    0.000000    0.000000    0.000000    0.000000  -98.005370   26.770138   -3.722708   41.116360
  0.041042084    0.000000    0.000000    0.000000    0.000000  -98.042894   29.632111   -3.778036   39.077023
  0.041242485    0.000000    0.000000    0.000000    0.000000  -96.697149   32.389198   -3.836915   36.999493
  0.041442886    0.000000    0.000000    0.000000    0.000000  -97.270132   28.097494   -3.892594   34.929386
  0.041643287    0.000000    0.000000    0.000000    0.000000  -99.029035   26.633678   -3.950676   32.862946
  0.041843687    0.000000    0.000000    0.000000    0.000000  -97.695824   29.708511   -4.004616   30.778894
  0.042044088    0.000000    0.000000    0.000000    0.000000  -99.129978   31.277731   -4.060474   28.730627
  0.042244489    0.000000    0.000000    0.000000    0.000000  -97.708176   25.870846   -4.115162   26.662088
  0.042444890    0.000000    0.000000    0.000000    0.000000  -98.497778   26.323776   -4.170402   24.630476
  0.042645291    0.000000    0.000000    0.000000    0.000000  -99.060219   26.178789   -4.227206   22.600145
  0.042845691    0.000000    0.000000    0.000000    0.000000  -99.278095   27.329792   -4.279527   20.551764
  0.043046092    0.000000    0.000000    0.000000    0.000000  -98.675992   20.377115   -4.334557   18.527674
  0.043246493    0.000000    0.000000    0.000000    0.000000  -99.636103   28.553091   -4.387945   16.474367
  0.043446894    0.000000    0.000000    0.000000    0.000000  -98.925454   25.949818   -4.440750   14.459574
  0.043647295    0.000000    0.000000    0.000000    0.000000  -98.387229   26.218204   -4.489475   12.444683
  0.043847695    0.000000    0.000000    0.000000    0.000000  -98.717270   29.786377   -4.540776   10.438635
  0.044048096    0.000000    0.000000    0.000000    0.000000 -100.992580   18.637499   -4.591497    8.442027
  0.044248497    0.000000    0.000000    0.000000    0.000000  -99.392148   27.712690   -4.642683    6.457130
  0.044448898    0.000000    0.000000    0.000000    0.000000  -98.210031   35.827164   -4.690224    4.487769
  0.044649299    0.000000    0.000000    0.000000    0.000000  -99.785188   23.354738   -4.738275    2.516205
  0.044849699    0.000000    0.000000    0.000000    0.000000  -99.493246   32.924908   -4.784671    0.557936
  0.045050100    0.000000    0.000000    0.000000    0.000000 -100.590661   43.615433   -4.829890   -1.387352
  0.045250501    0.000000    0.000000    0.000000    0.000000  -98.789952   29.117001   -4.874297   -3.337610
  0.045450902    0.000000    0.000000    0.000000    0.000000  -98.466405   29.970392   -4.916353   -5.253379
  0.045651303    0.000000    0.000000    0.000000    0.000000  -99.314292   29.051638   -4.957531   -7.194031
  0.045851703    0.000000    0.000000    0.000000    0.000000  -98.880165   32.375572   -4.997535   -9.095011
  0.046052104    0.000000    0.000000    0.000000    0.000000  -98.708468   30.573938   -5.039265  -10.989695
  0.046252505    0.000000    0.000000    0.000000    0.000000  -99.098414   29.833891   -5.078192  -12.870082
  0.046452906    0.000000    0.000000    0.000000    0.000000  -98.277073   42.192551   -5.116018  -14.724211
  0.046653307    0.000000    0.000000    0.000000    0.000000  -98.115744   30.132517   -5.154266  -16.595533
  0.046853707    0.000000    0.000000    0.000000    0.000000  -99.173915   34.388378   -5.190448  -18.455994
  0.047054108    0.000000    0.000000    0.000000    0.000000  -99.111613   28.895485   -5.225378  -20.316156
  0.047254509    0.000000    0.000000    0.000000    0.000000  -98.363439   36.250751   -5.258205  -22.178213
  0.047454910    0.000000    0.000000    0.000000    0.000000  -99.536188   26.362270   -5.288062  -24.009949
  0.047655311    0.000000    0.000000    0.000000    0.000000  -98.983932   20.408024   -5.318126  -25.839035
  0.047855711    0.000000    0.000000    0.000000    0.000000  -98.719245   31.907358   -5.349222  -27.646872
  0.048056112    0.000000    0.000000    0.000000    0.000000  -98.915259   35.275753   -5.380665  -29.452257
  0.048256513    0.000000    0.000000    0.000000    0.000000  -99.008012   36.782078   -5.411867  -31.230843
  0.048456914    0.000000    0.000000    0.000000    0.000000  -99.768521   29.666277   -5.440279  -33.031666
  0.048657315    0.000000    0.000000    0.000000    0.000000  -99.541010   41.880875   -5.465268  -34.796608
  0.048857715    0.000000    0.000000    0.000000    0.000000 -100.403540   33.300068   -5.493200  -36.579395
  0.049058116    0.000000    0.000000    0.000000    0.000000  -99.472701   31.014322   -5.516587  -38.369160
  0.049258517    0.000000    0.000000    0.000000    0.000000  -98.913551   34.513557   -5.540674  -40.100620
  0.049458918    0.000000    0.000000    0.000000    0.000000  -97.599949   30.474743   -5.560413  -41.857445
  0.049659319    0.000000    0.000000    0.000000    0.000000  -98.806972   46.290653   -5.588292  -43.568748
  0.049859719    0.000000    0.000000    0.000000    0.000000  -99.135420   23.877024   -5.611402  -45.269623
  0.050060120    0.000000    0.000000    0.000000    0.000000  -98.840919   39.406555   -5.633536  -46.980751
  0.050260521    0.000000    0.000000    0.000000    0.000000  -99.660102   33.505638   -5.653875  -48.694157
  0.050460922    0.000000    0.000000    0.000000    0.000000  -99.025544   28.105450   -5.675253  -50.368423
  0.050661323    0.000000    0.000000    0.000000    0.000000  -98.875914   33.807098   -5.688520  -52.076614
  0.050861723    0.000000    0.000000    0.000000    0.000000  -99.374565   35.354015   -5.708773  -53.739140
  0.051062124    0.000000    0.000000    0.000000    0.000000  -98.118613   32.339592   -5.725273  -55.411228
  0.051262525    0.000000    0.000000    0.000000    0.000000  -99.488257   31.317575   -5.747478  -57.040699
  0.051462926    0.000000    0.000000    0.000000    0.000000 -100.378592   37.940323   -5.763555  -58.659447
  0.051663327    0.000000    0.000000    0.000000    0.000000  -98.647922   38.934357   -5.783656  -60.282310
  0.051863727    0.000000    0.000000    0.000000    0.000000  -99.627757   37.409779   -5.800189  -61.904758
  0.052064128    0.000000    0.000000    0.000000    0.000000  -98.413322   28.597002   -5.817650  -63.514149
  0.052264529    0.000000    0.000000    0.000000    0.000000  -99.242674   33.815639   -5.823824  -65.128838
  0.052464930    0.000000    0.000000    0.000000    0.000000  -98.041109   33.635902   -5.838248  -66.698860
  0.052665331    0.000000    0.000000    0.000000    0.000000  -98.280016   33.519264   -5.853894  -68.286430
  0.052865731    0.000000    0.000000    0.000000    0.000000  -98.265559   34.566460   -5.866683  -69.841835
