! Anritsu VNA Master:                     Model: MS2036C/10/77
! SN:                                  1601066
! /bd0/18may10/252.ns.m12.s2p
! Existing Calibration Information:
! TYPE:                         Current Settings,       Active Cal Settings
! TIME:             	   05/10/2018 06:04:29 PM,    05/10/2018 05:49:06 PM
! INTERNAL TEMP:    	                   60.0 C,                    59.5 C
! # POINTS:         	                      490,                       490
! START FREQ:       	               20.000 MHz,                20.000 MHz
! STOP FREQ:        	          117.995 991 MHz,           117.995 991 MHz
! SOURCE POWER:     	                     High,                      High
! IFBW:             	                    50 Hz,                     50 Hz
! AVG FACTOR:       	                       1 ,                        1 
! REF PLANE 1:      	                     0 mm,                      0 mm
! REF PLANE 2:      	                     0 mm,                      0 mm
! CAL TYPE:         	                 Full S22,                  Full S22
! CAL METHOD:       	                     SOLT,                      SOLT
! CAL LINE TYPE:    	                     Coax,                      Coax
! DUT PORT 1:       	                K-Conn(M),                 K-Conn(M)
! DUT PORT 2:       	                K-Conn(M),                 K-Conn(M)
! CAL STATUS:       	        OK: Accuracy High,                        --
# GHZ S DB R 50.0
! FREQ.GHZ       S11DB        S11A       S21DB        S21A       S12DB        S12A       S22DB        S22A
  0.020000000    0.000000    0.000000    0.000000    0.000000  -89.382614   35.291107   -0.639626 -125.355461
  0.020200401    0.000000    0.000000    0.000000    0.000000  -89.889438   33.358379   -0.643205 -126.791260
  0.020400802    0.000000    0.000000    0.000000    0.000000  -89.720814   32.194897   -0.645918 -128.245224
  0.020601202    0.000000    0.000000    0.000000    0.000000  -90.765887   31.846634   -0.650832 -129.704391
  0.020801603    0.000000    0.000000    0.000000    0.000000  -90.642668   34.171062   -0.653746 -131.208801
  0.021002004    0.000000    0.000000    0.000000    0.000000  -91.477148   35.830940   -0.656630 -132.714584
  0.021202405    0.000000    0.000000    0.000000    0.000000  -91.286173   35.086342   -0.661084 -134.235382
  0.021402806    0.000000    0.000000    0.000000    0.000000  -92.110761   36.647423   -0.664770 -135.734711
  0.021603206    0.000000    0.000000    0.000000    0.000000  -91.598573   36.942074   -0.667861 -137.256714
  0.021803607    0.000000    0.000000    0.000000    0.000000  -91.939615   37.149422   -0.672145 -138.766342
  0.022004008    0.000000    0.000000    0.000000    0.000000  -91.620691   39.370079   -0.679116 -140.276855
  0.022204409    0.000000    0.000000    0.000000    0.000000  -92.079863   42.102097   -0.685526 -141.819122
  0.022404810    0.000000    0.000000    0.000000    0.000000  -92.645270   40.947357   -0.692036 -143.358612
  0.022605210    0.000000    0.000000    0.000000    0.000000  -92.323371   38.907093   -0.693212 -144.950363
  0.022805611    0.000000    0.000000    0.000000    0.000000  -91.582189   38.879566   -0.693754 -146.524887
  0.023006012    0.000000    0.000000    0.000000    0.000000  -91.440694   41.996834   -0.699034 -148.089996
  0.023206413    0.000000    0.000000    0.000000    0.000000  -91.817578   42.839214   -0.705066 -149.653519
  0.023406814    0.000000    0.000000    0.000000    0.000000  -91.695187   38.839211   -0.711014 -151.211502
  0.023607214    0.000000    0.000000    0.000000    0.000000  -91.569666   40.674118   -0.716800 -152.790817
  0.023807615    0.000000    0.000000    0.000000    0.000000  -91.361185   39.539165   -0.724593 -154.395157
  0.024008016    0.000000    0.000000    0.000000    0.000000  -91.147789   29.986460   -0.732220 -156.006226
  0.024208417    0.000000    0.000000    0.000000    0.000000  -91.050909   33.162273   -0.738355 -157.648422
  0.024408818    0.000000    0.000000    0.000000    0.000000  -91.026749   34.367695   -0.743550 -159.279236
  0.024609218    0.000000    0.000000    0.000000    0.000000  -90.933842   32.137501   -0.750193 -160.914963
  0.024809619    0.000000    0.000000    0.000000    0.000000  -91.226740   31.144659   -0.757660 -162.566132
  0.025010020    0.000000    0.000000    0.000000    0.000000  -91.907367   29.648840   -0.766281 -164.215500
  0.025210421    0.000000    0.000000    0.000000    0.000000  -92.221736   28.715935   -0.776681 -165.881851
  0.025410822    0.000000    0.000000    0.000000    0.000000  -92.153289   27.275129   -0.786783 -167.552429
  0.025611222    0.000000    0.000000    0.000000    0.000000  -92.353260   22.513069   -0.798277 -169.234131
  0.025811623    0.000000    0.000000    0.000000    0.000000  -92.235956   25.953636   -0.808745 -170.924759
  0.026012024    0.000000    0.000000    0.000000    0.000000  -92.766514   29.695282   -0.817832 -172.633835
  0.026212425    0.000000    0.000000    0.000000    0.000000  -93.196644   24.170771   -0.830248 -174.350601
  0.026412826    0.000000    0.000000    0.000000    0.000000  -93.378847   23.722292   -0.842834 -176.064194
  0.026613226    0.000000    0.000000    0.000000    0.000000  -94.000960   22.475090   -0.857510 -177.809036
  0.026813627    0.000000    0.000000    0.000000    0.000000  -94.163554   22.333193   -0.873669 -179.546127
  0.027014028    0.000000    0.000000    0.000000    0.000000  -94.876008   24.170916   -0.889537  178.704300
  0.027214429    0.000000    0.000000    0.000000    0.000000  -94.233814   25.724051   -0.905899  176.945480
  0.027414830    0.000000    0.000000    0.000000    0.000000  -94.149308   26.098894   -0.924136  175.183868
  0.027615230    0.000000    0.000000    0.000000    0.000000  -94.794759   27.069506   -0.940115  173.400299
  0.027815631    0.000000    0.000000    0.000000    0.000000  -94.897509   27.414761   -0.959937  171.614014
  0.028016032    0.000000    0.000000    0.000000    0.000000  -94.688457   31.412628   -0.978561  169.780457
  0.028216433    0.000000    0.000000    0.000000    0.000000  -94.890728   30.789339   -1.000650  167.970123
  0.028416834    0.000000    0.000000    0.000000    0.000000  -94.534068   30.347658   -1.022282  166.143402
  0.028617234    0.000000    0.000000    0.000000    0.000000  -94.375084   30.666597   -1.044066  164.309296
  0.028817635    0.000000    0.000000    0.000000    0.000000  -94.492179   34.247719   -1.068411  162.484756
  0.029018036    0.000000    0.000000    0.000000    0.000000  -93.973350   29.983250   -1.093442  160.655045
  0.029218437    0.000000    0.000000    0.000000    0.000000  -94.248370   30.513573   -1.119949  158.809647
  0.029418838    0.000000    0.000000    0.000000    0.000000  -94.387660   29.296703   -1.147395  156.932571
  0.029619238    0.000000    0.000000    0.000000    0.000000  -94.154247   29.459091   -1.175039  155.061096
  0.029819639    0.000000    0.000000    0.000000    0.000000  -93.636048   27.114807   -1.203088  153.184616
  0.030020040    0.000000    0.000000    0.000000    0.000000  -94.708043   27.340576   -1.232685  151.293396
  0.030220441    0.000000    0.000000    0.000000    0.000000  -93.482513   25.746403   -1.262112  149.411804
  0.030420842    0.000000    0.000000    0.000000    0.000000  -94.330465   28.506306   -1.292421  147.532349
  0.030621242    0.000000    0.000000    0.000000    0.000000  -94.815440   26.967022   -1.325695  145.659927
  0.030821643    0.000000    0.000000    0.000000    0.000000  -95.082855   22.682770   -1.358995  143.780289
  0.031022044    0.000000    0.000000    0.000000    0.000000  -94.984505   25.716887   -1.392229  141.879639
  0.031222445    0.000000    0.000000    0.000000    0.000000  -94.494638   25.901915   -1.421809  139.983261
  0.031422846    0.000000    0.000000    0.000000    0.000000  -94.644308   21.805372   -1.455390  138.070908
  0.031623246    0.000000    0.000000    0.000000    0.000000  -95.289176   22.157146   -1.492565  136.129700
  0.031823647    0.000000    0.000000    0.000000    0.000000  -95.709418   22.079182   -1.525543  134.200958
  0.032024048    0.000000    0.000000    0.000000    0.000000  -95.180415   17.556942   -1.559126  132.284531
  0.032224449    0.000000    0.000000    0.000000    0.000000  -95.516209   18.412651   -1.594196  130.339462
  0.032424850    0.000000    0.000000    0.000000    0.000000  -95.311122   16.759829   -1.630223  128.381241
  0.032625250    0.000000    0.000000    0.000000    0.000000  -95.278899   21.100651   -1.665808  126.412086
  0.032825651    0.000000    0.000000    0.000000    0.000000  -95.766352   23.946121   -1.699665  124.413277
  0.033026052    0.000000    0.000000    0.000000    0.000000  -96.970213   26.340197   -1.733232  122.414146
  0.033226453    0.000000    0.000000    0.000000    0.000000  -95.588856   21.282684   -1.773538  120.413956
  0.033426854    0.000000    0.000000    0.000000    0.000000  -96.149557   21.400366   -1.805629  118.404465
  0.033627254    0.000000    0.000000    0.000000    0.000000  -96.033751   23.693628   -1.844422  116.398079
  0.033827655    0.000000    0.000000    0.000000    0.000000  -95.586687   24.734705   -1.886131  114.399559
  0.034028056    0.000000    0.000000    0.000000    0.000000  -95.947140   26.208891   -1.925158  112.354958
  0.034228457    0.000000    0.000000    0.000000    0.000000  -97.016963   27.102289   -1.964938  110.337044
  0.034428858    0.000000    0.000000    0.000000    0.000000  -96.211666   25.153872   -2.008931  108.273857
  0.034629258    0.000000    0.000000    0.000000    0.000000  -95.917712   27.447922   -2.049547  106.200150
  0.034829659    0.000000    0.000000    0.000000    0.000000  -96.324287   25.868702   -2.095791  104.137154
  0.035030060    0.000000    0.000000    0.000000    0.000000  -95.879152   27.128103   -2.141712  102.053711
  0.035230461    0.000000    0.000000    0.000000    0.000000  -96.561156   23.627415   -2.188939   99.977570
  0.035430862    0.000000    0.000000    0.000000    0.000000  -96.141830   28.651545   -2.238568   97.902451
  0.035631262    0.000000    0.000000    0.000000    0.000000  -96.468023   27.639496   -2.287259   95.823425
  0.035831663    0.000000    0.000000    0.000000    0.000000  -96.439957   21.352234   -2.336135   93.732277
  0.036032064    0.000000    0.000000    0.000000    0.000000  -96.159625   24.450188   -2.388115   91.637741
  0.036232465    0.000000    0.000000    0.000000    0.000000  -97.234615   26.040533   -2.438330   89.529884
  0.036432866    0.000000    0.000000    0.000000    0.000000  -96.871578   23.884579   -2.489755   87.431587
  0.036633266    0.000000    0.000000    0.000000    0.000000  -96.385767   19.420088   -2.541561   85.311211
  0.036833667    0.000000    0.000000    0.000000    0.000000  -96.105652   22.966604   -2.594607   83.208710
  0.037034068    0.000000    0.000000    0.000000    0.000000  -96.370029   19.756872   -2.648380   81.092087
  0.037234469    0.000000    0.000000    0.000000    0.000000  -97.292446   27.648010   -2.702638   78.962311
  0.037434870    0.000000    0.000000    0.000000    0.000000  -97.346692   19.841915   -2.758528   76.857986
  0.037635270    0.000000    0.000000    0.000000    0.000000  -97.160524   22.995602   -2.816023   74.734489
  0.037835671    0.000000    0.000000    0.000000    0.000000  -97.181302   23.782303   -2.876695   72.582146
  0.038036072    0.000000    0.000000    0.000000    0.000000  -96.887856   12.140678   -2.942704   70.463501
  0.038236473    0.000000    0.000000    0.000000    0.000000  -98.715646   14.647310   -3.008640   68.400871
  0.038436874    0.000000    0.000000    0.000000    0.000000  -97.862878   20.826757   -3.066444   66.317528
  0.038637274    0.000000    0.000000    0.000000    0.000000  -97.121132   12.518244   -3.120962   64.221489
  0.038837675    0.000000    0.000000    0.000000    0.000000  -98.184816   23.299156   -3.175249   62.102261
  0.039038076    0.000000    0.000000    0.000000    0.000000  -97.490200   20.745224   -3.229421   59.996811
  0.039238477    0.000000    0.000000    0.000000    0.000000  -97.234366   20.123289   -3.285030   57.911507
  0.039438878    0.000000    0.000000    0.000000    0.000000  -98.206315   31.334066   -3.341165   55.820129
  0.039639278    0.000000    0.000000    0.000000    0.000000  -98.198731   37.181522   -3.397330   53.728069
  0.039839679    0.000000    0.000000    0.000000    0.000000  -98.070939   25.266125   -3.455493   51.610229
  0.040040080    0.000000    0.000000    0.000000    0.000000  -96.808407   29.437063   -3.510332   49.503231
  0.040240481    0.000000    0.000000    0.000000    0.000000  -97.952280   29.078041   -3.567210   47.402809
  0.040440882    0.000000    0.000000    0.000000    0.000000  -97.776128   31.273155   -3.623837   45.301056
  0.040641283    0.000000    0.000000    0.000000    0.000000  -98.232378   23.157990   -3.679804   43.245235
  0.040841683    0.000000    0.000000    0.000000    0.000000  -97.224710   24.480705   -3.735902   41.163761
  0.041042084    0.000000    0.000000    0.000000    0.000000  -98.654128   20.344919   -3.792112   39.104061
  0.041242485    0.000000    0.000000    0.000000    0.000000  -97.037897   28.929716   -3.851552   37.031296
  0.041442886    0.000000    0.000000    0.000000    0.000000  -97.262691   24.125589   -3.906113   34.969921
  0.041643287    0.000000    0.000000    0.000000    0.000000  -97.242409   33.996758   -3.963799   32.888660
  0.041843687    0.000000    0.000000    0.000000    0.000000  -99.044594   30.808460   -4.019230   30.797064
  0.042044088    0.000000    0.000000    0.000000    0.000000  -97.916760   18.320869   -4.074014   28.747044
  0.042244489    0.000000    0.000000    0.000000    0.000000  -97.675272   24.067404   -4.129616   26.684631
  0.042444890    0.000000    0.000000    0.000000    0.000000  -98.501542   33.358227   -4.184473   24.644192
  0.042645291    0.000000    0.000000    0.000000    0.000000  -97.612235   31.701557   -4.241268   22.606226
  0.042845691    0.000000    0.000000    0.000000    0.000000  -97.022610   24.672318   -4.294409   20.566931
  0.043046092    0.000000    0.000000    0.000000    0.000000  -99.553916   22.263000   -4.347519   18.530531
  0.043246493    0.000000    0.000000    0.000000    0.000000  -97.814592   27.217243   -4.403161   16.476797
  0.043446894    0.000000    0.000000    0.000000    0.000000  -97.867771   27.933714   -4.453868   14.463624
  0.043647295    0.000000    0.000000    0.000000    0.000000  -99.111556   33.604481   -4.501936   12.448748
  0.043847695    0.000000    0.000000    0.000000    0.000000  -98.760753   24.199614   -4.553791   10.444524
  0.044048096    0.000000    0.000000    0.000000    0.000000  -99.606278   29.090302   -4.604158    8.453763
  0.044248497    0.000000    0.000000    0.000000    0.000000  -98.251429   19.109745   -4.653412    6.465223
  0.044448898    0.000000    0.000000    0.000000    0.000000  -98.357292   26.710838   -4.702178    4.506681
  0.044649299    0.000000    0.000000    0.000000    0.000000  -99.543935   17.622732   -4.750113    2.546385
  0.044849699    0.000000    0.000000    0.000000    0.000000  -99.111473   33.235764   -4.792620    0.575168
  0.045050100    0.000000    0.000000    0.000000    0.000000  -98.467000   24.993074   -4.838396   -1.353648
  0.045250501    0.000000    0.000000    0.000000    0.000000  -98.228206   30.403078   -4.881058   -3.288619
  0.045450902    0.000000    0.000000    0.000000    0.000000  -97.508816   30.641680   -4.925829   -5.206287
  0.045651303    0.000000    0.000000    0.000000    0.000000  -99.033374   35.176647   -4.968528   -7.133483
  0.045851703    0.000000    0.000000    0.000000    0.000000  -98.608552   41.201817   -5.008433   -9.028634
  0.046052104    0.000000    0.000000    0.000000    0.000000  -98.216160   30.152100   -5.050213  -10.897784
  0.046252505    0.000000    0.000000    0.000000    0.000000  -98.246146   27.581961   -5.091367  -12.775692
  0.046452906    0.000000    0.000000    0.000000    0.000000  -97.896061   32.284996   -5.127375  -14.622493
  0.046653307    0.000000    0.000000    0.000000    0.000000  -98.221479   30.429777   -5.167903  -16.493187
  0.046853707    0.000000    0.000000    0.000000    0.000000  -99.354813   33.076893   -5.203903  -18.345032
  0.047054108    0.000000    0.000000    0.000000    0.000000  -98.024432   30.662373   -5.237348  -20.209227
  0.047254509    0.000000    0.000000    0.000000    0.000000  -98.831658   34.197929   -5.273410  -22.064529
  0.047454910    0.000000    0.000000    0.000000    0.000000  -98.876489   36.135780   -5.304909  -23.887541
  0.047655311    0.000000    0.000000    0.000000    0.000000  -99.054372   34.964355   -5.335681  -25.725782
  0.047855711    0.000000    0.000000    0.000000    0.000000  -97.645638   28.225500   -5.366588  -27.537939
  0.048056112    0.000000    0.000000    0.000000    0.000000 -100.532918   22.655716   -5.401025  -29.333050
  0.048256513    0.000000    0.000000    0.000000    0.000000  -98.473001   29.573111   -5.432847  -31.129421
  0.048456914    0.000000    0.000000    0.000000    0.000000 -101.505210   38.138222   -5.464636  -32.927616
  0.048657315    0.000000    0.000000    0.000000    0.000000  -99.173035   29.997129   -5.490797  -34.709309
  0.048857715    0.000000    0.000000    0.000000    0.000000  -99.870283   30.537287   -5.519176  -36.502724
  0.049058116    0.000000    0.000000    0.000000    0.000000  -99.783097   28.833647   -5.543075  -38.299393
  0.049258517    0.000000    0.000000    0.000000    0.000000  -99.892523   26.001755   -5.568418  -40.073097
  0.049458918    0.000000    0.000000    0.000000    0.000000  -99.608011   33.225300   -5.589122  -41.827419
  0.049659319    0.000000    0.000000    0.000000    0.000000  -99.242456   30.589371   -5.618443  -43.558044
  0.049859719    0.000000    0.000000    0.000000    0.000000  -99.948325   28.646832   -5.640420  -45.283943
  0.050060120    0.000000    0.000000    0.000000    0.000000  -99.185853   30.452126   -5.662138  -47.020664
  0.050260521    0.000000    0.000000    0.000000    0.000000  -99.641068   31.048172   -5.681544  -48.740948
  0.050460922    0.000000    0.000000    0.000000    0.000000  -99.065923   34.642216   -5.703845  -50.454220
  0.050661323    0.000000    0.000000    0.000000    0.000000  -99.481936   33.031738   -5.717103  -52.161015
  0.050861723    0.000000    0.000000    0.000000    0.000000  -99.248519   35.025742   -5.735341  -53.846577
  0.051062124    0.000000    0.000000    0.000000    0.000000  -98.791779   44.349037   -5.750577  -55.527016
  0.051262525    0.000000    0.000000    0.000000    0.000000  -98.665446   28.793079   -5.770493  -57.170803
  0.051462926    0.000000    0.000000    0.000000    0.000000  -98.011189   28.564009   -5.785719  -58.802765
  0.051663327    0.000000    0.000000    0.000000    0.000000  -98.301340   35.301388   -5.804177  -60.421070
  0.051863727    0.000000    0.000000    0.000000    0.000000  -98.517662   32.502373   -5.815885  -62.051697
  0.052064128    0.000000    0.000000    0.000000    0.000000  -99.586441   30.414747   -5.830909  -63.654209
  0.052264529    0.000000    0.000000    0.000000    0.000000  -98.025231   24.707256   -5.838048  -65.269882
  0.052464930    0.000000    0.000000    0.000000    0.000000  -98.720411   33.525810   -5.848909  -66.849640
  0.052665331    0.000000    0.000000    0.000000    0.000000 -100.222335   37.936535   -5.861658  -68.427994
  0.052865731    0.000000    0.000000    0.000000    0.000000  -99.086971   35.785099   -5.875381  -69.972443
